isweep,gm,i_id,id,i_cgg,cgg,i_cgs,cgs,i_cgd,cgd,i_cds,cds,i_css,css,i_cdd,cdd,i_gds,gds,i_vth,vth,i_vdsat,vdsat,i_vgs,vgs,i_vds,vds,i_rds,rds,i_wt,wt,i_ft,ft,i_kgm,kgm,W,L,pdk
1.00000000e-09,2.67310823e-08,1.00000000e-09,9.99627416e-10,1.00000000e-09,8.32953097e-16,1.00000000e-09,-2.63365683e-16,1.00000000e-09,8.21290368e-19,1.00000000e-09,1.52047980e-16,1.00000000e-09,2.27496271e-16,1.00000000e-09,-2.26928286e-19,1.00000000e-09,5.10922457e-10,1.00000000e-09,6.79585163e-01,1.00000000e-09,4.06491324e-02,1.00000000e-09,3.71968775e-01,1.00000000e-09,3.71968774e-01,1.00000000e-09,1.95724417e+09,1.00000000e-09,3.20919417e+07,1.00000000e-09,5.10759116e+06,1.00000000e-09,2.67410455e+01,1.0,.300,sky130
1.50000000e-09,4.00518087e-08,1.50000000e-09,1.50581324e-09,1.50000000e-09,8.52986738e-16,1.50000000e-09,-2.93317495e-16,1.50000000e-09,9.39965827e-19,1.50000000e-09,1.67590388e-16,1.50000000e-09,2.50775086e-16,1.50000000e-09,-2.86624566e-19,1.50000000e-09,7.56762714e-10,1.50000000e-09,6.79511375e-01,1.50000000e-09,4.06665426e-02,1.50000000e-09,3.87043422e-01,1.50000000e-09,3.87043421e-01,1.50000000e-09,1.32141817e+09,1.50000000e-09,4.69547848e+07,1.50000000e-09,7.47308610e+06,1.50000000e-09,2.65981249e+01,1.0,.300,sky130
2.00000000e-09,5.33330964e-08,2.00000000e-09,2.01408564e-09,2.00000000e-09,8.68507665e-16,2.00000000e-09,-3.16169592e-16,2.00000000e-09,1.02960503e-18,2.00000000e-09,1.79335962e-16,2.00000000e-09,2.68368384e-16,2.00000000e-09,-3.30794486e-19,2.00000000e-09,1.00035528e-09,2.00000000e-09,6.79458729e-01,2.00000000e-09,4.06839313e-02,2.00000000e-09,3.97799098e-01,2.00000000e-09,3.97799097e-01,2.00000000e-09,9.99644850e+08,2.00000000e-09,6.14077441e+07,2.00000000e-09,9.77334601e+06,2.00000000e-09,2.64800540e+01,1.0,.300,sky130
2.50000000e-09,6.61129736e-08,2.50000000e-09,2.50606536e-09,2.50000000e-09,8.80893633e-16,2.50000000e-09,-3.34225276e-16,2.50000000e-09,1.09995802e-18,2.50000000e-09,1.88553526e-16,2.50000000e-09,2.82175727e-16,2.50000000e-09,-3.64986587e-19,2.50000000e-09,1.23383265e-09,2.50000000e-09,6.79418999e-01,2.50000000e-09,4.07006940e-02,2.50000000e-09,4.05915782e-01,2.50000000e-09,4.05915781e-01,2.50000000e-09,8.10482684e+08,2.50000000e-09,7.50521642e+07,2.50000000e-09,1.19449229e+07,2.50000000e-09,2.63811849e+01,1.0,.300,sky130
3.00000000e-09,7.89213597e-08,3.00000000e-09,3.00167360e-09,3.00000000e-09,8.91592117e-16,3.00000000e-09,-3.49709438e-16,3.00000000e-09,1.15999366e-18,3.00000000e-09,1.96417178e-16,3.00000000e-09,2.93955423e-16,3.00000000e-09,-3.93869082e-19,3.00000000e-09,1.46719648e-09,3.00000000e-09,6.79386075e-01,3.00000000e-09,4.07175238e-02,3.00000000e-09,4.12642213e-01,3.00000000e-09,4.12642212e-01,3.00000000e-09,6.81571971e+08,3.00000000e-09,8.85173368e+07,3.00000000e-09,1.40879717e+07,3.00000000e-09,2.62924523e+01,1.0,.300,sky130
3.50000000e-09,9.17599353e-08,3.50000000e-09,3.50075842e-09,3.50000000e-09,9.01048745e-16,3.50000000e-09,-3.63319354e-16,3.50000000e-09,1.21255297e-18,3.50000000e-09,2.03299317e-16,3.50000000e-09,3.04265125e-16,3.50000000e-09,-4.18949732e-19,3.50000000e-09,1.70063780e-09,3.50000000e-09,6.79357919e-01,3.50000000e-09,4.07344219e-02,3.50000000e-09,4.18394333e-01,3.50000000e-09,4.18394332e-01,3.50000000e-09,5.88014684e+08,3.50000000e-09,1.01836816e+08,3.50000000e-09,1.62078327e+07,3.50000000e-09,2.62114446e+01,1.0,.300,sky130
4.00000000e-09,1.04557355e-07,4.00000000e-09,4.00036087e-09,4.00000000e-09,9.09502966e-16,4.00000000e-09,-3.75431007e-16,4.00000000e-09,1.25917146e-18,4.00000000e-09,2.09401530e-16,4.00000000e-09,3.13406698e-16,4.00000000e-09,-4.41045949e-19,4.00000000e-09,1.93296953e-09,4.00000000e-09,6.79333425e-01,4.00000000e-09,4.07512932e-02,4.00000000e-09,4.23398453e-01,4.00000000e-09,4.23398452e-01,4.00000000e-09,5.17338729e+08,4.00000000e-09,1.14960983e+08,4.00000000e-09,1.82966087e+07,4.00000000e-09,2.61369807e+01,1.0,.300,sky130
4.50000000e-09,1.17307923e-07,4.50000000e-09,4.50009025e-09,4.50000000e-09,9.17157146e-16,4.50000000e-09,-3.86354697e-16,4.50000000e-09,1.30109855e-18,4.50000000e-09,2.14887895e-16,4.50000000e-09,3.21625862e-16,4.50000000e-09,-4.60805170e-19,4.50000000e-09,2.16416838e-09,4.50000000e-09,6.79311752e-01,4.50000000e-09,4.07681284e-02,4.50000000e-09,4.27826288e-01,4.50000000e-09,4.27826286e-01,4.50000000e-09,4.62071254e+08,4.50000000e-09,1.27903842e+08,4.50000000e-09,2.03565288e+07,4.50000000e-09,2.60679045e+01,1.0,.300,sky130
5.00000000e-09,1.30014685e-07,5.00000000e-09,4.99992440e-09,5.00000000e-09,9.24160065e-16,5.00000000e-09,-3.96316443e-16,5.00000000e-09,1.33923929e-18,5.00000000e-09,2.19877291e-16,5.00000000e-09,3.29100654e-16,5.00000000e-09,-4.78691159e-19,5.00000000e-09,2.39434786e-09,5.00000000e-09,6.79292309e-01,5.00000000e-09,4.07849301e-02,5.00000000e-09,4.31798472e-01,5.00000000e-09,4.31798471e-01,5.00000000e-09,4.17650258e+08,5.00000000e-09,1.40684163e+08,5.00000000e-09,2.23905799e+07,5.00000000e-09,2.60033302e+01,1.0,.300,sky130
5.50000000e-09,1.42679603e-07,5.50000000e-09,5.49982059e-09,5.50000000e-09,9.30621108e-16,5.50000000e-09,-4.05481447e-16,5.50000000e-09,1.37425286e-18,5.50000000e-09,2.24456319e-16,5.50000000e-09,3.35960775e-16,5.50000000e-09,-4.95039261e-19,5.50000000e-09,2.62358701e-09,5.50000000e-09,6.79274675e-01,5.50000000e-09,4.08016993e-02,5.50000000e-09,4.35401072e-01,5.50000000e-09,4.35401070e-01,5.50000000e-09,3.81157551e+08,5.50000000e-09,1.53316534e+08,5.50000000e-09,2.44010842e+07,5.50000000e-09,2.59425922e+01,1.0,.300,sky130
6.00000000e-09,1.55304590e-07,6.00000000e-09,5.99975097e-09,6.00000000e-09,9.36623575e-16,6.00000000e-09,-4.13974840e-16,6.00000000e-09,1.40663699e-18,6.00000000e-09,2.28690372e-16,6.00000000e-09,3.42304164e-16,6.00000000e-09,-5.10101019e-19,6.00000000e-09,2.85195378e-09,6.00000000e-09,6.79258538e-01,6.00000000e-09,4.08184372e-02,6.00000000e-09,4.38697842e-01,6.00000000e-09,4.38697841e-01,6.00000000e-09,3.50636818e+08,6.00000000e-09,1.65813241e+08,6.00000000e-09,2.63899969e+07,6.00000000e-09,2.58851727e+01,1.0,.300,sky130
6.50000000e-09,1.67891578e-07,6.50000000e-09,6.49970168e-09,6.50000000e-09,9.42232507e-16,6.50000000e-09,-4.21893877e-16,6.50000000e-09,1.43677745e-18,6.50000000e-09,2.32630130e-16,6.50000000e-09,3.48206725e-16,6.50000000e-09,-5.24070252e-19,6.50000000e-09,3.07950907e-09,6.50000000e-09,6.79243660e-01,6.50000000e-09,4.08351450e-02,6.50000000e-09,4.41737356e-01,6.50000000e-09,4.41737354e-01,6.50000000e-09,3.24727084e+08,6.50000000e-09,1.78184872e+08,6.50000000e-09,2.83590031e+07,6.50000000e-09,2.58306591e+01,1.0,.300,sky130
7.00000000e-09,1.80442437e-07,7.00000000e-09,6.99966727e-09,7.00000000e-09,9.47499715e-16,7.00000000e-09,-4.29315708e-16,7.00000000e-09,1.46497949e-18,7.00000000e-09,2.36315692e-16,7.00000000e-09,3.53728521e-16,7.00000000e-09,-5.37099542e-19,7.00000000e-09,3.30630724e-09,7.00000000e-09,6.79229856e-01,7.00000000e-09,4.08518241e-02,7.00000000e-09,4.44557460e-01,7.00000000e-09,4.44557458e-01,7.00000000e-09,3.02452231e+08,7.00000000e-09,1.90440624e+08,7.00000000e-09,3.03095667e+07,7.00000000e-09,2.57787163e+01,1.0,.300,sky130
7.50000000e-09,1.92958809e-07,7.50000000e-09,7.49964220e-09,7.50000000e-09,9.52467124e-16,7.50000000e-09,-4.36302544e-16,7.50000000e-09,1.49148873e-18,7.50000000e-09,2.39779322e-16,7.50000000e-09,3.58917872e-16,7.50000000e-09,-5.49311098e-19,7.50000000e-09,3.53239450e-09,7.50000000e-09,6.79216979e-01,7.50000000e-09,4.08684755e-02,7.50000000e-09,4.47188192e-01,7.50000000e-09,4.47188189e-01,7.50000000e-09,2.83094088e+08,7.50000000e-09,2.02588419e+08,7.50000000e-09,3.22429483e+07,7.50000000e-09,2.57290686e+01,1.0,.300,sky130
8.00000000e-09,2.05442161e-07,8.00000000e-09,7.99962126e-09,8.00000000e-09,9.57169181e-16,8.00000000e-09,-4.42905330e-16,8.00000000e-09,1.51650590e-18,8.00000000e-09,2.43047383e-16,8.00000000e-09,3.63814267e-16,8.00000000e-09,-5.60804388e-19,8.00000000e-09,3.75781072e-09,8.00000000e-09,6.79204911e-01,8.00000000e-09,4.08851003e-02,8.00000000e-09,4.49653791e-01,8.00000000e-09,4.49653789e-01,8.00000000e-09,2.66112392e+08,8.00000000e-09,2.14635160e+08,8.00000000e-09,3.41602467e+07,8.00000000e-09,2.56814859e+01,1.0,.300,sky130
8.50000000e-09,2.17893974e-07,8.50000000e-09,8.49960616e-09,8.50000000e-09,9.61634611e-16,8.50000000e-09,-4.49166423e-16,8.50000000e-09,1.54019761e-18,8.50000000e-09,2.46141750e-16,8.50000000e-09,3.68450472e-16,8.50000000e-09,-5.71661634e-19,8.50000000e-09,3.98259363e-09,8.50000000e-09,6.79193553e-01,8.50000000e-09,4.09016993e-02,8.50000000e-09,4.51974135e-01,8.50000000e-09,4.51974133e-01,8.50000000e-09,2.51092653e+08,8.50000000e-09,2.26587076e+08,8.50000000e-09,3.60624531e+07,8.50000000e-09,2.56357730e+01,1.0,.300,sky130
9.00000000e-09,2.30315460e-07,9.00000000e-09,8.99959304e-09,9.00000000e-09,9.65887546e-16,9.00000000e-09,-4.55121316e-16,9.00000000e-09,1.56270322e-18,9.00000000e-09,2.49080723e-16,9.00000000e-09,3.72853894e-16,9.00000000e-09,-5.81951391e-19,9.00000000e-09,4.20677414e-09,9.00000000e-09,6.79182826e-01,9.00000000e-09,4.09182734e-02,9.00000000e-09,4.54165681e-01,9.00000000e-09,4.54165678e-01,9.00000000e-09,2.37711835e+08,9.00000000e-09,2.38449559e+08,9.00000000e-09,3.79504260e+07,9.00000000e-09,2.55917638e+01,1.0,.300,sky130
9.50000000e-09,2.42707840e-07,9.50000000e-09,9.49958313e-09,9.50000000e-09,9.69948544e-16,9.50000000e-09,-4.60800169e-16,9.50000000e-09,1.58414097e-18,9.50000000e-09,2.51879821e-16,9.50000000e-09,3.77047783e-16,9.50000000e-09,-5.91731627e-19,9.50000000e-09,4.43038183e-09,9.50000000e-09,6.79172662e-01,9.50000000e-09,4.09348233e-02,9.50000000e-09,4.56242245e-01,9.50000000e-09,4.56242242e-01,9.50000000e-09,2.25714179e+08,9.50000000e-09,2.50227542e+08,9.50000000e-09,3.98249502e+07,9.50000000e-09,2.55493148e+01,1.0,.300,sky130
1.00000000e-08,2.55071321e-07,1.00000000e-08,9.99954053e-09,1.00000000e-08,9.73834959e-16,1.00000000e-08,-4.66228397e-16,1.00000000e-08,1.60461042e-18,1.00000000e-08,2.54552114e-16,1.00000000e-08,3.81051713e-16,1.00000000e-08,-6.01051056e-19,1.00000000e-08,4.65342671e-09,1.00000000e-08,6.79163004e-01,1.00000000e-08,4.09513485e-02,1.00000000e-08,4.58215384e-01,1.00000000e-08,4.58215381e-01,1.00000000e-08,2.14895401e+08,1.00000000e-08,2.61924588e+08,1.00000000e-08,4.16865930e+07,1.00000000e-08,2.55083041e+01,1.0,.300,sky130
1.50000000e-08,3.78753214e-07,1.50000000e-08,1.50569654e-08,1.50000000e-08,1.00601287e-15,1.50000000e-08,-5.10948610e-16,1.50000000e-08,1.77244944e-18,1.50000000e-08,2.76451020e-16,1.50000000e-08,4.13864335e-16,1.50000000e-08,-6.76798643e-19,1.50000000e-08,6.88325372e-09,1.50000000e-08,6.79085340e-01,1.50000000e-08,4.11173054e-02,1.50000000e-08,4.74082073e-01,1.50000000e-08,4.74082069e-01,1.50000000e-08,1.45280131e+08,1.50000000e-08,3.76489431e+08,1.50000000e-08,5.99201540e+07,1.50000000e-08,2.51546845e+01,1.0,.300,sky130
2.00000000e-08,5.00774327e-07,2.00000000e-08,2.01316512e-08,2.00000000e-08,1.03006040e-15,2.00000000e-08,-5.44139705e-16,2.00000000e-08,1.89613719e-18,2.00000000e-08,2.92577558e-16,2.00000000e-08,4.38029165e-16,2.00000000e-08,-7.31909530e-19,2.00000000e-08,9.08164351e-09,2.00000000e-08,6.79029523e-01,2.00000000e-08,4.12818733e-02,2.00000000e-08,4.85485472e-01,2.00000000e-08,4.85485466e-01,2.00000000e-08,1.10112228e+08,2.00000000e-08,4.86160160e+08,2.00000000e-08,7.73747926e+07,2.00000000e-08,2.48749753e+01,1.0,.300,sky130
2.50000000e-08,6.17636410e-07,2.50000000e-08,2.50577426e-08,2.50000000e-08,1.04881366e-15,2.50000000e-08,-5.69905933e-16,2.50000000e-08,1.99165910e-18,2.50000000e-08,3.05027066e-16,2.50000000e-08,4.56684902e-16,2.50000000e-08,-7.74087220e-19,2.50000000e-08,1.11860673e-08,2.50000000e-08,6.78987026e-01,2.50000000e-08,4.14399695e-02,2.50000000e-08,4.94167621e-01,2.50000000e-08,4.94167614e-01,2.50000000e-08,8.93969231e+07,2.50000000e-08,5.88890508e+08,2.50000000e-08,9.37248352e+07,2.50000000e-08,2.46485256e+01,1.0,.300,sky130
3.00000000e-08,7.34011593e-07,3.00000000e-08,3.00187087e-08,3.00000000e-08,1.06467735e-15,3.00000000e-08,-5.91629759e-16,3.00000000e-08,2.07186506e-18,3.00000000e-08,3.15478382e-16,3.00000000e-08,4.72346823e-16,3.00000000e-08,-8.09255818e-19,3.00000000e-08,1.32805870e-08,3.00000000e-08,6.78951652e-01,3.00000000e-08,4.15976784e-02,3.00000000e-08,5.01394533e-01,3.00000000e-08,5.01394524e-01,3.00000000e-08,7.52978767e+07,3.00000000e-08,6.89421630e+08,3.00000000e-08,1.09724860e+08,3.00000000e-08,2.44518044e+01,1.0,.300,sky130
3.50000000e-08,8.49965786e-07,3.50000000e-08,3.50103711e-08,3.50000000e-08,1.07844896e-15,3.50000000e-08,-6.10439338e-16,3.50000000e-08,2.14107104e-18,3.50000000e-08,3.24495544e-16,3.50000000e-08,4.85859942e-16,3.50000000e-08,-8.39426172e-19,3.50000000e-08,1.53661255e-08,3.50000000e-08,6.78921299e-01,3.50000000e-08,4.17549374e-02,3.50000000e-08,5.07595660e-01,3.50000000e-08,5.07595650e-01,3.50000000e-08,6.50782138e+07,3.50000000e-08,7.88137240e+08,3.50000000e-08,1.25435938e+08,3.50000000e-08,2.42775429e+01,1.0,.300,sky130
4.00000000e-08,9.65025674e-07,4.00000000e-08,4.00066613e-08,4.00000000e-08,1.09057846e-15,4.00000000e-08,-6.26970677e-16,4.00000000e-08,2.20171209e-18,4.00000000e-08,3.32396608e-16,4.00000000e-08,4.97700752e-16,4.00000000e-08,-8.65732489e-19,4.00000000e-08,1.74338985e-08,4.00000000e-08,6.78894796e-01,4.00000000e-08,4.19109888e-02,4.00000000e-08,5.13010302e-01,4.00000000e-08,5.13010291e-01,4.00000000e-08,5.73595171e+07,4.00000000e-08,8.84875051e+08,4.00000000e-08,1.40832238e+08,4.00000000e-08,2.41216248e+01,1.0,.300,sky130
4.50000000e-08,1.07922512e-06,4.50000000e-08,4.50042178e-08,4.50000000e-08,1.10141803e-15,4.50000000e-08,-6.41717520e-16,4.50000000e-08,2.25566372e-18,4.50000000e-08,3.39426314e-16,4.50000000e-08,5.08235930e-16,4.50000000e-08,-8.89036514e-19,4.50000000e-08,1.94842770e-08,4.50000000e-08,6.78871266e-01,4.50000000e-08,4.20657891e-02,4.50000000e-08,5.17817620e-01,4.50000000e-08,5.17817607e-01,4.50000000e-08,5.13234338e+07,4.50000000e-08,9.79850595e+08,4.50000000e-08,1.55948066e+08,4.50000000e-08,2.39805327e+01,1.0,.300,sky130
5.00000000e-08,1.19264742e-06,5.00000000e-08,5.00027407e-08,5.00000000e-08,1.11122033e-15,5.00000000e-08,-6.55032803e-16,5.00000000e-08,2.30426210e-18,5.00000000e-08,3.45758922e-16,5.00000000e-08,5.17726567e-16,5.00000000e-08,-9.09948388e-19,5.00000000e-08,2.15185535e-08,5.00000000e-08,6.78850093e-01,5.00000000e-08,4.22193821e-02,5.00000000e-08,5.22143319e-01,5.00000000e-08,5.22143305e-01,5.00000000e-08,4.64715252e+07,5.00000000e-08,1.07327717e+09,5.00000000e-08,1.70817367e+08,5.00000000e-08,2.38516409e+01,1.0,.300,sky130
5.50000000e-08,1.30535726e-06,5.50000000e-08,5.50018172e-08,5.50000000e-08,1.12016915e-15,5.50000000e-08,-6.67172581e-16,5.50000000e-08,2.34847442e-18,5.50000000e-08,3.51520517e-16,5.50000000e-08,5.26361576e-16,5.50000000e-08,-9.28907870e-19,5.50000000e-08,2.35377185e-08,5.50000000e-08,6.78830837e-01,5.50000000e-08,4.23718012e-02,5.50000000e-08,5.26077351e-01,5.50000000e-08,5.26077335e-01,5.50000000e-08,4.24850012e+07,5.50000000e-08,1.16532155e+09,5.50000000e-08,1.85466686e+08,5.50000000e-08,2.37329842e+01,1.0,.300,sky130
6.00000000e-08,1.41741116e-06,6.00000000e-08,6.00012097e-08,6.00000000e-08,1.12840294e-15,6.00000000e-08,-6.78329303e-16,6.00000000e-08,2.38902605e-18,6.00000000e-08,3.56805627e-16,6.00000000e-08,5.34282587e-16,6.00000000e-08,-9.46243471e-19,6.00000000e-08,2.55426458e-08,6.00000000e-08,6.78813171e-01,6.00000000e-08,4.25230801e-02,6.00000000e-08,5.29686510e-01,6.00000000e-08,5.29686493e-01,6.00000000e-08,3.91502120e+07,6.00000000e-08,1.25612147e+09,6.00000000e-08,1.99917940e+08,6.00000000e-08,2.36230430e+01,1.0,.300,sky130
6.50000000e-08,1.52885867e-06,6.50000000e-08,6.50007916e-08,6.50000000e-08,1.13602868e-15,6.50000000e-08,-6.88651368e-16,6.50000000e-08,2.42647527e-18,6.50000000e-08,3.61686979e-16,6.50000000e-08,5.41598574e-16,6.50000000e-08,-9.62207132e-19,6.50000000e-08,2.75341106e-08,6.50000000e-08,6.78796846e-01,6.50000000e-08,4.26732515e-02,6.50000000e-08,5.33021771e-01,6.50000000e-08,5.33021752e-01,6.50000000e-08,3.63185873e+07,6.50000000e-08,1.34579232e+09,6.50000000e-08,2.14189499e+08,6.50000000e-08,2.35206162e+01,1.0,.300,sky130
7.00000000e-08,1.63974317e-06,7.00000000e-08,7.00004964e-08,7.00000000e-08,1.14313078e-15,7.00000000e-08,-6.98255659e-16,7.00000000e-08,2.46126100e-18,7.00000000e-08,3.66221740e-16,7.00000000e-08,5.48395191e-16,7.00000000e-08,-9.76996311e-19,7.00000000e-08,2.95127998e-08,7.00000000e-08,6.78781667e-01,7.00000000e-08,4.28223470e-02,7.00000000e-08,5.36122917e-01,7.00000000e-08,5.36122896e-01,7.00000000e-08,3.38836032e+07,7.00000000e-08,1.43443182e+09,7.00000000e-08,2.28296915e+08,7.00000000e-08,2.34247363e+01,1.0,.300,sky130
7.50000000e-08,1.75010248e-06,7.50000000e-08,7.50002807e-08,7.50000000e-08,1.14977703e-15,7.50000000e-08,-7.07235894e-16,7.50000000e-08,2.49373462e-18,7.50000000e-08,3.70455661e-16,7.50000000e-08,5.54740995e-16,7.50000000e-08,-9.90768628e-19,7.50000000e-08,3.14793203e-08,7.50000000e-08,6.78767479e-01,7.50000000e-08,4.29703958e-02,7.50000000e-08,5.39021590e-01,7.50000000e-08,5.39021568e-01,7.50000000e-08,3.17668866e+07,7.50000000e-08,1.52212336e+09,7.50000000e-08,2.42253457e+08,7.50000000e-08,2.33346124e+01,1.0,.300,sky130
8.00000000e-08,1.85996987e-06,8.00000000e-08,8.00001198e-08,8.00000000e-08,1.15602273e-15,8.00000000e-08,-7.15668407e-16,8.00000000e-08,2.52418192e-18,8.00000000e-08,3.74425946e-16,8.00000000e-08,5.60691729e-16,8.00000000e-08,-1.00365193e-18,8.00000000e-08,3.34342138e-08,8.00000000e-08,6.78754157e-01,8.00000000e-08,4.31174254e-02,8.00000000e-08,5.41743382e-01,8.00000000e-08,5.41743358e-01,8.00000000e-08,2.99094815e+07,8.00000000e-08,1.60893885e+09,8.00000000e-08,2.56070571e+08,8.00000000e-08,2.32495886e+01,1.0,.300,sky130
8.50000000e-08,1.96937469e-06,8.50000000e-08,8.49999967e-08,8.50000000e-08,1.16191358e-15,8.50000000e-08,-7.23616215e-16,8.50000000e-08,2.55283848e-18,8.50000000e-08,3.78163260e-16,8.50000000e-08,5.66293342e-16,8.50000000e-08,-1.01575136e-18,8.50000000e-08,3.53779655e-08,8.50000000e-08,6.78741598e-01,8.50000000e-08,4.32634617e-02,8.50000000e-08,5.44309281e-01,8.50000000e-08,5.44309257e-01,8.50000000e-08,2.82661816e+07,8.50000000e-08,1.69494077e+09,8.50000000e-08,2.69758201e+08,8.50000000e-08,2.31691149e+01,1.0,.300,sky130
9.00000000e-08,2.07834299e-06,9.00000000e-08,8.99999024e-08,9.00000000e-08,1.16748781e-15,9.00000000e-08,-7.31131967e-16,9.00000000e-08,2.57990087e-18,9.00000000e-08,3.81693184e-16,9.00000000e-08,5.71584168e-16,9.00000000e-08,-1.02715445e-18,9.00000000e-08,3.73110142e-08,9.00000000e-08,6.78729716e-01,9.00000000e-08,4.34085291e-02,9.00000000e-08,5.46736724e-01,9.00000000e-08,5.46736698e-01,9.00000000e-08,2.68017372e+07,9.00000000e-08,1.78018388e+09,9.00000000e-08,2.83325064e+08,9.00000000e-08,2.30927249e+01,1.0,.300,sky130
9.50000000e-08,2.18689792e-06,9.50000000e-08,9.49998267e-08,9.50000000e-08,1.17277775e-15,9.50000000e-08,-7.38260102e-16,9.50000000e-08,2.60553482e-18,9.50000000e-08,3.85037282e-16,9.50000000e-08,5.76596517e-16,9.50000000e-08,-1.03793482e-18,9.50000000e-08,3.92337564e-08,9.50000000e-08,6.78718441e-01,9.50000000e-08,4.35526503e-02,9.50000000e-08,5.49040351e-01,9.50000000e-08,5.49040323e-01,9.50000000e-08,2.54882553e+07,9.50000000e-08,1.86471641e+09,9.50000000e-08,2.96778834e+08,9.50000000e-08,2.30200201e+01,1.0,.300,sky130
1.00000000e-07,2.29505341e-06,1.00000000e-07,9.99994481e-08,1.00000000e-07,1.17781063e-15,1.00000000e-07,-7.45038072e-16,1.00000000e-07,2.62987988e-18,1.00000000e-07,3.88213711e-16,1.00000000e-07,5.81357598e-16,1.00000000e-07,-1.04815441e-18,1.00000000e-07,4.11464339e-08,1.00000000e-07,6.78707711e-01,1.00000000e-07,4.36958380e-02,1.00000000e-07,5.51232441e-01,1.00000000e-07,5.51232412e-01,1.00000000e-07,2.43034427e+07,1.00000000e-07,1.94857590e+09,1.00000000e-07,3.10125486e+08,1.00000000e-07,2.29506608e+01,1.0,.300,sky130
