isweep,gm,i_id,id,i_cgg,cgg,i_cgs,cgs,i_cgd,cgd,i_cds,cds,i_css,css,i_cdd,cdd,i_gds,gds,i_vth,vth,i_vdsat,vdsat,i_vgs,vgs,i_vds,vds,i_rds,rds,i_wt,wt,i_ft,ft,i_kgm,kgm,W,L,pdk
1.00000000e-09,2.71198774e-08,1.00000000e-09,9.99579880e-10,1.00000000e-09,8.54916816e-16,1.00000000e-09,-2.78315668e-16,1.00000000e-09,6.35083108e-19,1.00000000e-09,1.62680404e-16,1.00000000e-09,2.43474268e-16,1.00000000e-09,-1.85083716e-19,1.00000000e-09,4.41786046e-10,1.00000000e-09,7.13275638e-01,1.00000000e-09,4.05341717e-02,1.00000000e-09,4.18297240e-01,1.00000000e-09,4.18297240e-01,1.00000000e-09,2.26353913e+09,1.00000000e-09,3.17222412e+07,1.00000000e-09,5.04875149e+06,1.00000000e-09,2.71312758e+01,1.0,.300,sky130
1.50000000e-09,4.05739130e-08,1.50000000e-09,1.50569193e-09,1.50000000e-09,8.75843326e-16,1.50000000e-09,-3.09430086e-16,1.50000000e-09,7.21945409e-19,1.50000000e-09,1.79044804e-16,1.50000000e-09,2.67988721e-16,1.50000000e-09,-2.26900249e-19,1.50000000e-09,6.55923499e-10,1.50000000e-09,7.13222114e-01,1.50000000e-09,4.05588233e-02,1.50000000e-09,4.33204983e-01,1.50000000e-09,4.33204982e-01,1.50000000e-09,1.52456804e+09,1.50000000e-09,4.63255377e+07,1.50000000e-09,7.37293831e+06,1.50000000e-09,2.69470216e+01,1.0,.300,sky130
2.00000000e-09,5.39610023e-08,2.00000000e-09,2.01382068e-09,2.00000000e-09,8.91992527e-16,2.00000000e-09,-3.33117013e-16,2.00000000e-09,7.87567912e-19,2.00000000e-09,1.91384875e-16,2.00000000e-09,2.86475548e-16,2.00000000e-09,-2.57967844e-19,2.00000000e-09,8.68331181e-10,2.00000000e-09,7.13183880e-01,2.00000000e-09,4.05834413e-02,2.00000000e-09,4.43853950e-01,2.00000000e-09,4.43853949e-01,2.00000000e-09,1.15163433e+09,2.00000000e-09,6.04949040e+07,2.00000000e-09,9.62806300e+06,2.00000000e-09,2.67953363e+01,1.0,.300,sky130
2.50000000e-09,6.68289949e-08,2.50000000e-09,2.50590158e-09,2.50000000e-09,9.04852735e-16,2.50000000e-09,-3.51813378e-16,2.50000000e-09,8.39090169e-19,2.50000000e-09,2.01059270e-16,2.50000000e-09,3.00969421e-16,2.50000000e-09,-2.82081865e-19,2.50000000e-09,1.07217295e-09,2.50000000e-09,7.13154983e-01,2.50000000e-09,4.06071827e-02,2.50000000e-09,4.51902384e-01,2.50000000e-09,4.51902384e-01,2.50000000e-09,9.32685351e+08,2.50000000e-09,7.38562114e+07,2.50000000e-09,1.17545811e+07,2.50000000e-09,2.66686431e+01,1.0,.300,sky130
3.00000000e-09,7.97081809e-08,3.00000000e-09,3.00159685e-09,3.00000000e-09,9.15938696e-16,3.00000000e-09,-3.67827466e-16,3.00000000e-09,8.83042278e-19,3.00000000e-09,2.09302553e-16,3.00000000e-09,3.13319597e-16,3.00000000e-09,-3.02475859e-19,3.00000000e-09,1.27601492e-09,3.00000000e-09,7.13131016e-01,3.00000000e-09,4.06310155e-02,3.00000000e-09,4.58577755e-01,3.00000000e-09,4.58577754e-01,3.00000000e-09,7.83689893e+08,3.00000000e-09,8.70234889e+07,3.00000000e-09,1.38502184e+07,3.00000000e-09,2.65552587e+01,1.0,.300,sky130
3.50000000e-09,9.26004995e-08,3.50000000e-09,3.50069547e-09,3.50000000e-09,9.25721035e-16,3.50000000e-09,-3.81887571e-16,3.50000000e-09,9.21502790e-19,3.50000000e-09,2.16508849e-16,3.50000000e-09,3.24116399e-16,3.50000000e-09,-3.20196657e-19,3.50000000e-09,1.47997145e-09,3.50000000e-09,7.13110508e-01,3.50000000e-09,4.06549378e-02,3.50000000e-09,4.64289907e-01,3.50000000e-09,4.64289906e-01,3.50000000e-09,6.75688711e+08,3.50000000e-09,1.00030674e+08,3.50000000e-09,1.59203763e+07,3.50000000e-09,2.64520294e+01,1.0,.300,sky130
4.00000000e-09,1.05437414e-07,4.00000000e-09,4.00030063e-09,4.00000000e-09,9.34454974e-16,4.00000000e-09,-3.94389567e-16,4.00000000e-09,9.55604154e-19,4.00000000e-09,2.22893122e-16,4.00000000e-09,3.33681798e-16,4.00000000e-09,-3.35816370e-19,4.00000000e-09,1.68301105e-09,4.00000000e-09,7.13092653e-01,4.00000000e-09,4.06788174e-02,4.00000000e-09,4.69262836e-01,4.00000000e-09,4.69262835e-01,4.00000000e-09,5.94173164e+08,4.00000000e-09,1.12833060e+08,4.00000000e-09,1.79579393e+07,4.00000000e-09,2.63573726e+01,1.0,.300,sky130
4.50000000e-09,1.18214853e-07,4.50000000e-09,4.50003428e-09,4.50000000e-09,9.42353776e-16,4.50000000e-09,-4.05657592e-16,4.50000000e-09,9.86263848e-19,4.50000000e-09,2.28629035e-16,4.50000000e-09,3.42275925e-16,4.50000000e-09,-3.49788534e-19,4.50000000e-09,1.88510366e-09,4.50000000e-09,7.13076844e-01,4.50000000e-09,4.07026414e-02,4.50000000e-09,4.73666101e-01,4.50000000e-09,4.73666100e-01,4.50000000e-09,5.30474806e+08,4.50000000e-09,1.25446362e+08,4.50000000e-09,1.99654086e+07,4.50000000e-09,2.62697672e+01,1.0,.300,sky130
5.00000000e-09,1.30936896e-07,5.00000000e-09,4.99987169e-09,5.00000000e-09,9.49573635e-16,5.00000000e-09,-4.15927133e-16,5.00000000e-09,1.01414572e-18,5.00000000e-09,2.33842106e-16,5.00000000e-09,3.50086796e-16,5.00000000e-09,-3.62438412e-19,5.00000000e-09,2.08633637e-09,5.00000000e-09,7.13062652e-01,5.00000000e-09,4.07264131e-02,5.00000000e-09,4.77618751e-01,5.00000000e-09,4.77618749e-01,5.00000000e-09,4.79309097e+08,5.00000000e-09,1.37890198e+08,5.00000000e-09,2.19459066e+07,5.00000000e-09,2.61880513e+01,1.0,.300,sky130
5.50000000e-09,1.43606446e-07,5.50000000e-09,5.49977063e-09,5.50000000e-09,9.56229266e-16,5.50000000e-09,-4.25370235e-16,5.50000000e-09,1.03973355e-18,5.50000000e-09,2.38623735e-16,5.50000000e-09,3.57251323e-16,5.50000000e-09,-3.74001678e-19,5.50000000e-09,2.28676999e-09,5.50000000e-09,7.13049774e-01,5.50000000e-09,4.07501337e-02,5.50000000e-09,4.81205763e-01,5.50000000e-09,4.81205761e-01,5.50000000e-09,4.37298025e+08,5.50000000e-09,1.50179932e+08,5.50000000e-09,2.39018785e+07,5.50000000e-09,2.61113518e+01,1.0,.300,sky130
6.00000000e-09,1.56226158e-07,6.00000000e-09,5.99970124e-09,6.00000000e-09,9.62407875e-16,6.00000000e-09,-4.34117079e-16,6.00000000e-09,1.06339254e-18,6.00000000e-09,2.43042867e-16,6.00000000e-09,3.63872788e-16,6.00000000e-09,-3.84655310e-19,6.00000000e-09,2.48645647e-09,6.00000000e-09,7.13037982e-01,6.00000000e-09,4.07738047e-02,6.00000000e-09,4.84490089e-01,6.00000000e-09,4.84490087e-01,6.00000000e-09,4.02178769e+08,6.00000000e-09,1.62328428e+08,6.00000000e-09,2.58353717e+07,6.00000000e-09,2.60389895e+01,1.0,.300,sky130
6.50000000e-09,1.68798751e-07,6.50000000e-09,6.49965367e-09,6.50000000e-09,9.68177545e-16,6.50000000e-09,-4.42268874e-16,6.50000000e-09,1.08540602e-18,6.50000000e-09,2.47152953e-16,6.50000000e-09,3.70031259e-16,6.50000000e-09,-3.94535953e-19,6.50000000e-09,2.68544530e-09,6.50000000e-09,7.13027104e-01,6.50000000e-09,4.07974279e-02,6.50000000e-09,4.87519737e-01,6.50000000e-09,4.87519735e-01,6.50000000e-09,3.72377721e+08,6.50000000e-09,1.74346897e+08,6.50000000e-09,2.77481705e+07,6.50000000e-09,2.59704223e+01,1.0,.300,sky130
7.00000000e-09,1.81326624e-07,7.00000000e-09,6.99961960e-09,7.00000000e-09,9.73592373e-16,7.00000000e-09,-4.49905755e-16,7.00000000e-09,1.10599790e-18,7.00000000e-09,2.50996208e-16,7.00000000e-09,3.75789976e-16,7.00000000e-09,-4.03751157e-19,7.00000000e-09,2.88377852e-09,7.00000000e-09,7.13017007e-01,7.00000000e-09,4.08210051e-02,7.00000000e-09,4.90332088e-01,7.00000000e-09,4.90332086e-01,7.00000000e-09,3.46767268e+08,7.00000000e-09,1.86244910e+08,7.00000000e-09,2.96417981e+07,7.00000000e-09,2.59052112e+01,1.0,.300,sky130
7.50000000e-09,1.93811973e-07,7.50000000e-09,7.49959431e-09,7.50000000e-09,9.78696135e-16,7.50000000e-09,-4.57092359e-16,7.50000000e-09,1.12534850e-18,7.50000000e-09,2.54606606e-16,7.50000000e-09,3.81199834e-16,7.50000000e-09,-4.12387198e-19,7.50000000e-09,3.08149326e-09,7.50000000e-09,7.13007583e-01,7.50000000e-09,4.08445376e-02,7.50000000e-09,4.92956833e-01,7.50000000e-09,4.92956831e-01,7.50000000e-09,3.24517990e+08,7.50000000e-09,1.98030794e+08,7.50000000e-09,3.15175798e+07,7.50000000e-09,2.58429943e+01,1.0,.300,sky130
8.00000000e-09,2.06256792e-07,8.00000000e-09,7.99957477e-09,8.00000000e-09,9.83524779e-16,8.00000000e-09,-4.63881610e-16,8.00000000e-09,1.14360522e-18,8.00000000e-09,2.58011906e-16,8.00000000e-09,3.86302416e-16,8.00000000e-09,-4.20514372e-19,8.00000000e-09,3.27862223e-09,8.00000000e-09,7.12998747e-01,8.00000000e-09,4.08680269e-02,8.00000000e-09,4.95417945e-01,8.00000000e-09,4.95417943e-01,8.00000000e-09,3.05006167e+08,8.00000000e-09,2.09711841e+08,8.00000000e-09,3.33766761e+07,8.00000000e-09,2.57834695e+01,1.0,.300,sky130
8.50000000e-09,2.18662918e-07,8.50000000e-09,8.49955986e-09,8.50000000e-09,9.88108213e-16,8.50000000e-09,-4.70317428e-16,8.50000000e-09,1.16089022e-18,8.50000000e-09,2.61235097e-16,8.50000000e-09,3.91132163e-16,8.50000000e-09,-4.28190744e-19,8.50000000e-09,3.47519477e-09,8.50000000e-09,7.12990428e-01,8.50000000e-09,4.08914743e-02,8.50000000e-09,4.97735065e-01,8.50000000e-09,4.97735063e-01,8.50000000e-09,2.87753656e+08,8.50000000e-09,2.21294505e+08,8.50000000e-09,3.52201143e+07,8.50000000e-09,2.57263813e+01,1.0,.300,sky130
9.00000000e-09,2.31031983e-07,9.00000000e-09,8.99954729e-09,9.00000000e-09,9.92471583e-16,9.00000000e-09,-4.76436653e-16,9.00000000e-09,1.17730583e-18,9.00000000e-09,2.64295430e-16,9.00000000e-09,3.95717915e-16,9.00000000e-09,-4.35464819e-19,9.00000000e-09,3.67123634e-09,9.00000000e-09,7.12982567e-01,9.00000000e-09,4.09148808e-02,9.00000000e-09,4.99924477e-01,9.00000000e-09,4.99924474e-01,9.00000000e-09,2.72387803e+08,9.00000000e-09,2.32784481e+08,9.00000000e-09,3.70488009e+07,9.00000000e-09,2.56715116e+01,1.0,.300,sky130
9.50000000e-09,2.43365524e-07,9.50000000e-09,9.49953693e-09,9.50000000e-09,9.96636273e-16,9.50000000e-09,-4.82270541e-16,9.50000000e-09,1.19293876e-18,9.50000000e-09,2.67209211e-16,9.50000000e-09,4.00084098e-16,9.50000000e-09,-4.42377589e-19,9.50000000e-09,3.86677040e-09,9.50000000e-09,7.12975116e-01,9.50000000e-09,4.09382474e-02,9.50000000e-09,5.01999843e-01,9.50000000e-09,5.01999840e-01,9.50000000e-09,2.58613752e+08,9.50000000e-09,2.44186902e+08,9.50000000e-09,3.88635525e+07,9.50000000e-09,2.56186724e+01,1.0,.300,sky130
1.00000000e-08,2.55664117e-07,1.00000000e-08,9.99949476e-09,1.00000000e-08,1.00062035e-15,1.00000000e-08,-4.87845467e-16,1.00000000e-08,1.20786215e-18,1.00000000e-08,2.69990183e-16,1.00000000e-08,4.04251301e-16,1.00000000e-08,-4.48963560e-19,1.00000000e-08,4.06180482e-09,1.00000000e-08,7.12968033e-01,1.00000000e-08,4.09615736e-02,1.00000000e-08,5.03972603e-01,1.00000000e-08,5.03972600e-01,1.00000000e-08,2.46195975e+08,1.00000000e-08,2.55505614e+08,1.00000000e-08,4.06649815e+07,1.00000000e-08,2.55677035e+01,1.0,.300,sky130
1.50000000e-08,3.78364919e-07,1.50000000e-08,1.50552948e-08,1.50000000e-08,1.03354110e-15,1.50000000e-08,-5.33706863e-16,1.50000000e-08,1.33005735e-18,1.50000000e-08,2.92743837e-16,1.50000000e-08,4.38348044e-16,1.50000000e-08,-5.02426758e-19,1.50000000e-08,6.01029459e-09,1.50000000e-08,7.12910992e-01,1.50000000e-08,4.11954357e-02,1.50000000e-08,5.19859887e-01,1.50000000e-08,5.19859883e-01,1.50000000e-08,1.66381196e+08,1.50000000e-08,3.66085991e+08,1.50000000e-08,5.82643951e+07,1.50000000e-08,2.51316846e+01,1.0,.300,sky130
2.00000000e-08,4.98978617e-07,2.00000000e-08,2.01272269e-08,2.00000000e-08,1.05807736e-15,2.00000000e-08,-5.67678034e-16,2.00000000e-08,1.41992742e-18,2.00000000e-08,3.09463660e-16,2.00000000e-08,4.63404181e-16,2.00000000e-08,-5.41240285e-19,2.00000000e-08,7.92918485e-09,2.00000000e-08,7.12869887e-01,2.00000000e-08,4.14267119e-02,2.00000000e-08,5.31308879e-01,2.00000000e-08,5.31308873e-01,2.00000000e-08,1.26116369e+08,2.00000000e-08,4.71589919e+08,2.00000000e-08,7.50558668e+07,2.00000000e-08,2.47912253e+01,1.0,.300,sky130
2.50000000e-08,6.14317785e-07,2.50000000e-08,2.50555364e-08,2.50000000e-08,1.07719386e-15,2.50000000e-08,-5.94038189e-16,2.50000000e-08,1.48928962e-18,2.50000000e-08,3.22363295e-16,2.50000000e-08,4.82736106e-16,2.50000000e-08,-5.70914436e-19,2.50000000e-08,9.76593276e-09,2.50000000e-08,7.12838492e-01,2.50000000e-08,4.16485742e-02,2.50000000e-08,5.40053128e-01,2.50000000e-08,5.40053121e-01,2.50000000e-08,1.02396773e+08,2.50000000e-08,5.70294545e+08,2.50000000e-08,9.07651958e+07,2.50000000e-08,2.45182452e+01,1.0,.300,sky130
3.00000000e-08,7.28938949e-07,3.00000000e-08,3.00181123e-08,3.00000000e-08,1.09333614e-15,3.00000000e-08,-6.16231503e-16,3.00000000e-08,1.54743548e-18,3.00000000e-08,3.33175618e-16,3.00000000e-08,4.98940354e-16,3.00000000e-08,-5.95604470e-19,3.00000000e-08,1.15917440e-08,3.00000000e-08,7.12812320e-01,3.00000000e-08,4.18693452e-02,3.00000000e-08,5.47342822e-01,3.00000000e-08,5.47342813e-01,3.00000000e-08,8.62682956e+07,3.00000000e-08,6.66710739e+08,3.00000000e-08,1.06110310e+08,3.00000000e-08,2.42833041e+01,1.0,.300,sky130
3.50000000e-08,8.42933956e-07,3.50000000e-08,3.50100287e-08,3.50000000e-08,1.10732612e-15,3.50000000e-08,-6.35421092e-16,3.50000000e-08,1.59752570e-18,3.50000000e-08,3.42490101e-16,3.50000000e-08,5.12900148e-16,3.50000000e-08,-6.16739715e-19,3.50000000e-08,1.34071111e-08,3.50000000e-08,7.12789836e-01,3.50000000e-08,4.20889203e-02,3.50000000e-08,5.53605131e-01,3.50000000e-08,5.53605121e-01,3.50000000e-08,7.45872840e+07,3.50000000e-08,7.61233694e+08,3.50000000e-08,1.21154105e+08,3.50000000e-08,2.40769285e+01,1.0,.300,sky130
4.00000000e-08,9.55897551e-07,4.00000000e-08,4.00064013e-08,4.00000000e-08,1.11963226e-15,4.00000000e-08,-6.52269131e-16,4.00000000e-08,1.64136111e-18,4.00000000e-08,3.50642289e-16,4.00000000e-08,5.25118240e-16,4.00000000e-08,-6.35134492e-19,4.00000000e-08,1.52048308e-08,4.00000000e-08,7.12770180e-01,4.00000000e-08,4.23063134e-02,4.00000000e-08,5.59079953e-01,4.00000000e-08,5.59079942e-01,4.00000000e-08,6.57685715e+07,4.00000000e-08,8.53760276e+08,4.00000000e-08,1.35880168e+08,4.00000000e-08,2.38936150e+01,1.0,.300,sky130
4.50000000e-08,1.06789182e-06,4.50000000e-08,4.50040297e-08,4.50000000e-08,1.13061720e-15,4.50000000e-08,-6.67284635e-16,4.50000000e-08,1.68031561e-18,4.50000000e-08,3.57887885e-16,4.50000000e-08,5.35977778e-16,4.50000000e-08,-6.51401929e-19,4.50000000e-08,1.69853247e-08,4.50000000e-08,7.12752709e-01,4.50000000e-08,4.25214935e-02,4.50000000e-08,5.63946103e-01,4.50000000e-08,5.63946089e-01,4.50000000e-08,5.88743530e+07,4.50000000e-08,9.44521118e+08,4.50000000e-08,1.50325205e+08,4.50000000e-08,2.37288045e+01,1.0,.300,sky130
5.00000000e-08,1.17901726e-06,5.00000000e-08,5.00025967e-08,5.00000000e-08,1.14054045e-15,5.00000000e-08,-6.80830694e-16,5.00000000e-08,1.71536605e-18,5.00000000e-08,3.64408572e-16,5.00000000e-08,5.45751002e-16,5.00000000e-08,-6.65975367e-19,5.00000000e-08,1.87497613e-08,5.00000000e-08,7.12736973e-01,5.00000000e-08,4.27345427e-02,5.00000000e-08,5.68329033e-01,5.00000000e-08,5.68329018e-01,5.00000000e-08,5.33340122e+07,5.00000000e-08,1.03373559e+09,5.00000000e-08,1.64524130e+08,5.00000000e-08,2.35791206e+01,1.0,.300,sky130
5.50000000e-08,1.28935238e-06,5.50000000e-08,5.50017030e-08,5.50000000e-08,1.14959072e-15,5.50000000e-08,-6.93170708e-16,5.50000000e-08,1.74721951e-18,5.50000000e-08,3.70335788e-16,5.50000000e-08,5.54634862e-16,5.50000000e-08,-6.79167161e-19,5.50000000e-08,2.04990624e-08,5.50000000e-08,7.12722650e-01,5.50000000e-08,4.29455288e-02,5.50000000e-08,5.72318620e-01,5.50000000e-08,5.72318604e-01,5.50000000e-08,4.87827190e+07,5.50000000e-08,1.12157515e+09,5.50000000e-08,1.78504229e+08,5.50000000e-08,2.34420447e+01,1.0,.300,sky130
6.00000000e-08,1.39896422e-06,6.00000000e-08,6.00011127e-08,6.00000000e-08,1.15791007e-15,6.00000000e-08,-7.04502547e-16,6.00000000e-08,1.77640604e-18,6.00000000e-08,3.75768019e-16,6.00000000e-08,5.62776938e-16,6.00000000e-08,-6.91210557e-19,6.00000000e-08,2.22340458e-08,6.00000000e-08,7.12709498e-01,6.00000000e-08,4.31545182e-02,6.00000000e-08,5.75981655e-01,6.00000000e-08,5.75981637e-01,6.00000000e-08,4.49760699e+07,6.00000000e-08,1.20818038e+09,6.00000000e-08,1.92287879e+08,6.00000000e-08,2.33156380e+01,1.0,.300,sky130
6.50000000e-08,1.50791074e-06,6.50000000e-08,6.50007076e-08,6.50000000e-08,1.16560821e-15,6.50000000e-08,-7.14978762e-16,6.50000000e-08,1.80333350e-18,6.50000000e-08,3.80781018e-16,6.50000000e-08,5.70290750e-16,6.50000000e-08,-7.02284397e-19,6.50000000e-08,2.39554465e-08,6.50000000e-08,7.12697336e-01,6.50000000e-08,4.33615755e-02,6.50000000e-08,5.79369155e-01,6.50000000e-08,5.79369136e-01,6.50000000e-08,4.17441603e+07,6.50000000e-08,1.29366859e+09,6.50000000e-08,2.05893751e+08,6.50000000e-08,2.31983742e+01,1.0,.300,sky130
7.00000000e-08,1.61624179e-06,7.00000000e-08,7.00004211e-08,7.00000000e-08,1.17277168e-15,7.00000000e-08,-7.24719456e-16,7.00000000e-08,1.82832245e-18,7.00000000e-08,3.85434306e-16,7.00000000e-08,5.77265485e-16,7.00000000e-08,-7.12528788e-19,7.00000000e-08,2.56639190e-08,7.00000000e-08,7.12686021e-01,7.00000000e-08,4.35667619e-02,7.00000000e-08,5.82520962e-01,7.00000000e-08,5.82520942e-01,7.00000000e-08,3.89652102e+07,7.00000000e-08,1.37813849e+09,7.00000000e-08,2.19337553e+08,7.00000000e-08,2.30890296e+01,1.0,.300,sky130
7.50000000e-08,1.72400043e-06,7.50000000e-08,7.50002103e-08,7.50000000e-08,1.17946992e-15,7.50000000e-08,-7.33820907e-16,7.50000000e-08,1.85162942e-18,7.50000000e-08,3.89775504e-16,7.50000000e-08,5.83772507e-16,7.50000000e-08,-7.22055536e-19,7.50000000e-08,2.73600473e-08,7.50000000e-08,7.12675437e-01,7.50000000e-08,4.37701346e-02,7.50000000e-08,5.85468792e-01,7.50000000e-08,5.85468771e-01,7.50000000e-08,3.65496444e+07,7.50000000e-08,1.46167392e+09,7.50000000e-08,2.32632629e+08,7.50000000e-08,2.29866079e+01,1.0,.300,sky130
8.00000000e-08,1.83122418e-06,8.00000000e-08,8.00000549e-08,8.00000000e-08,1.18575959e-15,8.00000000e-08,-7.42361526e-16,8.00000000e-08,1.87346302e-18,8.00000000e-08,3.93843328e-16,8.00000000e-08,5.89869834e-16,8.00000000e-08,-7.30955309e-19,8.00000000e-08,2.90443588e-08,8.00000000e-08,7.12665494e-01,8.00000000e-08,4.39717477e-02,8.00000000e-08,5.88238312e-01,8.00000000e-08,5.88238289e-01,8.00000000e-08,3.44300939e+07,8.00000000e-08,1.54434693e+09,8.00000000e-08,2.45790447e+08,8.00000000e-08,2.28902865e+01,1.0,.300,sky130
8.50000000e-08,1.93794571e-06,8.50000000e-08,8.49999358e-08,8.50000000e-08,1.19168747e-15,8.50000000e-08,-7.50406018e-16,8.50000000e-08,1.89399517e-18,8.50000000e-08,3.97669677e-16,8.50000000e-08,5.95605268e-16,8.50000000e-08,-7.39302635e-19,8.50000000e-08,3.07173277e-08,8.50000000e-08,7.12656116e-01,8.50000000e-08,4.41716518e-02,8.50000000e-08,5.90850586e-01,8.50000000e-08,5.90850562e-01,8.50000000e-08,3.25549153e+07,8.50000000e-08,1.62621976e+09,8.50000000e-08,2.58820913e+08,8.50000000e-08,2.27993785e+01,1.0,.300,sky130
9.00000000e-08,2.04419382e-06,9.00000000e-08,8.99998431e-08,9.00000000e-08,1.19729270e-15,9.00000000e-08,-7.58008435e-16,9.00000000e-08,1.91336927e-18,9.00000000e-08,4.01281157e-16,9.00000000e-08,6.01018681e-16,9.00000000e-08,-7.47159537e-19,9.00000000e-08,3.23793866e-08,9.00000000e-08,7.12647239e-01,9.00000000e-08,4.43698946e-02,9.00000000e-08,5.93323123e-01,9.00000000e-08,5.93323097e-01,9.00000000e-08,3.08838463e+07,9.00000000e-08,1.70734677e+09,9.00000000e-08,2.71732677e+08,9.00000000e-08,2.27133043e+01,1.0,.300,sky130
9.50000000e-08,2.14999397e-06,9.50000000e-08,9.49997701e-08,9.50000000e-08,1.20260835e-15,9.50000000e-08,-7.65214397e-16,9.50000000e-08,1.93170620e-18,9.50000000e-08,4.04700193e-16,9.50000000e-08,6.06143676e-16,9.50000000e-08,-7.54578183e-19,9.50000000e-08,3.40309311e-08,9.50000000e-08,7.12638811e-01,9.50000000e-08,4.45665213e-02,9.50000000e-08,5.95670634e-01,9.50000000e-08,5.95670607e-01,9.50000000e-08,2.93850320e+07,9.50000000e-08,1.78777569e+09,9.50000000e-08,2.84533337e+08,9.50000000e-08,2.26315702e+01,1.0,.300,sky130
1.00000000e-07,2.25536219e-06,1.00000000e-07,9.99994005e-08,1.00000000e-07,1.20766230e-15,1.00000000e-07,-7.72062354e-16,1.00000000e-07,1.94910777e-18,1.00000000e-07,4.07945667e-16,1.00000000e-07,6.11008551e-16,1.00000000e-07,-7.61602440e-19,1.00000000e-07,3.56722225e-08,1.00000000e-07,7.12630787e-01,1.00000000e-07,4.47615624e-02,1.00000000e-07,5.97905467e-01,1.00000000e-07,5.97905438e-01,1.00000000e-07,2.80330164e+07,1.00000000e-07,1.86754376e+09,1.00000000e-07,2.97228821e+08,1.00000000e-07,2.25537571e+01,1.0,.300,sky130
