isweep,gm,i_id,id,i_cgg,cgg,i_cgs,cgs,i_cgd,cgd,i_cds,cds,i_css,css,i_cdd,cdd,i_gds,gds,i_vth,vth,i_vdsat,vdsat,i_vgs,vgs,i_vds,vds,i_rds,rds,i_wt,wt,i_ft,ft,i_kgm,kgm,W,L,pdk
1.00000000e-09,2.18104149e-08,1.00000000e-09,9.99328594e-10,1.00000000e-09,1.18124677e-15,1.00000000e-09,-4.27239310e-16,1.00000000e-09,5.66778672e-19,1.00000000e-09,2.08464873e-16,1.00000000e-09,3.12234001e-16,1.00000000e-09,-9.34527505e-20,1.00000000e-09,1.41651592e-10,1.00000000e-09,8.40576661e-01,1.00000000e-09,4.93167425e-02,1.00000000e-09,5.03504585e-01,1.00000000e-09,5.03504585e-01,1.00000000e-09,7.05957471e+09,1.00000000e-09,1.84638938e+07,1.00000000e-09,2.93861997e+06,1.00000000e-09,2.18250684e+01,1.0,.500,sky130
1.50000000e-09,3.18683569e-08,1.50000000e-09,1.50428761e-09,1.50000000e-09,1.21046019e-15,1.50000000e-09,-4.74950809e-16,1.50000000e-09,6.53661608e-19,1.50000000e-09,2.30645440e-16,1.50000000e-09,3.45475586e-16,1.50000000e-09,-1.31234663e-19,1.50000000e-09,2.07699734e-10,1.50000000e-09,8.40529786e-01,1.50000000e-09,4.94423075e-02,1.50000000e-09,5.22396488e-01,1.50000000e-09,5.22396488e-01,1.50000000e-09,4.81464265e+09,1.50000000e-09,2.63274721e+07,1.50000000e-09,4.19014732e+06,1.50000000e-09,2.11850160e+01,1.0,.500,sky130
2.00000000e-09,4.13897889e-08,2.00000000e-09,1.99932395e-09,2.00000000e-09,1.23349076e-15,2.00000000e-09,-5.11545381e-16,2.00000000e-09,7.20128853e-19,2.00000000e-09,2.47584785e-16,2.00000000e-09,3.70863063e-16,2.00000000e-09,-1.59768503e-19,2.00000000e-09,2.70809739e-10,2.00000000e-09,8.40496304e-01,2.00000000e-09,4.95646324e-02,2.00000000e-09,5.35891123e-01,2.00000000e-09,5.35891122e-01,2.00000000e-09,3.69262938e+09,2.00000000e-09,3.35550053e+07,2.00000000e-09,5.34044496e+06,2.00000000e-09,2.07018922e+01,1.0,.500,sky130
2.50000000e-09,5.08078853e-08,2.50000000e-09,2.50263229e-09,2.50000000e-09,1.25339519e-15,2.50000000e-09,-5.42604195e-16,2.50000000e-09,7.76464788e-19,2.50000000e-09,2.61915098e-16,2.50000000e-09,3.92340798e-16,2.50000000e-09,-1.83745661e-19,2.50000000e-09,3.33719393e-10,2.50000000e-09,8.40469308e-01,2.50000000e-09,4.96882708e-02,2.50000000e-09,5.46771378e-01,2.50000000e-09,5.46771377e-01,2.50000000e-09,2.99652949e+09,2.50000000e-09,4.05362057e+07,2.50000000e-09,6.45153751e+06,2.50000000e-09,2.03017781e+01,1.0,.500,sky130
3.00000000e-09,5.99308615e-08,3.00000000e-09,3.00133420e-09,3.00000000e-09,1.27070106e-15,3.00000000e-09,-5.69249547e-16,3.00000000e-09,8.24756400e-19,3.00000000e-09,2.74176699e-16,3.00000000e-09,4.10718348e-16,3.00000000e-09,-2.04167107e-19,3.00000000e-09,3.95053898e-10,3.00000000e-09,8.40447063e-01,3.00000000e-09,4.98100866e-02,3.00000000e-09,5.55737109e-01,3.00000000e-09,5.55737108e-01,3.00000000e-09,2.53130017e+09,3.00000000e-09,4.71636196e+07,3.00000000e-09,7.50632320e+06,3.00000000e-09,1.99680733e+01,1.0,.500,sky130
3.50000000e-09,6.88865299e-08,3.50000000e-09,3.50026713e-09,3.50000000e-09,1.28623132e-15,3.50000000e-09,-5.92914450e-16,3.50000000e-09,8.67624691e-19,3.50000000e-09,2.85042706e-16,3.50000000e-09,4.27004431e-16,3.50000000e-09,-2.22203442e-19,3.50000000e-09,4.55590336e-10,3.50000000e-09,8.40427942e-01,3.50000000e-09,4.99312968e-02,3.50000000e-09,5.63443527e-01,3.50000000e-09,5.63443526e-01,3.50000000e-09,2.19495437e+09,3.50000000e-09,5.35568751e+07,3.50000000e-09,8.52384141e+06,3.50000000e-09,1.96803636e+01,1.0,.500,sky130
4.00000000e-09,7.77092942e-08,4.00000000e-09,3.99986186e-09,4.00000000e-09,1.30039208e-15,4.00000000e-09,-6.14311621e-16,4.00000000e-09,9.06372353e-19,4.00000000e-09,2.94848631e-16,4.00000000e-09,4.41701830e-16,4.00000000e-09,-2.38437964e-19,4.00000000e-09,5.15501405e-10,4.00000000e-09,8.40411124e-01,4.00000000e-09,5.00520253e-02,4.00000000e-09,5.70221789e-01,4.00000000e-09,5.70221788e-01,4.00000000e-09,1.93985892e+09,4.00000000e-09,5.97583572e+07,4.00000000e-09,9.51083794e+06,4.00000000e-09,1.94279945e+01,1.0,.500,sky130
4.50000000e-09,8.64115677e-08,4.50000000e-09,4.49965510e-09,4.50000000e-09,1.31343847e-15,4.50000000e-09,-6.33886714e-16,4.50000000e-09,9.41812797e-19,4.50000000e-09,3.03804320e-16,4.50000000e-09,4.55125013e-16,4.50000000e-09,-2.53234093e-19,4.50000000e-09,5.74823122e-10,4.50000000e-09,8.40396099e-01,4.50000000e-09,5.01721763e-02,4.50000000e-09,5.76277119e-01,4.50000000e-09,5.76277118e-01,4.50000000e-09,1.73966558e+09,4.50000000e-09,6.57903432e+07,4.50000000e-09,1.04708583e+07,4.50000000e-09,1.92040425e+01,1.0,.500,sky130
5.00000000e-09,9.50077973e-08,5.00000000e-09,4.99952606e-09,5.00000000e-09,1.32556148e-15,5.00000000e-09,-6.51967385e-16,5.00000000e-09,9.74542967e-19,5.00000000e-09,3.12063719e-16,5.00000000e-09,4.67504679e-16,5.00000000e-09,-2.66856567e-19,5.00000000e-09,6.33614083e-10,5.00000000e-09,8.40382508e-01,5.00000000e-09,5.02917359e-02,5.00000000e-09,5.81754924e-01,5.00000000e-09,5.81754922e-01,5.00000000e-09,1.57824775e+09,5.00000000e-09,7.16736257e+07,5.00000000e-09,1.14072118e+07,5.00000000e-09,1.90033607e+01,1.0,.500,sky130
5.50000000e-09,1.03510933e-07,5.50000000e-09,5.49944471e-09,5.50000000e-09,1.33690530e-15,5.50000000e-09,-6.68797926e-16,5.50000000e-09,1.00500735e-18,5.50000000e-09,3.19741427e-16,5.50000000e-09,4.79012569e-16,5.50000000e-09,-2.79501486e-19,5.50000000e-09,6.91929739e-10,5.50000000e-09,8.40370088e-01,5.50000000e-09,5.04107106e-02,5.50000000e-09,5.86760701e-01,5.50000000e-09,5.86760699e-01,5.50000000e-09,1.44523344e+09,5.50000000e-09,7.74257775e+07,5.50000000e-09,1.23226952e+07,5.50000000e-09,1.88220699e+01,1.0,.500,sky130
6.00000000e-09,1.11931716e-07,6.00000000e-09,5.99938856e-09,6.00000000e-09,1.34758074e-15,6.00000000e-09,-6.84564247e-16,6.00000000e-09,1.03354385e-18,6.00000000e-09,3.26924560e-16,6.00000000e-09,4.89779235e-16,6.00000000e-09,-2.91317334e-19,6.00000000e-09,7.49816030e-10,6.00000000e-09,8.40358644e-01,6.00000000e-09,5.05291074e-02,6.00000000e-09,5.91373007e-01,6.00000000e-09,5.91373006e-01,6.00000000e-09,1.33366047e+09,6.00000000e-09,8.30612311e+07,6.00000000e-09,1.32196055e+07,6.00000000e-09,1.86571872e+01,1.0,.500,sky130
6.50000000e-09,1.20279315e-07,6.50000000e-09,6.49934878e-09,6.50000000e-09,1.35767520e-15,6.50000000e-09,-6.99411725e-16,6.50000000e-09,1.06041649e-18,6.50000000e-09,3.33681162e-16,6.50000000e-09,4.99906652e-16,6.50000000e-09,-3.02419707e-19,6.50000000e-09,8.07312552e-10,6.50000000e-09,8.40348027e-01,6.50000000e-09,5.06469359e-02,6.50000000e-09,5.95652042e-01,6.50000000e-09,5.95652040e-01,6.50000000e-09,1.23867763e+09,6.50000000e-09,8.85921128e+07,6.50000000e-09,1.40998727e+07,6.50000000e-09,1.85063640e+01,1.0,.500,sky130
7.00000000e-09,1.28561546e-07,7.00000000e-09,6.99932086e-09,7.00000000e-09,1.36725891e-15,7.00000000e-09,-7.13456294e-16,7.00000000e-09,1.08583567e-18,7.00000000e-09,3.40065445e-16,7.00000000e-09,5.09476064e-16,7.00000000e-09,-3.12900438e-19,7.00000000e-09,8.64453205e-10,7.00000000e-09,8.40338120e-01,7.00000000e-09,5.07642058e-02,7.00000000e-09,5.99644943e-01,7.00000000e-09,5.99644941e-01,7.00000000e-09,1.15680062e+09,7.00000000e-09,9.40286772e+07,7.00000000e-09,1.49651288e+07,7.00000000e-09,1.83677172e+01,1.0,.500,sky130
7.50000000e-09,1.36785074e-07,7.50000000e-09,7.49929941e-09,7.50000000e-09,1.37638919e-15,7.50000000e-09,-7.26791969e-16,7.50000000e-09,1.10997192e-18,7.50000000e-09,3.46121334e-16,7.50000000e-09,5.18553296e-16,7.50000000e-09,-3.22833747e-19,7.50000000e-09,9.21266879e-10,7.50000000e-09,8.40328829e-01,7.50000000e-09,5.08809259e-02,7.50000000e-09,6.03389314e-01,7.50000000e-09,6.03389312e-01,7.50000000e-09,1.08546179e+09,7.50000000e-09,9.93796486e+07,7.50000000e-09,1.58167623e+07,7.50000000e-09,1.82397136e+01,1.0,.500,sky130
8.00000000e-09,1.44955688e-07,8.00000000e-09,7.99928227e-09,8.00000000e-09,1.38511361e-15,8.00000000e-09,-7.39496270e-16,8.00000000e-09,1.13296575e-18,8.00000000e-09,3.51885013e-16,8.00000000e-09,5.27192580e-16,8.00000000e-09,-3.32280649e-19,8.00000000e-09,9.77778867e-10,8.00000000e-09,8.40320080e-01,8.00000000e-09,5.09971054e-02,8.00000000e-09,6.06915676e-01,8.00000000e-09,6.06915674e-01,8.00000000e-09,1.02272613e+09,8.00000000e-09,1.04652562e+08,8.00000000e-09,1.66559725e+07,8.00000000e-09,1.81210867e+01,1.0,.500,sky130
8.50000000e-09,1.53078438e-07,8.50000000e-09,8.49926853e-09,8.50000000e-09,1.39347213e-15,8.50000000e-09,-7.51633937e-16,8.50000000e-09,1.15493449e-18,8.50000000e-09,3.57386678e-16,8.50000000e-09,5.35439169e-16,8.50000000e-09,-3.41291954e-19,8.50000000e-09,1.03401136e-09,8.50000000e-09,8.40311809e-01,8.50000000e-09,5.11127530e-02,8.50000000e-09,6.10249148e-01,8.50000000e-09,6.10249146e-01,8.50000000e-09,9.67107366e+08,8.50000000e-09,1.09853964e+08,8.50000000e-09,1.74838015e+07,8.50000000e-09,1.80107779e+01,1.0,.500,sky130
9.00000000e-09,1.61157744e-07,9.00000000e-09,8.99925749e-09,9.00000000e-09,1.40149865e-15,9.00000000e-09,-7.63259645e-16,9.00000000e-09,1.17597717e-18,9.00000000e-09,3.62651812e-16,9.00000000e-09,5.43331253e-16,9.00000000e-09,-3.49910472e-19,9.00000000e-09,1.08998388e-09,9.00000000e-09,8.40303965e-01,9.00000000e-09,5.12278774e-02,9.00000000e-09,6.13410660e-01,9.00000000e-09,6.13410658e-01,9.00000000e-09,9.17444765e+08,9.00000000e-09,1.14989582e+08,9.00000000e-09,1.83011603e+07,9.00000000e-09,1.79078934e+01,1.0,.500,sky130
9.50000000e-09,1.69197505e-07,9.50000000e-09,9.49924920e-09,9.50000000e-09,1.40922226e-15,9.50000000e-09,-7.74420057e-16,9.50000000e-09,1.19617829e-18,9.50000000e-09,3.67702147e-16,9.50000000e-09,5.50901401e-16,9.50000000e-09,-3.58172653e-19,9.50000000e-09,1.14571378e-09,9.50000000e-09,8.40296503e-01,9.50000000e-09,5.13424869e-02,9.50000000e-09,6.16417844e-01,9.50000000e-09,6.16417841e-01,9.50000000e-09,8.72818343e+08,9.50000000e-09,1.20064457e+08,9.50000000e-09,1.91088518e+07,9.50000000e-09,1.78116714e+01,1.0,.500,sky130
1.00000000e-08,1.77200685e-07,1.00000000e-08,9.99921330e-09,1.00000000e-08,1.41666765e-15,1.00000000e-08,-7.85154708e-16,1.00000000e-08,1.21560941e-18,1.00000000e-08,3.72556092e-16,1.00000000e-08,5.58177203e-16,1.00000000e-08,-3.66109339e-19,1.00000000e-08,1.20121315e-09,1.00000000e-08,8.40289388e-01,1.00000000e-08,5.14565824e-02,1.00000000e-08,6.19285524e-01,1.00000000e-08,6.19285521e-01,1.00000000e-08,8.32491719e+08,1.00000000e-08,1.25082750e+08,1.00000000e-08,1.99075379e+07,1.00000000e-08,1.77214626e+01,1.0,.500,sky130
1.50000000e-08,2.56505795e-07,1.50000000e-08,1.50452915e-08,1.50000000e-08,1.48012438e-15,1.50000000e-08,-8.75803496e-16,1.50000000e-08,1.37972872e-18,1.50000000e-08,4.13404407e-16,1.50000000e-08,6.19407786e-16,1.50000000e-08,-4.32753262e-19,1.50000000e-08,1.75116612e-09,1.50000000e-08,8.40231442e-01,1.50000000e-08,5.25813295e-02,1.50000000e-08,6.42639962e-01,1.50000000e-08,6.42639958e-01,1.50000000e-08,5.71048050e+08,1.50000000e-08,1.73300162e+08,1.50000000e-08,2.75815775e+07,1.50000000e-08,1.70489083e+01,1.0,.500,sky130
2.00000000e-08,3.34431701e-07,2.00000000e-08,2.01067720e-08,2.00000000e-08,1.52961737e-15,2.00000000e-08,-9.45618618e-16,2.00000000e-08,1.50617501e-18,2.00000000e-08,4.44700713e-16,2.00000000e-08,6.66321468e-16,2.00000000e-08,-4.83654433e-19,2.00000000e-08,2.28930013e-09,2.00000000e-08,8.40188994e-01,2.00000000e-08,5.36648922e-02,2.00000000e-08,6.59748236e-01,2.00000000e-08,6.59748230e-01,2.00000000e-08,4.36814723e+08,2.00000000e-08,2.18637489e+08,2.00000000e-08,3.47972371e+07,2.00000000e-08,1.66327892e+01,1.0,.500,sky130
2.50000000e-08,4.09709673e-07,2.50000000e-08,2.50483157e-08,2.50000000e-08,1.56949115e-15,2.50000000e-08,-1.00140074e-15,2.50000000e-08,1.60723345e-18,2.50000000e-08,4.69609093e-16,2.50000000e-08,7.03660313e-16,2.50000000e-08,-5.24075228e-19,2.50000000e-08,2.80568751e-09,2.50000000e-08,8.40156157e-01,2.50000000e-08,5.46846287e-02,2.50000000e-08,6.72982666e-01,2.50000000e-08,6.72982659e-01,2.50000000e-08,3.56418879e+08,2.50000000e-08,2.61046182e+08,2.50000000e-08,4.15467902e+07,2.50000000e-08,1.63567753e+01,1.0,.500,sky130
3.00000000e-08,4.84949028e-07,3.00000000e-08,3.00171297e-08,3.00000000e-08,1.60377189e-15,3.00000000e-08,-1.04907154e-15,3.00000000e-08,1.69361371e-18,3.00000000e-08,4.90829445e-16,3.00000000e-08,7.35471150e-16,3.00000000e-08,-5.58448146e-19,3.00000000e-08,3.31812130e-09,3.00000000e-08,8.40128722e-01,3.00000000e-08,5.56759481e-02,3.00000000e-08,6.84040268e-01,3.00000000e-08,6.84040259e-01,3.00000000e-08,3.01375360e+08,3.00000000e-08,3.02380301e+08,3.00000000e-08,4.81253196e+07,3.00000000e-08,1.61557428e+01,1.0,.500,sky130
3.50000000e-08,5.60257494e-07,3.50000000e-08,3.50096167e-08,3.50000000e-08,1.63387577e-15,3.50000000e-08,-1.09073845e-15,3.50000000e-08,1.76912469e-18,3.50000000e-08,5.09328619e-16,3.50000000e-08,7.63203127e-16,3.50000000e-08,-5.88364917e-19,3.50000000e-08,3.82744173e-09,3.50000000e-08,8.40105140e-01,3.50000000e-08,5.66409066e-02,3.50000000e-08,6.93544616e-01,3.50000000e-08,6.93544605e-01,3.50000000e-08,2.61271123e+08,3.50000000e-08,3.42900913e+08,3.50000000e-08,5.45743752e+07,3.50000000e-08,1.60029600e+01,1.0,.500,sky130
4.00000000e-08,6.35420867e-07,4.00000000e-08,4.00060952e-08,4.00000000e-08,1.66064116e-15,4.00000000e-08,-1.12764451e-15,4.00000000e-08,1.83601318e-18,4.00000000e-08,5.25676992e-16,4.00000000e-08,7.87711143e-16,4.00000000e-08,-6.14764576e-19,4.00000000e-08,4.33246767e-09,4.00000000e-08,8.40084518e-01,4.00000000e-08,5.75782456e-02,4.00000000e-08,7.01856275e-01,4.00000000e-08,7.01856264e-01,4.00000000e-08,2.30815340e+08,4.00000000e-08,3.82635864e+08,4.00000000e-08,6.08983892e+07,4.00000000e-08,1.58831014e+01,1.0,.500,sky130
4.50000000e-08,7.10438382e-07,4.50000000e-08,4.50038110e-08,4.50000000e-08,1.68473107e-15,4.50000000e-08,-1.16075717e-15,4.50000000e-08,1.89602893e-18,4.50000000e-08,5.40315802e-16,4.50000000e-08,8.09656566e-16,4.50000000e-08,-6.38371388e-19,4.50000000e-08,4.83352395e-09,4.50000000e-08,8.40066197e-01,4.50000000e-08,5.84898075e-02,4.50000000e-08,7.09240350e-01,4.50000000e-08,7.09240337e-01,4.50000000e-08,2.06888392e+08,4.50000000e-08,4.21692456e+08,4.50000000e-08,6.71144388e+07,4.50000000e-08,1.57861827e+01,1.0,.500,sky130
5.00000000e-08,7.85321643e-07,5.00000000e-08,5.00024024e-08,5.00000000e-08,1.70663320e-15,5.00000000e-08,-1.19078249e-15,5.00000000e-08,1.95044946e-18,5.00000000e-08,5.53566163e-16,5.00000000e-08,8.29520714e-16,5.00000000e-08,-6.59711785e-19,5.00000000e-08,5.33101798e-09,5.00000000e-08,8.40049712e-01,5.00000000e-08,5.93775874e-02,5.00000000e-08,7.15884363e-01,5.00000000e-08,7.15884349e-01,5.00000000e-08,1.87581434e+08,5.00000000e-08,4.60158425e+08,5.00000000e-08,7.32364879e+07,5.00000000e-08,1.57056782e+01,1.0,.500,sky130
5.50000000e-08,8.60069151e-07,5.50000000e-08,5.50015020e-08,5.50000000e-08,1.72671099e-15,5.50000000e-08,-1.21824367e-15,5.50000000e-08,2.00022170e-18,5.50000000e-08,5.65665520e-16,5.50000000e-08,8.47659500e-16,5.50000000e-08,-6.79174736e-19,5.50000000e-08,5.82525027e-09,5.50000000e-08,8.40034727e-01,5.50000000e-08,6.02433220e-02,5.50000000e-08,7.21923996e-01,5.50000000e-08,7.21923980e-01,5.50000000e-08,1.71666444e+08,5.50000000e-08,4.98096760e+08,5.50000000e-08,7.92745614e+07,5.50000000e-08,1.56371939e+01,1.0,.500,sky130
6.00000000e-08,9.34674633e-07,6.00000000e-08,6.00008989e-08,6.00000000e-08,1.74524370e-15,6.00000000e-08,-1.24354067e-15,6.00000000e-08,2.04606978e-18,6.00000000e-08,5.76795049e-16,6.00000000e-08,8.64344496e-16,6.00000000e-08,-6.97056826e-19,6.00000000e-08,6.31646409e-09,6.00000000e-08,8.40020990e-01,6.00000000e-08,6.10885615e-02,6.00000000e-08,7.27460825e-01,6.00000000e-08,7.27460808e-01,6.00000000e-08,1.58316423e+08,6.00000000e-08,5.35555367e+08,6.00000000e-08,8.52362840e+07,6.00000000e-08,1.55776772e+01,1.0,.500,sky130
6.50000000e-08,1.00912949e-06,6.50000000e-08,6.50004774e-08,6.50000000e-08,1.76245074e-15,6.50000000e-08,-1.26698640e-15,6.50000000e-08,2.08856039e-18,6.50000000e-08,5.87096247e-16,6.50000000e-08,8.79787797e-16,6.50000000e-08,-7.13589546e-19,6.50000000e-08,6.80486060e-09,6.50000000e-08,8.40008306e-01,6.50000000e-08,6.19146913e-02,6.50000000e-08,7.32572882e-01,6.50000000e-08,7.32572863e-01,6.50000000e-08,1.46953782e+08,6.50000000e-08,5.72571745e+08,6.50000000e-08,9.11276234e+07,6.50000000e-08,1.55249551e+01,1.0,.500,sky130
7.00000000e-08,1.08342412e-06,7.00000000e-08,7.00001751e-08,7.00000000e-08,1.77850774e-15,7.00000000e-08,-1.28883041e-15,7.00000000e-08,2.12814558e-18,7.00000000e-08,5.96681775e-16,7.00000000e-08,8.94158279e-16,7.00000000e-08,-7.28957110e-19,7.00000000e-08,7.29060843e-09,7.00000000e-08,8.39996525e-01,7.00000000e-08,6.27229526e-02,7.00000000e-08,7.37321402e-01,7.00000000e-08,7.37321382e-01,7.00000000e-08,1.37162764e+08,7.00000000e-08,6.09175938e+08,7.00000000e-08,9.69533618e+07,7.00000000e-08,1.54774487e+01,1.0,.500,sky130
7.50000000e-08,1.15754858e-06,7.50000000e-08,7.49999534e-08,7.50000000e-08,1.79355753e-15,7.50000000e-08,-1.30927494e-15,7.50000000e-08,2.16519180e-18,7.50000000e-08,6.05642809e-16,7.50000000e-08,9.07592613e-16,7.50000000e-08,-7.43308527e-19,7.50000000e-08,7.77385035e-09,7.50000000e-08,8.39985524e-01,7.50000000e-08,6.35144591e-02,7.50000000e-08,7.41755315e-01,7.50000000e-08,7.41755294e-01,7.50000000e-08,1.28636384e+08,7.50000000e-08,6.45392503e+08,7.50000000e-08,1.02717407e+08,7.50000000e-08,1.54339907e+01,1.0,.500,sky130
8.00000000e-08,1.23149311e-06,8.00000000e-08,7.99997849e-08,8.00000000e-08,1.80771786e-15,8.00000000e-08,-1.32848625e-15,8.00000000e-08,2.20000035e-18,8.00000000e-08,6.14054190e-16,8.00000000e-08,9.20202983e-16,8.00000000e-08,-7.56766054e-19,8.00000000e-08,8.25470868e-09,8.00000000e-08,8.39975205e-01,8.00000000e-08,6.42902141e-02,8.00000000e-08,7.45914332e-01,8.00000000e-08,7.45914309e-01,8.00000000e-08,1.21142979e+08,8.00000000e-08,6.81241879e+08,8.00000000e-08,1.08423012e+08,8.00000000e-08,1.53937053e+01,1.0,.500,sky130
8.50000000e-08,1.30524851e-06,8.50000000e-08,8.49996551e-08,8.50000000e-08,1.82108700e-15,8.50000000e-08,-1.34660268e-15,8.50000000e-08,2.23282201e-18,8.50000000e-08,6.21978124e-16,8.50000000e-08,9.32082638e-16,8.50000000e-08,-7.69431267e-19,8.50000000e-08,8.73329009e-09,8.50000000e-08,8.39965487e-01,8.50000000e-08,6.50511250e-02,8.50000000e-08,7.49831126e-01,8.50000000e-08,7.49831101e-01,8.50000000e-08,1.14504384e+08,8.50000000e-08,7.16741434e+08,8.50000000e-08,1.14072942e+08,8.50000000e-08,1.53559271e+01,1.0,.500,sky130
9.00000000e-08,1.37880620e-06,9.00000000e-08,8.99995538e-08,9.00000000e-08,1.83374778e-15,9.00000000e-08,-1.36374060e-15,9.00000000e-08,2.26386775e-18,9.00000000e-08,6.29466875e-16,9.00000000e-08,9.43309920e-16,9.00000000e-08,-7.81389467e-19,9.00000000e-08,9.20968836e-09,9.00000000e-08,8.39956303e-01,9.00000000e-08,6.57980157e-02,9.00000000e-08,7.53532896e-01,9.00000000e-08,7.53532870e-01,9.00000000e-08,1.08581307e+08,9.00000000e-08,7.51906132e+08,9.00000000e-08,1.19669578e+08,9.00000000e-08,1.53201448e+01,1.0,.500,sky130
9.50000000e-08,1.45215836e-06,9.50000000e-08,9.49994744e-08,9.50000000e-08,1.84577072e-15,9.50000000e-08,-1.37999883e-15,9.50000000e-08,2.29331680e-18,9.50000000e-08,6.36564777e-16,9.50000000e-08,9.53951286e-16,9.50000000e-08,-7.92712987e-19,9.50000000e-08,9.68398686e-09,9.50000000e-08,8.39947595e-01,9.50000000e-08,6.65316365e-02,9.50000000e-08,7.57042529e-01,9.50000000e-08,7.57042502e-01,9.50000000e-08,1.03263255e+08,9.50000000e-08,7.86749054e+08,9.50000000e-08,1.25215001e+08,9.50000000e-08,1.52859621e+01,1.0,.500,sky130
1.00000000e-07,1.52537058e-06,1.00000000e-07,1.00004386e-07,1.00000000e-07,1.85722745e-15,1.00000000e-07,-1.39547704e-15,1.00000000e-07,2.32134983e-18,1.00000000e-07,6.43316306e-16,1.00000000e-07,9.64073409e-16,1.00000000e-07,-8.03474118e-19,1.00000000e-07,1.01567291e-08,1.00000000e-07,8.39939308e-01,1.00000000e-07,6.72533842e-02,1.00000000e-07,7.60382698e-01,1.00000000e-07,7.60382669e-01,1.00000000e-07,9.84568937e+07,1.00000000e-07,8.21315977e+08,1.00000000e-07,1.30716498e+08,1.00000000e-07,1.52530367e+01,1.0,.500,sky130
