isweep,gm,i_id,id,i_cgg,cgg,i_cgs,cgs,i_cgd,cgd,i_cds,cds,i_css,css,i_cdd,cdd,i_gds,gds,i_vth,vth,i_vdsat,vdsat,i_vgs,vgs,i_vds,vds,i_rds,rds,i_wt,wt,i_ft,ft,i_kgm,kgm,W,L,pdk
1.00000000e-09,2.58819102e-08,1.00000000e-09,9.99209832e-10,1.00000000e-09,1.19396368e-15,1.00000000e-09,-4.98033843e-16,1.00000000e-09,7.62978358e-19,1.00000000e-09,2.40485719e-16,1.00000000e-09,3.60426262e-16,1.00000000e-09,-3.27586734e-19,1.00000000e-09,1.27756665e-10,1.00000000e-09,1.03791585e+00,1.00000000e-09,3.50368680e-02,1.00000000e-09,7.89693640e-01,1.00000000e-09,7.89693640e-01,1.00000000e-09,7.82738029e+09,1.00000000e-09,2.16773010e+07,1.00000000e-09,3.45004961e+06,1.00000000e-09,2.59023775e+01,1.0,.500,sky130
1.50000000e-09,3.71914616e-08,1.50000000e-09,1.50348143e-09,1.50000000e-09,1.23770883e-15,1.50000000e-09,-5.60548295e-16,1.50000000e-09,8.62802157e-19,1.50000000e-09,2.69554981e-16,1.50000000e-09,4.04003273e-16,1.50000000e-09,-3.70746756e-19,1.50000000e-09,1.87039294e-10,1.50000000e-09,1.03788142e+00,1.50000000e-09,3.51902890e-02,1.50000000e-09,8.05753801e-01,1.50000000e-09,8.05753800e-01,1.50000000e-09,5.34647012e+09,1.50000000e-09,3.00486357e+07,1.50000000e-09,4.78238890e+06,1.50000000e-09,2.47368946e+01,1.0,.500,sky130
2.00000000e-09,4.80745626e-08,2.00000000e-09,2.00881207e-09,2.00000000e-09,1.27296381e-15,2.00000000e-09,-6.10246884e-16,2.00000000e-09,9.42307994e-19,2.00000000e-09,2.92560680e-16,2.00000000e-09,4.38491053e-16,2.00000000e-09,-4.04986474e-19,2.00000000e-09,2.45011757e-10,2.00000000e-09,1.03785602e+00,2.00000000e-09,3.53425798e-02,2.00000000e-09,8.17603599e-01,2.00000000e-09,8.17603598e-01,2.00000000e-09,4.08143679e+09,2.00000000e-09,3.77658518e+07,2.00000000e-09,6.01062200e+06,2.00000000e-09,2.39318368e+01,1.0,.500,sky130
2.50000000e-09,5.84466268e-08,2.50000000e-09,2.50340363e-09,2.50000000e-09,1.30228483e-15,2.50000000e-09,-6.51206119e-16,2.50000000e-09,1.00791716e-18,2.50000000e-09,3.11456031e-16,2.50000000e-09,4.66817326e-16,2.50000000e-09,-4.33151758e-19,2.50000000e-09,3.00791310e-10,2.50000000e-09,1.03783616e+00,2.50000000e-09,3.54902984e-02,2.50000000e-09,8.26868631e-01,2.50000000e-09,8.26868630e-01,2.50000000e-09,3.32456413e+09,2.50000000e-09,4.48800641e+07,2.50000000e-09,7.14288405e+06,2.50000000e-09,2.33468651e+01,1.0,.500,sky130
3.00000000e-09,6.86855611e-08,3.00000000e-09,3.00071825e-09,3.00000000e-09,1.32814535e-15,3.00000000e-09,-6.87090975e-16,3.00000000e-09,1.06545356e-18,3.00000000e-09,3.27964646e-16,3.00000000e-09,4.91565823e-16,3.00000000e-09,-4.57785081e-19,3.00000000e-09,3.56166649e-10,3.00000000e-09,1.03781944e+00,3.00000000e-09,3.56375527e-02,3.00000000e-09,8.34667270e-01,3.00000000e-09,8.34667269e-01,3.00000000e-09,2.80767445e+09,3.00000000e-09,5.17153948e+07,3.00000000e-09,8.23076071e+06,3.00000000e-09,2.28897069e+01,1.0,.500,sky130
3.50000000e-09,7.88304260e-08,3.50000000e-09,3.50006394e-09,3.50000000e-09,1.35136653e-15,3.50000000e-09,-7.19144439e-16,3.50000000e-09,1.11688631e-18,3.50000000e-09,3.42675874e-16,3.50000000e-09,5.13619970e-16,3.50000000e-09,-4.79752883e-19,3.50000000e-09,4.11209515e-10,3.50000000e-09,1.03780498e+00,3.50000000e-09,3.57841651e-02,3.50000000e-09,8.41412066e-01,3.50000000e-09,8.41412065e-01,3.50000000e-09,2.43185034e+09,3.50000000e-09,5.83338599e+07,3.50000000e-09,9.28412215e+06,3.50000000e-09,2.25225674e+01,1.0,.500,sky130
4.00000000e-09,8.88835996e-08,4.00000000e-09,3.99974999e-09,4.00000000e-09,1.37244056e-15,4.00000000e-09,-7.48109635e-16,4.00000000e-09,1.16339283e-18,4.00000000e-09,3.55942401e-16,4.00000000e-09,5.33508435e-16,4.00000000e-09,-4.99574151e-19,4.00000000e-09,4.65839028e-10,4.00000000e-09,1.03779226e+00,4.00000000e-09,3.59296704e-02,4.00000000e-09,8.47346476e-01,4.00000000e-09,8.47346475e-01,4.00000000e-09,2.14666428e+09,4.00000000e-09,6.47631689e+07,4.00000000e-09,1.03073785e+07,4.00000000e-09,2.22222889e+01,1.0,.500,sky130
4.50000000e-09,9.88667232e-08,4.50000000e-09,4.49955011e-09,4.50000000e-09,1.39176277e-15,4.50000000e-09,-7.74572061e-16,4.50000000e-09,1.20590311e-18,4.50000000e-09,3.68040575e-16,4.50000000e-09,5.51645466e-16,4.50000000e-09,-5.17656968e-19,4.50000000e-09,5.20108358e-10,4.50000000e-09,1.03778090e+00,4.50000000e-09,3.60740373e-02,4.50000000e-09,8.52647467e-01,4.50000000e-09,8.52647466e-01,4.50000000e-09,1.92267627e+09,4.50000000e-09,7.10370510e+07,4.50000000e-09,1.13058978e+07,4.50000000e-09,2.19725797e+01,1.0,.500,sky130
5.00000000e-09,1.08797949e-07,5.00000000e-09,4.99942651e-09,5.00000000e-09,1.40962613e-15,5.00000000e-09,-7.98961834e-16,5.00000000e-09,1.24510111e-18,5.00000000e-09,3.79172970e-16,5.00000000e-09,5.68334727e-16,5.00000000e-09,-5.34301003e-19,5.00000000e-09,5.74071412e-10,5.00000000e-09,1.03777063e+00,5.00000000e-09,3.62172871e-02,5.00000000e-09,8.57439980e-01,5.00000000e-09,8.57439979e-01,5.00000000e-09,1.74194356e+09,5.00000000e-09,7.71821312e+07,5.00000000e-09,1.22839177e+07,5.00000000e-09,2.17620858e+01,1.0,.500,sky130
5.50000000e-09,1.18690584e-07,5.50000000e-09,5.49934668e-09,5.50000000e-09,1.42625106e-15,5.50000000e-09,-8.21600613e-16,5.50000000e-09,1.28149877e-18,5.50000000e-09,3.89490851e-16,5.50000000e-09,5.83802968e-16,5.50000000e-09,-5.49730335e-19,5.50000000e-09,6.27768950e-10,5.50000000e-09,1.03776125e+00,5.50000000e-09,3.63594410e-02,5.50000000e-09,8.61814658e-01,5.50000000e-09,8.61814657e-01,5.50000000e-09,1.59294275e+09,5.50000000e-09,8.32185772e+07,5.50000000e-09,1.32446479e+07,5.50000000e-09,2.15826699e+01,1.0,.500,sky130
6.00000000e-09,1.28554750e-07,6.00000000e-09,5.99929158e-09,6.00000000e-09,1.44180874e-15,6.00000000e-09,-8.42736768e-16,6.00000000e-09,1.31549168e-18,6.00000000e-09,3.99110846e-16,6.00000000e-09,5.98225018e-16,6.00000000e-09,-5.64117951e-19,6.00000000e-09,6.81233479e-10,6.00000000e-09,1.03775262e+00,6.00000000e-09,3.65005216e-02,6.00000000e-09,8.65839550e-01,6.00000000e-09,8.65839548e-01,6.00000000e-09,1.46792551e+09,6.00000000e-09,8.91621378e+07,6.00000000e-09,1.41905950e+07,6.00000000e-09,2.14283216e+01,1.0,.500,sky130
6.50000000e-09,1.38398285e-07,6.50000000e-09,6.49925219e-09,6.50000000e-09,1.45643527e-15,6.50000000e-09,-8.62566796e-16,6.50000000e-09,1.34739305e-18,6.50000000e-09,4.08125099e-16,6.50000000e-09,6.11739004e-16,6.50000000e-09,-5.77600674e-19,6.50000000e-09,7.34491510e-10,6.50000000e-09,1.03774463e+00,6.50000000e-09,3.66405535e-02,6.50000000e-09,8.69567122e-01,6.50000000e-09,8.69567120e-01,6.50000000e-09,1.36148613e+09,6.50000000e-09,9.50253594e+07,6.50000000e-09,1.51237557e+07,6.50000000e-09,2.12944937e+01,1.0,.500,sky130
7.00000000e-09,1.48227281e-07,7.00000000e-09,6.99922303e-09,7.00000000e-09,1.47024089e-15,7.00000000e-09,-8.81249157e-16,7.00000000e-09,1.37745562e-18,7.00000000e-09,4.16607817e-16,7.00000000e-09,6.24456168e-16,7.00000000e-09,-5.90288809e-19,7.00000000e-09,7.87564656e-10,7.00000000e-09,1.03773719e+00,7.00000000e-09,3.67795603e-02,7.00000000e-09,8.73038700e-01,7.00000000e-09,8.73038698e-01,7.00000000e-09,1.26973702e+09,7.00000000e-09,1.00818364e+08,7.00000000e-09,1.60457410e+07,7.00000000e-09,2.11776764e+01,1.0,.500,sky130
7.50000000e-09,1.58046549e-07,7.50000000e-09,7.49920278e-09,7.50000000e-09,1.48331640e-15,7.50000000e-09,-8.98913862e-16,7.50000000e-09,1.40588688e-18,7.50000000e-09,4.24619813e-16,7.50000000e-09,6.36467669e-16,7.50000000e-09,-6.02272831e-19,7.50000000e-09,8.40470960e-10,7.50000000e-09,1.03773023e+00,7.50000000e-09,3.69175659e-02,7.50000000e-09,8.76287456e-01,7.50000000e-09,8.76287454e-01,7.50000000e-09,1.18980910e+09,7.50000000e-09,1.06549452e+08,7.50000000e-09,1.69578719e+07,7.50000000e-09,2.10751134e+01,1.0,.500,sky130
8.00000000e-09,1.67859775e-07,8.00000000e-09,7.99918536e-09,8.00000000e-09,1.49573747e-15,8.00000000e-09,-9.15668857e-16,8.00000000e-09,1.43285921e-18,8.00000000e-09,4.32211521e-16,8.00000000e-09,6.47849113e-16,8.00000000e-09,-6.13627842e-19,8.00000000e-09,8.93224856e-10,8.00000000e-09,1.03772368e+00,8.00000000e-09,3.70545915e-02,8.00000000e-09,8.79340395e-01,8.00000000e-09,8.79340393e-01,8.00000000e-09,1.11953893e+09,8.00000000e-09,1.12225426e+08,8.00000000e-09,1.78612314e+07,8.00000000e-09,2.09846088e+01,1.0,.500,sky130
8.50000000e-09,1.77669974e-07,8.50000000e-09,8.49917102e-09,8.50000000e-09,1.50756817e-15,8.50000000e-09,-9.31605229e-16,8.50000000e-09,1.45851813e-18,8.50000000e-09,4.39425448e-16,8.50000000e-09,6.58664220e-16,8.50000000e-09,-6.24417184e-19,8.50000000e-09,9.45839010e-10,8.50000000e-09,1.03771751e+00,8.50000000e-09,3.71906591e-02,8.50000000e-09,8.82219869e-01,8.50000000e-09,8.82219866e-01,8.50000000e-09,1.05726238e+09,8.50000000e-09,1.17852033e+08,8.50000000e-09,1.87567336e+07,8.50000000e-09,2.09043886e+01,1.0,.500,sky130
9.00000000e-09,1.87479522e-07,9.00000000e-09,8.99915922e-09,9.00000000e-09,1.51886317e-15,9.00000000e-09,-9.46800468e-16,9.00000000e-09,1.48298752e-18,9.00000000e-09,4.46297719e-16,9.00000000e-09,6.68967144e-16,9.00000000e-09,-6.34694731e-19,9.00000000e-09,9.98324062e-10,9.00000000e-09,1.03771167e+00,9.00000000e-09,3.73257896e-02,9.00000000e-09,8.84944561e-01,9.00000000e-09,8.84944558e-01,9.00000000e-09,1.00167875e+09,9.00000000e-09,1.23434109e+08,9.00000000e-09,1.96451487e+07,9.00000000e-09,2.08330042e+01,1.0,.500,sky130
9.50000000e-09,1.97290311e-07,9.50000000e-09,9.49914959e-09,9.50000000e-09,1.52966957e-15,9.50000000e-09,-9.61321158e-16,9.50000000e-09,1.50637384e-18,9.50000000e-09,4.52859343e-16,9.50000000e-09,6.78804370e-16,9.50000000e-09,-6.44506755e-19,9.50000000e-09,1.05068910e-09,9.50000000e-09,1.03770613e+00,9.50000000e-09,3.74600030e-02,9.50000000e-09,8.87530263e-01,9.50000000e-09,8.87530260e-01,9.50000000e-09,9.51756331e+08,9.50000000e-09,1.28975771e+08,9.50000000e-09,2.05271315e+07,9.50000000e-09,2.07692604e+01,1.0,.500,sky130
1.00000000e-08,2.07103218e-07,1.00000000e-08,9.99910985e-09,1.00000000e-08,1.54002764e-15,1.00000000e-08,-9.75224118e-16,1.00000000e-08,1.52876801e-18,1.00000000e-08,4.59136768e-16,1.00000000e-08,6.88215544e-16,1.00000000e-08,-6.53892745e-19,1.00000000e-08,1.10293860e-09,1.00000000e-08,1.03770085e+00,1.00000000e-08,3.75933100e-02,1.00000000e-08,8.89990293e-01,1.00000000e-08,8.89990290e-01,1.00000000e-08,9.06668784e+08,1.00000000e-08,1.34480195e+08,1.00000000e-08,2.14031878e+07,1.00000000e-08,2.07121655e+01,1.0,.500,sky130
1.50000000e-08,3.06676009e-07,1.50000000e-08,1.50557134e-08,1.50000000e-08,1.62600477e-15,1.50000000e-08,-1.09010279e-15,1.50000000e-08,1.71388713e-18,1.50000000e-08,5.10821857e-16,1.50000000e-08,7.65703127e-16,1.50000000e-08,-7.31110600e-19,1.50000000e-08,1.62626467e-09,1.50000000e-08,1.03765833e+00,1.50000000e-08,3.88949779e-02,1.50000000e-08,9.09825376e-01,1.50000000e-08,9.09825372e-01,1.50000000e-08,6.14906059e+08,1.50000000e-08,1.88607078e+08,1.50000000e-08,3.00177488e+07,1.50000000e-08,2.03694106e+01,1.0,.500,sky130
2.00000000e-08,4.07458790e-07,2.00000000e-08,2.01368907e-08,2.00000000e-08,1.68999797e-15,2.00000000e-08,-1.17508234e-15,2.00000000e-08,1.85087641e-18,2.00000000e-08,5.48849963e-16,2.00000000e-08,8.22716725e-16,2.00000000e-08,-7.87816279e-19,2.00000000e-08,2.14489292e-09,2.00000000e-08,1.03762778e+00,2.00000000e-08,4.01279388e-02,2.00000000e-08,9.24078344e-01,2.00000000e-08,9.24078338e-01,2.00000000e-08,4.66223741e+08,2.00000000e-08,2.41100165e+08,2.00000000e-08,3.83722830e+07,2.00000000e-08,2.02344441e+01,1.0,.500,sky130
2.50000000e-08,5.05765227e-07,2.50000000e-08,2.50638208e-08,2.50000000e-08,1.73924872e-15,2.50000000e-08,-1.24022666e-15,2.50000000e-08,1.95589170e-18,2.50000000e-08,5.77887555e-16,2.50000000e-08,8.66251816e-16,2.50000000e-08,-8.31025766e-19,2.50000000e-08,2.64232999e-09,2.50000000e-08,1.03760468e+00,2.50000000e-08,4.12628118e-02,2.50000000e-08,9.34854935e-01,2.50000000e-08,9.34854928e-01,2.50000000e-08,3.78453866e+08,2.50000000e-08,2.90795227e+08,2.50000000e-08,4.62814978e+07,2.50000000e-08,2.01790953e+01,1.0,.500,sky130
3.00000000e-08,6.05063791e-07,3.00000000e-08,3.00211209e-08,3.00000000e-08,1.78031155e-15,3.00000000e-08,-1.29438863e-15,3.00000000e-08,2.04318891e-18,3.00000000e-08,6.01955625e-16,3.00000000e-08,9.02336608e-16,3.00000000e-08,-8.66766324e-19,3.00000000e-08,3.13813401e-09,3.00000000e-08,1.03758559e+00,3.00000000e-08,4.23527849e-02,3.00000000e-08,9.43758277e-01,3.00000000e-08,9.43758268e-01,3.00000000e-08,3.18660707e+08,3.00000000e-08,3.39863992e+08,3.00000000e-08,5.40910343e+07,3.00000000e-08,2.01546036e+01,1.0,.500,sky130
3.50000000e-08,7.05235300e-07,3.50000000e-08,3.50115495e-08,3.50000000e-08,1.81548621e-15,3.50000000e-08,-1.34068386e-15,3.50000000e-08,2.11778761e-18,3.50000000e-08,6.22475017e-16,3.50000000e-08,9.33101182e-16,3.50000000e-08,-8.97174958e-19,3.50000000e-08,3.63292062e-09,3.50000000e-08,1.03756932e+00,3.50000000e-08,4.34040902e-02,3.50000000e-08,9.51351281e-01,3.50000000e-08,9.51351271e-01,3.50000000e-08,2.75260625e+08,3.50000000e-08,3.88455332e+08,3.50000000e-08,6.18245863e+07,3.50000000e-08,2.01429331e+01,1.0,.500,sky130
4.00000000e-08,8.05571431e-07,4.00000000e-08,4.00073821e-08,4.00000000e-08,1.84605640e-15,4.00000000e-08,-1.38084932e-15,4.00000000e-08,2.18248886e-18,4.00000000e-08,6.40238177e-16,4.00000000e-08,9.59733543e-16,4.00000000e-08,-9.23446564e-19,4.00000000e-08,4.12419014e-09,4.00000000e-08,1.03755519e+00,4.00000000e-08,4.44157336e-02,4.00000000e-08,9.57940646e-01,4.00000000e-08,9.57940634e-01,4.00000000e-08,2.42471847e+08,4.00000000e-08,4.36374226e+08,4.00000000e-08,6.94511151e+07,4.00000000e-08,2.01355697e+01,1.0,.500,sky130
4.50000000e-08,9.05865067e-07,4.50000000e-08,4.50045682e-08,4.50000000e-08,1.87302932e-15,4.50000000e-08,-1.41623809e-15,4.50000000e-08,2.23947585e-18,4.50000000e-08,6.55858594e-16,4.50000000e-08,9.83153428e-16,4.50000000e-08,-9.46504478e-19,4.50000000e-08,4.61176373e-09,4.50000000e-08,1.03754273e+00,4.50000000e-08,4.53912308e-02,4.50000000e-08,9.63757335e-01,4.50000000e-08,9.63757322e-01,4.50000000e-08,2.16836780e+08,4.50000000e-08,4.83636353e+08,4.50000000e-08,7.69731162e+07,4.50000000e-08,2.01282915e+01,1.0,.500,sky130
5.00000000e-08,1.00600945e-06,5.00000000e-08,5.00028411e-08,5.00000000e-08,1.89713187e-15,5.00000000e-08,-1.44782320e-15,5.00000000e-08,2.29031919e-18,5.00000000e-08,6.69776133e-16,5.00000000e-08,1.00402028e-15,5.00000000e-08,-9.67010345e-19,5.00000000e-08,5.09579715e-09,5.00000000e-08,1.03753156e+00,5.00000000e-08,4.63341781e-02,5.00000000e-08,9.68964247e-01,5.00000000e-08,9.68964233e-01,5.00000000e-08,1.96240150e+08,5.00000000e-08,5.30279134e+08,5.00000000e-08,8.43965453e+07,5.00000000e-08,2.01190457e+01,1.0,.500,sky130
5.50000000e-08,1.10591425e-06,5.50000000e-08,5.50017559e-08,5.50000000e-08,1.91889262e-15,5.50000000e-08,-1.47631043e-15,5.50000000e-08,2.33615850e-18,5.50000000e-08,6.82309196e-16,5.50000000e-08,1.02281146e-15,5.50000000e-08,-9.85442975e-19,5.50000000e-08,5.57640210e-09,5.50000000e-08,1.03752146e+00,5.50000000e-08,4.72475698e-02,5.50000000e-08,9.73677846e-01,5.50000000e-08,9.73677830e-01,5.50000000e-08,1.79327097e+08,5.50000000e-08,5.76329409e+08,5.50000000e-08,9.17256743e+07,5.50000000e-08,2.01068898e+01,1.0,.500,sky130
6.00000000e-08,1.20550868e-06,6.00000000e-08,6.00010362e-08,6.00000000e-08,1.93870877e-15,6.00000000e-08,-1.50222904e-15,6.00000000e-08,2.37784858e-18,6.00000000e-08,6.93696109e-16,6.00000000e-08,1.03988426e-15,6.00000000e-08,-1.00216062e-18,6.00000000e-08,6.05368818e-09,6.00000000e-08,1.03751223e+00,6.00000000e-08,4.81339823e-02,6.00000000e-08,9.77984465e-01,6.00000000e-08,9.77984447e-01,6.00000000e-08,1.65188554e+08,6.00000000e-08,6.21810095e+08,6.00000000e-08,9.89641503e+07,6.00000000e-08,2.00914644e+01,1.0,.500,sky130
6.50000000e-08,1.30473770e-06,6.50000000e-08,6.50005444e-08,6.50000000e-08,1.95688618e-15,6.50000000e-08,-1.52598582e-15,6.50000000e-08,2.41604653e-18,6.50000000e-08,7.04119742e-16,6.50000000e-08,1.05551285e-15,6.50000000e-08,-1.01743804e-18,6.50000000e-08,6.52776455e-09,6.50000000e-08,1.03750373e+00,6.50000000e-08,4.89956533e-02,6.50000000e-08,9.81949843e-01,6.50000000e-08,9.81949824e-01,6.50000000e-08,1.53191800e+08,6.50000000e-08,6.66741744e+08,6.50000000e-08,1.06115244e+08,6.50000000e-08,2.00727196e+01,1.0,.500,sky130
7.00000000e-08,1.40355771e-06,7.00000000e-08,7.00001935e-08,7.00000000e-08,1.97366501e-15,7.00000000e-08,-1.54789967e-15,7.00000000e-08,2.45126759e-18,7.00000000e-08,7.13723239e-16,7.00000000e-08,1.06991184e-15,7.00000000e-08,-1.03149021e-18,7.00000000e-08,6.99873434e-09,7.00000000e-08,1.03749585e+00,7.00000000e-08,4.98345318e-02,7.00000000e-08,9.85625128e-01,7.00000000e-08,9.85625108e-01,7.00000000e-08,1.42882977e+08,7.00000000e-08,7.11142824e+08,7.00000000e-08,1.13181896e+08,7.00000000e-08,2.00507690e+01,1.0,.500,sky130
7.50000000e-08,1.50193435e-06,7.50000000e-08,7.49999396e-08,7.50000000e-08,1.98923714e-15,7.50000000e-08,-1.56822504e-15,7.50000000e-08,2.48392285e-18,7.50000000e-08,7.22620659e-16,7.50000000e-08,1.08325222e-15,7.50000000e-08,-1.04448833e-18,7.50000000e-08,7.46669592e-09,7.50000000e-08,1.03748851e+00,7.50000000e-08,5.06523276e-02,7.50000000e-08,9.89050881e-01,7.50000000e-08,9.89050859e-01,7.50000000e-08,1.33928047e+08,7.50000000e-08,7.55030318e+08,7.50000000e-08,1.20166807e+08,7.50000000e-08,2.00258074e+01,1.0,.500,sky130
8.00000000e-08,1.59984035e-06,8.00000000e-08,7.99997508e-08,8.00000000e-08,2.00375815e-15,8.00000000e-08,-1.58716798e-15,8.00000000e-08,2.51434529e-18,8.00000000e-08,7.30904254e-16,8.00000000e-08,1.09567230e-15,8.00000000e-08,-1.05657082e-18,8.00000000e-08,7.93174140e-09,8.00000000e-08,1.03748163e+00,8.00000000e-08,5.14505477e-02,8.00000000e-08,9.92259777e-01,8.00000000e-08,9.92259754e-01,8.00000000e-08,1.26075719e+08,8.00000000e-08,7.98419884e+08,8.00000000e-08,1.27072471e+08,8.00000000e-08,1.99980667e+01,1.0,.500,sky130
8.50000000e-08,1.69725423e-06,8.50000000e-08,8.49996072e-08,8.50000000e-08,2.01735588e-15,8.50000000e-08,-1.60489761e-15,8.50000000e-08,2.54280815e-18,8.50000000e-08,7.38649648e-16,8.50000000e-08,1.10728547e-15,8.50000000e-08,-1.06785108e-18,8.50000000e-08,8.39395765e-09,8.50000000e-08,1.03747516e+00,8.50000000e-08,5.22305288e-02,8.50000000e-08,9.95278522e-01,8.50000000e-08,9.95278497e-01,8.50000000e-08,1.19133315e+08,8.50000000e-08,8.41326139e+08,8.50000000e-08,1.33901214e+08,8.50000000e-08,1.99677891e+01,1.0,.500,sky130
9.00000000e-08,1.79415921e-06,9.00000000e-08,8.99994964e-08,9.00000000e-08,2.03013655e-15,9.00000000e-08,-1.62155432e-15,9.00000000e-08,2.56953835e-18,9.00000000e-08,7.45919566e-16,9.00000000e-08,1.11818576e-15,9.00000000e-08,-1.07842311e-18,9.00000000e-08,8.85342672e-09,9.00000000e-08,1.03746905e+00,9.00000000e-08,5.29934623e-02,9.00000000e-08,9.98129211e-01,9.00000000e-08,9.98129185e-01,9.00000000e-08,1.12950616e+08,9.00000000e-08,8.83762821e+08,9.00000000e-08,1.40655222e+08,9.00000000e-08,1.99352139e+01,1.0,.500,sky130
9.50000000e-08,1.89054232e-06,9.50000000e-08,9.49994097e-08,9.50000000e-08,2.04218939e-15,9.50000000e-08,-1.63725591e-15,9.50000000e-08,2.59472624e-18,9.50000000e-08,7.52766576e-16,9.50000000e-08,1.12845199e-15,9.50000000e-08,-1.08836566e-18,9.50000000e-08,9.31022612e-09,9.50000000e-08,1.03746326e+00,9.50000000e-08,5.37404157e-02,9.50000000e-08,1.00083033e+00,9.50000000e-08,1.00083030e+00,9.50000000e-08,1.07408777e+08,9.50000000e-08,9.25742897e+08,9.50000000e-08,1.47336558e+08,9.50000000e-08,1.99005691e+01,1.0,.500,sky130
1.00000000e-07,1.98653626e-06,1.00000000e-07,1.00006796e-07,1.00000000e-07,2.05360652e-15,1.00000000e-07,-1.65212366e-15,1.00000000e-07,2.61856753e-18,1.00000000e-07,7.59244535e-16,1.00000000e-07,1.13816491e-15,1.00000000e-07,-1.09775892e-18,1.00000000e-07,9.76510452e-09,1.00000000e-07,1.03745775e+00,1.00000000e-07,5.44734300e-02,1.00000000e-07,1.00340122e+00,1.00000000e-07,1.00340119e+00,1.00000000e-07,1.02405458e+08,1.00000000e-07,9.67340257e+08,1.00000000e-07,1.53956984e+08,1.00000000e-07,1.98640126e+01,1.0,.500,sky130
