isweep,gm,i_id,id,i_cgg,cgg,i_cgs,cgs,i_cgd,cgd,i_cds,cds,i_css,css,i_cdd,cdd,i_gds,gds,i_vth,vth,i_vdsat,vdsat,i_vgs,vgs,i_vds,vds,i_rds,rds,i_wt,wt,i_ft,ft,i_kgm,kgm,W,L,pdk
1.00000000e-09,1.95737299e-08,1.00000000e-09,9.99552619e-10,1.00000000e-09,4.88555971e-16,1.00000000e-09,-8.62454905e-17,1.00000000e-09,6.80395194e-18,1.00000000e-09,5.42519881e-17,1.00000000e-09,8.11420027e-17,1.00000000e-09,-4.17811029e-18,1.00000000e-09,2.40038125e-09,1.00000000e-09,6.58097338e-01,1.00000000e-09,4.88319093e-02,1.00000000e-09,2.91263126e-01,1.00000000e-09,2.91263125e-01,1.00000000e-09,4.16600489e+08,1.00000000e-09,4.00644574e+07,1.00000000e-09,6.37645643e+06,1.00000000e-09,1.95824907e+01,0.840,0.150,sky130
1.25000000e-09,2.38244578e-08,1.25000000e-09,1.24983436e-09,1.25000000e-09,4.92042211e-16,1.25000000e-09,-9.26965738e-17,1.25000000e-09,7.33776122e-18,1.25000000e-09,5.82135347e-17,1.25000000e-09,8.70721307e-17,1.25000000e-09,-4.50971959e-18,1.25000000e-09,2.91647573e-09,1.25000000e-09,6.56847214e-01,1.25000000e-09,4.88835043e-02,1.25000000e-09,3.01566624e-01,1.25000000e-09,3.01566624e-01,1.25000000e-09,3.42879590e+08,1.25000000e-09,4.84195406e+07,1.25000000e-09,7.70620924e+06,1.25000000e-09,1.90620922e+01,0.840,0.150,sky130
1.50000000e-09,2.79743651e-08,1.50000000e-09,1.50035151e-09,1.50000000e-09,4.95190355e-16,1.50000000e-09,-9.84118856e-17,1.50000000e-09,7.81062411e-18,1.50000000e-09,6.17159009e-17,1.50000000e-09,9.23154801e-17,1.50000000e-09,-4.80243968e-18,1.50000000e-09,3.41949766e-09,1.50000000e-09,6.55799599e-01,1.50000000e-09,4.89349087e-02,1.50000000e-09,3.10201051e-01,1.50000000e-09,3.10201050e-01,1.50000000e-09,2.92440616e+08,1.50000000e-09,5.64921446e+07,1.50000000e-09,8.99100405e+06,1.50000000e-09,1.86452074e+01,0.840,0.150,sky130
1.75000000e-09,3.20305763e-08,1.75000000e-09,1.75000644e-09,1.75000000e-09,4.98067449e-16,1.75000000e-09,-1.03558380e-16,1.75000000e-09,8.23643069e-18,1.75000000e-09,6.48641456e-17,1.75000000e-09,9.70290698e-17,1.75000000e-09,-5.06530150e-18,1.75000000e-09,3.91047617e-09,1.75000000e-09,6.54898702e-01,1.75000000e-09,4.89859386e-02,1.75000000e-09,3.17626224e-01,1.75000000e-09,3.17626224e-01,1.75000000e-09,2.55723333e+08,1.75000000e-09,6.43097163e+07,1.75000000e-09,1.02352092e+07,1.75000000e-09,1.83031191e+01,0.840,0.150,sky130
2.00000000e-09,3.60269471e-08,2.00000000e-09,1.99979843e-09,2.00000000e-09,5.00738158e-16,2.00000000e-09,-1.08278978e-16,2.00000000e-09,8.62703495e-18,2.00000000e-09,6.77474700e-17,2.00000000e-09,1.01346301e-16,2.00000000e-09,-5.30588365e-18,2.00000000e-09,4.39362800e-09,2.00000000e-09,6.54104115e-01,2.00000000e-09,4.90368240e-02,2.00000000e-09,3.24175195e-01,2.00000000e-09,3.24175194e-01,2.00000000e-09,2.27602337e+08,2.00000000e-09,7.19476767e+07,2.00000000e-09,1.14508284e+07,2.00000000e-09,1.80152893e+01,0.840,0.150,sky130
2.25000000e-09,3.99754540e-08,2.25000000e-09,2.24969938e-09,2.25000000e-09,5.03238206e-16,2.25000000e-09,-1.12654204e-16,2.25000000e-09,8.98910977e-18,2.25000000e-09,7.04162567e-17,2.25000000e-09,1.05342518e-16,2.25000000e-09,-5.52846333e-18,2.25000000e-09,4.87048694e-09,2.25000000e-09,6.53392353e-01,2.25000000e-09,4.90875754e-02,2.25000000e-09,3.30041532e-01,2.25000000e-09,3.30041531e-01,2.25000000e-09,2.05318280e+08,2.25000000e-09,7.94364448e+07,2.25000000e-09,1.26427028e+07,2.25000000e-09,1.77692426e+01,0.840,0.150,sky130
2.50000000e-09,4.38843033e-08,2.50000000e-09,2.49963813e-09,2.50000000e-09,5.05593359e-16,2.50000000e-09,-1.16741146e-16,2.50000000e-09,9.32738068e-18,2.50000000e-09,7.29061989e-17,2.50000000e-09,1.09071103e-16,2.50000000e-09,-5.73606176e-18,2.50000000e-09,5.34211108e-09,2.50000000e-09,6.52747215e-01,2.50000000e-09,4.91381896e-02,2.50000000e-09,3.35358745e-01,2.50000000e-09,3.35358744e-01,2.50000000e-09,1.87191914e+08,2.50000000e-09,8.67976261e+07,2.50000000e-09,1.38142712e+07,2.50000000e-09,1.75562625e+01,0.840,0.150,sky130
2.75000000e-09,4.77604268e-08,2.75000000e-09,2.74959869e-09,2.75000000e-09,5.07823648e-16,2.75000000e-09,-1.20583204e-16,2.75000000e-09,9.64543707e-18,2.75000000e-09,7.52443943e-17,2.75000000e-09,1.12572590e-16,2.75000000e-09,-5.93096626e-18,2.75000000e-09,5.80939047e-09,2.75000000e-09,6.52156841e-01,2.75000000e-09,4.91886720e-02,2.75000000e-09,3.40224598e-01,2.75000000e-09,3.40224597e-01,2.75000000e-09,1.72135098e+08,2.75000000e-09,9.40492374e+07,2.75000000e-09,1.49684010e+07,2.75000000e-09,1.73699627e+01,0.840,0.150,sky130
3.00000000e-09,5.16092854e-08,3.00000000e-09,2.99957012e-09,3.00000000e-09,5.09944774e-16,3.00000000e-09,-1.24213848e-16,3.00000000e-09,9.94604532e-18,3.00000000e-09,7.74517229e-17,3.00000000e-09,1.15878214e-16,3.00000000e-09,-6.11493554e-18,3.00000000e-09,6.27302729e-09,3.00000000e-09,6.51612340e-01,3.00000000e-09,4.92390266e-02,3.00000000e-09,3.44712367e-01,3.00000000e-09,3.44712366e-01,3.00000000e-09,1.59412665e+08,3.00000000e-09,1.01205636e+08,3.00000000e-09,1.61073773e+07,3.00000000e-09,1.72055606e+01,0.840,0.150,sky130
3.25000000e-09,5.54353269e-08,3.25000000e-09,3.24954984e-09,3.25000000e-09,5.11969370e-16,3.25000000e-09,-1.27659608e-16,3.25000000e-09,1.02313970e-17,3.25000000e-09,7.95447193e-17,3.25000000e-09,1.19012713e-16,3.25000000e-09,-6.28935986e-18,3.25000000e-09,6.73359371e-09,3.25000000e-09,6.51106857e-01,3.25000000e-09,4.92892582e-02,3.25000000e-09,3.48878551e-01,3.25000000e-09,3.48878549e-01,3.25000000e-09,1.48509109e+08,3.25000000e-09,1.08278600e+08,3.25000000e-09,1.72330745e+07,3.25000000e-09,1.70593866e+01,0.840,0.150,sky130
3.50000000e-09,5.92421293e-08,3.50000000e-09,3.49953463e-09,3.50000000e-09,5.13907740e-16,3.50000000e-09,-1.30941858e-16,3.50000000e-09,1.05032569e-17,3.50000000e-09,8.15366946e-17,3.50000000e-09,1.21996000e-16,3.50000000e-09,-6.45535676e-18,3.50000000e-09,7.19155108e-09,3.50000000e-09,6.50635000e-01,3.50000000e-09,4.93393700e-02,3.50000000e-09,3.52767585e-01,3.50000000e-09,3.52767584e-01,3.50000000e-09,1.39052061e+08,3.50000000e-09,1.15277753e+08,3.50000000e-09,1.83470242e+07,3.50000000e-09,1.69285735e+01,0.840,0.150,sky130
3.75000000e-09,6.30326289e-08,3.75000000e-09,3.74952239e-09,3.75000000e-09,5.15768439e-16,3.75000000e-09,-1.34078141e-16,3.75000000e-09,1.07630731e-17,3.75000000e-09,8.34385666e-17,3.75000000e-09,1.24844414e-16,3.75000000e-09,-6.61384169e-18,3.75000000e-09,7.64727872e-09,3.75000000e-09,6.50192446e-01,3.75000000e-09,4.93893651e-02,3.75000000e-09,3.56415108e-01,3.75000000e-09,3.56415107e-01,3.75000000e-09,1.30765470e+08,3.75000000e-09,1.22211101e+08,3.75000000e-09,1.94505008e+07,3.75000000e-09,1.68108421e+01,0.840,0.150,sky130
4.00000000e-09,6.68092704e-08,4.00000000e-09,3.99951244e-09,4.00000000e-09,5.17558676e-16,4.00000000e-09,-1.37083082e-16,4.00000000e-09,1.10120524e-17,4.00000000e-09,8.52594288e-17,4.00000000e-09,1.27571560e-16,4.00000000e-09,-6.76557628e-18,4.00000000e-09,8.10109304e-09,4.00000000e-09,6.49775669e-01,4.00000000e-09,4.94392462e-02,4.00000000e-09,3.59850177e-01,4.00000000e-09,3.59850176e-01,4.00000000e-09,1.23440133e+08,4.00000000e-09,1.29085403e+08,4.00000000e-09,2.05445800e+07,4.00000000e-09,1.67043537e+01,0.840,0.150,sky130
4.25000000e-09,7.05740959e-08,4.25000000e-09,4.24950430e-09,4.25000000e-09,5.19284590e-16,4.25000000e-09,-1.39969013e-16,4.25000000e-09,1.12512122e-17,4.25000000e-09,8.70069461e-17,4.25000000e-09,1.30188909e-16,4.25000000e-09,-6.91120189e-18,4.25000000e-09,8.55325889e-09,4.25000000e-09,6.49381757e-01,4.25000000e-09,4.94890156e-02,4.25000000e-09,3.63096797e-01,4.25000000e-09,3.63096796e-01,4.25000000e-09,1.16914502e+08,4.25000000e-09,1.35906394e+08,4.25000000e-09,2.16301743e+07,4.25000000e-09,1.66076067e+01,0.840,0.150,sky130
4.50000000e-09,7.43288257e-08,4.50000000e-09,4.49949764e-09,4.50000000e-09,5.20951463e-16,4.50000000e-09,-1.42746455e-16,4.50000000e-09,1.14814204e-17,4.50000000e-09,8.86876518e-17,4.50000000e-09,1.32706237e-16,4.50000000e-09,-7.05126475e-18,4.50000000e-09,9.00399998e-09,4.50000000e-09,6.49008273e-01,4.50000000e-09,4.95386753e-02,4.50000000e-09,3.66175046e-01,4.50000000e-09,3.66175045e-01,4.50000000e-09,1.11061751e+08,4.50000000e-09,1.42678985e+08,4.50000000e-09,2.27080657e+07,4.50000000e-09,1.65193610e+01,0.840,0.150,sky130
4.75000000e-09,7.80749049e-08,4.75000000e-09,4.74949127e-09,4.75000000e-09,5.22563876e-16,4.75000000e-09,-1.45424460e-16,4.75000000e-09,1.17034232e-17,4.75000000e-09,9.03071636e-17,4.75000000e-09,1.35131952e-16,4.75000000e-09,-7.18623416e-18,4.75000000e-09,9.45350484e-09,4.75000000e-09,6.48653159e-01,4.75000000e-09,4.95882270e-02,4.75000000e-09,3.69101885e-01,4.75000000e-09,3.69101884e-01,4.75000000e-09,1.05780874e+08,4.75000000e-09,1.49407390e+08,4.75000000e-09,2.37789247e+07,4.75000000e-09,1.64385827e+01,0.840,0.150,sky130
5.00000000e-09,8.18136037e-08,5.00000000e-09,4.99948660e-09,5.00000000e-09,5.24125856e-16,5.00000000e-09,-1.48010915e-16,5.00000000e-09,1.19178712e-17,5.00000000e-09,9.18703744e-17,5.00000000e-09,1.37473377e-16,5.00000000e-09,-7.31651863e-18,5.00000000e-09,9.90193921e-09,5.00000000e-09,6.48314657e-01,5.00000000e-09,4.96376725e-02,5.00000000e-09,3.71891815e-01,5.00000000e-09,3.71891813e-01,5.00000000e-09,1.00990319e+08,5.00000000e-09,1.56095340e+08,5.00000000e-09,2.48433450e+07,5.00000000e-09,1.63644010e+01,0.840,0.150,sky130
5.25000000e-09,8.55459591e-08,5.25000000e-09,5.24948124e-09,5.25000000e-09,5.25640930e-16,5.25000000e-09,-1.50512691e-16,5.25000000e-09,1.21253309e-17,5.25000000e-09,9.33815429e-17,5.25000000e-09,1.39736885e-16,5.25000000e-09,-7.44247349e-18,5.25000000e-09,1.03494394e-08,5.25000000e-09,6.47991257e-01,5.25000000e-09,4.96870130e-02,5.25000000e-09,3.74557273e-01,5.25000000e-09,3.74557271e-01,5.25000000e-09,9.66235911e+07,5.25000000e-09,1.62746001e+08,5.25000000e-09,2.59018305e+07,5.25000000e-09,1.62960786e+01,0.840,0.150,sky130
5.50000000e-09,8.92729293e-08,5.50000000e-09,5.49947736e-09,5.50000000e-09,5.27112255e-16,5.50000000e-09,-1.52935884e-16,5.50000000e-09,1.23263049e-17,5.50000000e-09,9.48444470e-17,5.50000000e-09,1.41928131e-16,5.50000000e-09,-7.56441381e-18,5.50000000e-09,1.07961310e-08,5.50000000e-09,6.47681645e-01,5.50000000e-09,4.97362501e-02,5.50000000e-09,3.77109090e-01,5.50000000e-09,3.77109088e-01,5.50000000e-09,9.26257753e+07,5.50000000e-09,1.69362272e+08,5.50000000e-09,2.69548428e+07,5.50000000e-09,1.62329842e+01,0.840,0.150,sky130
5.75000000e-09,9.29952950e-08,5.75000000e-09,5.74947341e-09,5.75000000e-09,5.28542629e-16,5.75000000e-09,-1.55285871e-16,5.75000000e-09,1.25212363e-17,5.75000000e-09,9.62624151e-17,5.75000000e-09,1.44052097e-16,5.75000000e-09,-7.68261704e-18,5.75000000e-09,1.12421171e-08,5.75000000e-09,6.47384678e-01,5.75000000e-09,4.97853848e-02,5.75000000e-09,3.79556685e-01,5.75000000e-09,3.79556683e-01,5.75000000e-09,8.89512174e+07,5.75000000e-09,1.75946631e+08,5.75000000e-09,2.80027761e+07,5.75000000e-09,1.61745761e+01,0.840,0.150,sky130
6.00000000e-09,9.67137688e-08,6.00000000e-09,5.99947021e-09,6.00000000e-09,5.29934574e-16,6.00000000e-09,-1.57567467e-16,6.00000000e-09,1.27105222e-17,6.00000000e-09,9.76384278e-17,6.00000000e-09,1.46113244e-16,6.00000000e-09,-7.79733152e-18,6.00000000e-09,1.16874918e-08,6.00000000e-09,6.47099350e-01,6.00000000e-09,4.98344184e-02,6.00000000e-09,3.81908354e-01,6.00000000e-09,3.81908352e-01,6.00000000e-09,8.55615571e+07,6.00000000e-09,1.82501338e+08,6.00000000e-09,2.90459901e+07,6.00000000e-09,1.61203849e+01,0.840,0.150,sky130
6.25000000e-09,1.00428947e-07,6.25000000e-09,6.24946664e-09,6.25000000e-09,5.31290355e-16,6.25000000e-09,-1.59784973e-16,6.25000000e-09,1.28945172e-17,6.25000000e-09,9.89751453e-17,6.25000000e-09,1.48115554e-16,6.25000000e-09,-7.90877884e-18,6.25000000e-09,1.21323345e-08,6.25000000e-09,6.46824773e-01,6.25000000e-09,4.98833517e-02,6.25000000e-09,3.84171410e-01,6.25000000e-09,3.84171408e-01,6.25000000e-09,8.24243674e+07,6.25000000e-09,1.89028365e+08,6.25000000e-09,3.00847986e+07,6.25000000e-09,1.60700029e+01,0.840,0.150,sky130
6.50000000e-09,1.04141383e-07,6.50000000e-09,6.49946375e-09,6.50000000e-09,5.32612033e-16,6.50000000e-09,-1.61942282e-16,6.50000000e-09,1.30735420e-17,6.50000000e-09,1.00274974e-16,6.50000000e-09,1.50062629e-16,6.50000000e-09,-8.01715937e-18,6.50000000e-09,1.25767188e-08,6.50000000e-09,6.46560158e-01,6.50000000e-09,4.99321860e-02,6.50000000e-09,3.86352365e-01,6.50000000e-09,3.86352363e-01,6.50000000e-09,7.95119951e+07,6.50000000e-09,1.95529536e+08,6.50000000e-09,3.11194921e+07,6.50000000e-09,1.60230732e+01,0.840,0.150,sky130
6.75000000e-09,1.07851545e-07,6.75000000e-09,6.74946099e-09,6.75000000e-09,5.33901475e-16,6.75000000e-09,-1.64042901e-16,6.75000000e-09,1.32478859e-17,6.75000000e-09,1.01540083e-16,6.75000000e-09,1.51957715e-16,6.75000000e-09,-8.12265359e-18,6.75000000e-09,1.30207068e-08,6.75000000e-09,6.46304801e-01,6.75000000e-09,4.99809220e-02,6.75000000e-09,3.88457015e-01,6.75000000e-09,3.88457013e-01,6.75000000e-09,7.68007461e+07,6.75000000e-09,2.02006456e+08,6.75000000e-09,3.21503259e+07,6.75000000e-09,1.59792826e+01,0.840,0.150,sky130
7.00000000e-09,1.11559851e-07,7.00000000e-09,6.99945848e-09,7.00000000e-09,5.35160389e-16,7.00000000e-09,-1.66090023e-16,7.00000000e-09,1.34178120e-17,7.00000000e-09,1.02772442e-16,7.00000000e-09,1.53803763e-16,7.00000000e-09,-8.22542553e-18,7.00000000e-09,1.34643553e-08,7.00000000e-09,6.46058071e-01,7.00000000e-09,5.00295607e-02,7.00000000e-09,3.90490562e-01,7.00000000e-09,3.90490559e-01,7.00000000e-09,7.42701734e+07,7.00000000e-09,2.08460592e+08,7.00000000e-09,3.31775337e+07,7.00000000e-09,1.59383546e+01,0.840,0.150,sky130
7.25000000e-09,1.15266673e-07,7.25000000e-09,7.24945599e-09,7.25000000e-09,5.36390335e-16,7.25000000e-09,-1.68086553e-16,7.25000000e-09,1.35835598e-17,7.25000000e-09,1.03973847e-16,7.25000000e-09,1.55603458e-16,7.25000000e-09,-8.32562447e-18,7.25000000e-09,1.39077137e-08,7.25000000e-09,6.45819400e-01,7.25000000e-09,5.00781029e-02,7.25000000e-09,3.92457681e-01,7.25000000e-09,3.92457678e-01,7.25000000e-09,7.19025445e+07,7.25000000e-09,2.14893269e+08,7.25000000e-09,3.42013260e+07,7.25000000e-09,1.59000445e+01,0.840,0.150,sky130
7.50000000e-09,1.18972348e-07,7.50000000e-09,7.49945417e-09,7.50000000e-09,5.37592751e-16,7.50000000e-09,-1.70035158e-16,7.50000000e-09,1.37453491e-17,7.50000000e-09,1.05145941e-16,7.50000000e-09,1.57359264e-16,7.50000000e-09,-8.42338721e-18,7.50000000e-09,1.43508278e-08,7.50000000e-09,6.45588276e-01,7.50000000e-09,5.01265495e-02,7.50000000e-09,3.94362604e-01,7.50000000e-09,3.94362601e-01,7.50000000e-09,6.96823912e+07,7.50000000e-09,2.21305715e+08,7.50000000e-09,3.52218984e+07,7.50000000e-09,1.58641343e+01,0.840,0.150,sky130
7.75000000e-09,1.22677146e-07,7.75000000e-09,7.74945124e-09,7.75000000e-09,5.38768952e-16,7.75000000e-09,-1.71938262e-16,7.75000000e-09,1.39033799e-17,7.75000000e-09,1.06290222e-16,7.75000000e-09,1.59073420e-16,7.75000000e-09,-8.51883824e-18,7.75000000e-09,1.47937346e-08,7.75000000e-09,6.45364235e-01,7.75000000e-09,5.01749009e-02,7.75000000e-09,3.96209147e-01,7.75000000e-09,3.96209144e-01,7.75000000e-09,6.75961835e+07,7.75000000e-09,2.27698990e+08,7.75000000e-09,3.62394197e+07,7.75000000e-09,1.58304301e+01,0.840,0.150,sky130
8.00000000e-09,1.26381358e-07,8.00000000e-09,7.99944913e-09,8.00000000e-09,5.39920168e-16,8.00000000e-09,-1.73798128e-16,8.00000000e-09,1.40578386e-17,8.00000000e-09,1.07408083e-16,8.00000000e-09,1.60748013e-16,8.00000000e-09,-8.61209341e-18,8.00000000e-09,1.52364732e-08,8.00000000e-09,6.45146852e-01,8.00000000e-09,5.02231582e-02,8.00000000e-09,3.98000808e-01,8.00000000e-09,3.98000806e-01,8.00000000e-09,6.56319861e+07,8.00000000e-09,2.34074157e+08,8.00000000e-09,3.72540591e+07,8.00000000e-09,1.57987576e+01,0.840,0.150,sky130
8.25000000e-09,1.30085209e-07,8.25000000e-09,8.24944712e-09,8.25000000e-09,5.41047526e-16,8.25000000e-09,-1.75616820e-16,8.25000000e-09,1.42088954e-17,8.25000000e-09,1.08500798e-16,8.25000000e-09,1.62384949e-16,8.25000000e-09,-8.70325859e-18,8.25000000e-09,1.56790746e-08,8.25000000e-09,6.44935744e-01,8.25000000e-09,5.02713220e-02,8.25000000e-09,3.99740759e-01,8.25000000e-09,3.99740756e-01,8.25000000e-09,6.37792742e+07,8.25000000e-09,2.40432129e+08,8.25000000e-09,3.82659618e+07,8.25000000e-09,1.57689608e+01,0.840,0.150,sky130
8.50000000e-09,1.33788908e-07,8.50000000e-09,8.49944516e-09,8.50000000e-09,5.42152078e-16,8.50000000e-09,-1.77396256e-16,8.50000000e-09,1.43567084e-17,8.50000000e-09,1.09569546e-16,8.50000000e-09,1.63985995e-16,8.50000000e-09,-8.79243187e-18,8.50000000e-09,1.61215677e-08,8.50000000e-09,6.44730558e-01,8.50000000e-09,5.03193930e-02,8.50000000e-09,4.01431903e-01,8.50000000e-09,4.01431900e-01,8.50000000e-09,6.20287071e+07,8.50000000e-09,2.46773762e+08,8.50000000e-09,3.92752640e+07,8.50000000e-09,1.57408990e+01,0.840,0.150,sky130
8.75000000e-09,1.37492644e-07,8.75000000e-09,8.74944324e-09,8.75000000e-09,5.43234798e-16,8.75000000e-09,-1.79138210e-16,8.75000000e-09,1.45014240e-17,8.75000000e-09,1.10615422e-16,8.75000000e-09,1.65552789e-16,8.75000000e-09,-8.87970416e-18,8.75000000e-09,1.65639785e-08,8.75000000e-09,6.44530969e-01,8.75000000e-09,5.03673718e-02,8.75000000e-09,4.03076908e-01,8.75000000e-09,4.03076905e-01,8.75000000e-09,6.03719691e+07,8.75000000e-09,2.53099846e+08,8.75000000e-09,4.02820916e+07,8.75000000e-09,1.57144449e+01,0.840,0.150,sky130
9.00000000e-09,1.41196585e-07,9.00000000e-09,8.99944114e-09,9.00000000e-09,5.44296599e-16,9.00000000e-09,-1.80844333e-16,9.00000000e-09,1.46431783e-17,9.00000000e-09,1.11639441e-16,9.00000000e-09,1.67086851e-16,9.00000000e-09,-8.96515984e-18,9.00000000e-09,1.70063304e-08,9.00000000e-09,6.44336682e-01,9.00000000e-09,5.04152591e-02,9.00000000e-09,4.04678221e-01,9.00000000e-09,4.04678218e-01,9.00000000e-09,5.88016331e+07,9.00000000e-09,2.59411110e+08,9.00000000e-09,4.12865604e+07,9.00000000e-09,1.56894836e+01,0.840,0.150,sky130
9.25000000e-09,1.44900894e-07,9.25000000e-09,9.24943964e-09,9.25000000e-09,5.45338333e-16,9.25000000e-09,-1.82516166e-16,9.25000000e-09,1.47820983e-17,9.25000000e-09,1.12642552e-16,9.25000000e-09,1.68589601e-16,9.25000000e-09,-9.04887776e-18,9.25000000e-09,1.74486460e-08,9.25000000e-09,6.44147421e-01,9.25000000e-09,5.04630556e-02,9.25000000e-09,4.06238106e-01,9.25000000e-09,4.06238103e-01,9.25000000e-09,5.73110371e+07,9.25000000e-09,2.65708250e+08,9.25000000e-09,4.22887814e+07,9.25000000e-09,1.56659105e+01,0.840,0.150,sky130
9.50000000e-09,1.48605703e-07,9.50000000e-09,9.49943828e-09,9.50000000e-09,5.46360795e-16,9.50000000e-09,-1.84155142e-16,9.50000000e-09,1.49183022e-17,9.50000000e-09,1.13625635e-16,9.50000000e-09,1.70062359e-16,9.50000000e-09,-9.13093104e-18,9.50000000e-09,1.78909440e-08,9.50000000e-09,6.43962934e-01,9.50000000e-09,5.05107618e-02,9.50000000e-09,4.07758646e-01,9.50000000e-09,4.07758643e-01,9.50000000e-09,5.58941997e+07,9.50000000e-09,2.71991886e+08,9.50000000e-09,4.32888531e+07,9.50000000e-09,1.56436306e+01,0.840,0.150,sky130
9.75000000e-09,1.52311129e-07,9.75000000e-09,9.74943660e-09,9.75000000e-09,5.47364730e-16,9.75000000e-09,-1.85762597e-16,9.75000000e-09,1.50519002e-17,9.75000000e-09,1.14589513e-16,9.75000000e-09,1.71506354e-16,9.75000000e-09,-9.21138802e-18,9.75000000e-09,1.83332411e-08,9.75000000e-09,6.43782986e-01,9.75000000e-09,5.05583783e-02,9.75000000e-09,4.09241771e-01,9.75000000e-09,4.09241767e-01,9.75000000e-09,5.45457289e+07,9.75000000e-09,2.78262593e+08,9.75000000e-09,4.42868672e+07,9.75000000e-09,1.56225570e+01,0.840,0.150,sky130
1.00000000e-08,1.56034231e-07,1.00000000e-08,1.00005776e-08,1.00000000e-08,5.48355307e-16,1.00000000e-08,-1.87346930e-16,1.00000000e-08,1.51835896e-17,1.00000000e-08,1.15539238e-16,1.00000000e-08,1.72929156e-16,1.00000000e-08,-9.29067020e-18,1.00000000e-08,1.87775756e-08,1.00000000e-08,6.43606568e-01,1.00000000e-08,5.06061226e-02,1.00000000e-08,4.10695809e-01,1.00000000e-08,4.10695806e-01,1.00000000e-08,5.32550113e+07,1.00000000e-08,2.84549504e+08,1.00000000e-08,4.52874602e+07,1.00000000e-08,1.56025219e+01,0.840,0.150,sky130
