isweep,gm,i_id,id,i_cgg,cgg,i_cgs,cgs,i_cgd,cgd,i_cds,cds,i_css,css,i_cdd,cdd,i_gds,gds,i_vth,vth,i_vdsat,vdsat,i_vgs,vgs,i_vds,vds,i_rds,rds,i_wt,wt,i_ft,ft,i_kgm,kgm,W,L,pdk
1.00000000e-09,2.79165169e-08,1.00000000e-09,9.99267958e-10,1.00000000e-09,7.53303291e-16,1.00000000e-09,-2.71052854e-16,1.00000000e-09,2.74059595e-19,1.00000000e-09,1.33106998e-16,1.00000000e-09,1.99474342e-16,1.00000000e-09,-1.04689458e-19,1.00000000e-09,4.21672626e-10,1.00000000e-09,1.00210244e+00,1.00000000e-09,3.65899884e-02,1.00000000e-09,7.31578669e-01,1.00000000e-09,7.31578668e-01,1.00000000e-09,2.37150798e+09,1.00000000e-09,3.70588013e+07,1.00000000e-09,5.89809141e+06,1.00000000e-09,2.79369680e+01,1.0,.300,sky130
1.50000000e-09,4.04752281e-08,1.50000000e-09,1.50390912e-09,1.50000000e-09,7.74467612e-16,1.50000000e-09,-3.01966883e-16,1.50000000e-09,3.07658504e-19,1.50000000e-09,1.47754265e-16,1.50000000e-09,2.21430621e-16,1.50000000e-09,-1.18604634e-19,1.50000000e-09,6.27429698e-10,1.50000000e-09,1.00208056e+00,1.50000000e-09,3.66769715e-02,1.50000000e-09,7.46258216e-01,1.50000000e-09,7.46258216e-01,1.50000000e-09,1.59380406e+09,1.50000000e-09,5.22620023e+07,1.50000000e-09,8.31775600e+06,1.50000000e-09,2.69133471e+01,1.0,.300,sky130
2.00000000e-09,5.25403610e-08,2.00000000e-09,2.00957288e-09,2.00000000e-09,7.91396317e-16,2.00000000e-09,-3.26308414e-16,2.00000000e-09,3.34179584e-19,2.00000000e-09,1.59242591e-16,2.00000000e-09,2.38651910e-16,2.00000000e-09,-1.29563224e-19,2.00000000e-09,8.31098128e-10,2.00000000e-09,1.00206452e+00,2.00000000e-09,3.67633723e-02,2.00000000e-09,7.57015406e-01,2.00000000e-09,7.57015406e-01,2.00000000e-09,1.20322735e+09,2.00000000e-09,6.63894434e+07,2.00000000e-09,1.05662081e+07,2.00000000e-09,2.61450389e+01,1.0,.300,sky130
2.50000000e-09,6.39592318e-08,2.50000000e-09,2.50366061e-09,2.50000000e-09,8.05413375e-16,2.50000000e-09,-3.46252027e-16,2.50000000e-09,3.55946735e-19,2.50000000e-09,1.68627611e-16,2.50000000e-09,2.52720448e-16,2.50000000e-09,-1.38539530e-19,2.50000000e-09,1.02817163e-09,2.50000000e-09,1.00205204e+00,2.50000000e-09,3.68471717e-02,2.50000000e-09,7.65387551e-01,2.50000000e-09,7.65387550e-01,2.50000000e-09,9.72600270e+08,2.50000000e-09,7.94116833e+07,2.50000000e-09,1.26387619e+07,2.50000000e-09,2.55462867e+01,1.0,.300,sky130
3.00000000e-09,7.51611249e-08,3.00000000e-09,3.00077729e-09,3.00000000e-09,8.17783090e-16,3.00000000e-09,-3.63715294e-16,3.00000000e-09,3.75031946e-19,3.00000000e-09,1.76825929e-16,3.00000000e-09,2.65010181e-16,3.00000000e-09,-1.46395880e-19,3.00000000e-09,1.22482569e-09,3.00000000e-09,1.00204153e+00,3.00000000e-09,3.69309304e-02,3.00000000e-09,7.72433381e-01,3.00000000e-09,7.72433380e-01,3.00000000e-09,8.16442708e+08,3.00000000e-09,9.19083872e+07,3.00000000e-09,1.46276741e+07,3.00000000e-09,2.50472187e+01,1.0,.300,sky130
3.50000000e-09,8.61798344e-08,3.50000000e-09,3.50010816e-09,3.50000000e-09,8.28911474e-16,3.50000000e-09,-3.79329242e-16,3.50000000e-09,3.92114328e-19,3.50000000e-09,1.84141211e-16,3.50000000e-09,2.75976278e-16,3.50000000e-09,-1.53416283e-19,3.50000000e-09,1.42091882e-09,3.50000000e-09,1.00203244e+00,3.50000000e-09,3.70145497e-02,3.50000000e-09,7.78531479e-01,3.50000000e-09,7.78531478e-01,3.50000000e-09,7.03769971e+08,3.50000000e-09,1.03967477e+08,3.50000000e-09,1.65469378e+07,3.50000000e-09,2.46220490e+01,1.0,.300,sky130
4.00000000e-09,9.70139608e-08,4.00000000e-09,3.99979062e-09,4.00000000e-09,8.39037682e-16,4.00000000e-09,-3.93465074e-16,4.00000000e-09,4.07593337e-19,4.00000000e-09,1.90752265e-16,4.00000000e-09,2.85886755e-16,4.00000000e-09,-1.59768097e-19,4.00000000e-09,1.61586085e-09,4.00000000e-09,1.00202443e+00,4.00000000e-09,3.70977489e-02,4.00000000e-09,7.83903194e-01,4.00000000e-09,7.83903193e-01,4.00000000e-09,6.18865170e+08,4.00000000e-09,1.15625273e+08,4.00000000e-09,1.84023337e+07,4.00000000e-09,2.42547598e+01,1.0,.300,sky130
4.50000000e-09,1.07689592e-07,4.50000000e-09,4.49959146e-09,4.50000000e-09,8.48353716e-16,4.50000000e-09,-4.06414420e-16,4.50000000e-09,4.21783813e-19,4.50000000e-09,1.96798911e-16,4.50000000e-09,2.94951192e-16,4.50000000e-09,-1.65582908e-19,4.50000000e-09,1.80967590e-09,4.50000000e-09,1.00201726e+00,4.50000000e-09,3.71805165e-02,4.50000000e-09,7.88709791e-01,4.50000000e-09,7.88709789e-01,4.50000000e-09,5.52585134e+08,4.50000000e-09,1.26939495e+08,4.50000000e-09,2.02030481e+07,4.50000000e-09,2.39331933e+01,1.0,.300,sky130
5.00000000e-09,1.18230202e-07,5.00000000e-09,4.99946985e-09,5.00000000e-09,8.57000084e-16,5.00000000e-09,-4.18388827e-16,5.00000000e-09,4.34914441e-19,5.00000000e-09,2.02382409e-16,5.00000000e-09,3.03321374e-16,5.00000000e-09,-1.70956251e-19,5.00000000e-09,2.00244013e-09,5.00000000e-09,1.00201077e+00,5.00000000e-09,3.72628678e-02,5.00000000e-09,7.93064400e-01,5.00000000e-09,7.93064399e-01,5.00000000e-09,4.99390710e+08,5.00000000e-09,1.37958216e+08,5.00000000e-09,2.19567320e+07,5.00000000e-09,2.36485479e+01,1.0,.300,sky130
5.50000000e-09,1.28654511e-07,5.50000000e-09,5.49939372e-09,5.50000000e-09,8.65081356e-16,5.50000000e-09,-4.29544762e-16,5.50000000e-09,4.47154515e-19,5.50000000e-09,2.07577571e-16,5.50000000e-09,3.11109441e-16,5.50000000e-09,-1.75958837e-19,5.50000000e-09,2.19421617e-09,5.50000000e-09,1.00200483e+00,5.50000000e-09,3.73448164e-02,5.50000000e-09,7.97048651e-01,5.50000000e-09,7.97048650e-01,5.50000000e-09,4.55743611e+08,5.50000000e-09,1.48719552e+08,5.50000000e-09,2.36694518e+07,5.50000000e-09,2.33943082e+01,1.0,.300,sky130
6.00000000e-09,1.38977793e-07,6.00000000e-09,5.99934100e-09,6.00000000e-09,8.72677829e-16,6.00000000e-09,-4.40001714e-16,6.00000000e-09,4.58633433e-19,6.00000000e-09,2.12441475e-16,6.00000000e-09,3.18400949e-16,6.00000000e-09,-1.80644702e-19,6.00000000e-09,2.38505796e-09,6.00000000e-09,1.00199935e+00,6.00000000e-09,3.74263746e-02,6.00000000e-09,8.00723490e-01,6.00000000e-09,8.00723488e-01,6.00000000e-09,4.19277022e+08,6.00000000e-09,1.59254410e+08,6.00000000e-09,2.53461266e+07,6.00000000e-09,2.31655099e+01,1.0,.300,sky130
6.50000000e-09,1.49212840e-07,6.50000000e-09,6.49930401e-09,6.50000000e-09,8.79852810e-16,6.50000000e-09,-4.49853422e-16,6.50000000e-09,4.69452782e-19,6.50000000e-09,2.17018850e-16,6.50000000e-09,3.25262947e-16,6.50000000e-09,-1.85056260e-19,6.50000000e-09,2.57501542e-09,6.50000000e-09,1.00199426e+00,6.50000000e-09,3.75075552e-02,6.50000000e-09,8.04135729e-01,6.50000000e-09,8.04135727e-01,6.50000000e-09,3.88347189e+08,6.50000000e-09,1.69588411e+08,6.50000000e-09,2.69908339e+07,6.50000000e-09,2.29582798e+01,1.0,.300,sky130
7.00000000e-09,1.59370348e-07,7.00000000e-09,6.99927802e-09,7.00000000e-09,8.86657136e-16,7.00000000e-09,-4.59174830e-16,7.00000000e-09,4.79693843e-19,7.00000000e-09,2.21345428e-16,7.00000000e-09,3.31748996e-16,7.00000000e-09,-1.89227437e-19,7.00000000e-09,2.76413206e-09,7.00000000e-09,1.00198951e+00,7.00000000e-09,3.75883696e-02,7.00000000e-09,8.07322094e-01,7.00000000e-09,8.07322092e-01,7.00000000e-09,3.61777215e+08,7.00000000e-09,1.79742926e+08,7.00000000e-09,2.86069751e+07,7.00000000e-09,2.27695410e+01,1.0,.300,sky130
7.50000000e-09,1.69459322e-07,7.50000000e-09,7.49925887e-09,7.50000000e-09,8.93132326e-16,7.50000000e-09,-4.68026905e-16,7.50000000e-09,4.89422779e-19,7.50000000e-09,2.25450255e-16,7.50000000e-09,3.37902633e-16,7.50000000e-09,-1.93185846e-19,7.50000000e-09,2.95244571e-09,7.50000000e-09,1.00198506e+00,7.50000000e-09,3.76688281e-02,7.50000000e-09,8.10311946e-01,7.50000000e-09,8.10311944e-01,7.50000000e-09,3.38702248e+08,7.50000000e-09,1.89735963e+08,7.50000000e-09,3.01974164e+07,7.50000000e-09,2.25968092e+01,1.0,.300,sky130
8.00000000e-09,1.79487390e-07,8.00000000e-09,7.99924164e-09,8.00000000e-09,8.99312782e-16,8.00000000e-09,-4.76459990e-16,8.00000000e-09,4.98694257e-19,8.00000000e-09,2.29357293e-16,8.00000000e-09,3.43759781e-16,8.00000000e-09,-1.96954296e-19,8.00000000e-09,3.13998911e-09,8.00000000e-09,1.00198086e+00,8.00000000e-09,3.77489398e-02,8.00000000e-09,8.13129141e-01,8.00000000e-09,8.13129139e-01,8.00000000e-09,3.18472443e+08,8.00000000e-09,1.99582830e+08,8.00000000e-09,3.17645940e+07,8.00000000e-09,2.24380508e+01,1.0,.300,sky130
8.50000000e-09,1.89461253e-07,8.50000000e-09,8.49923023e-09,8.50000000e-09,9.05227495e-16,8.50000000e-09,-4.84516354e-16,8.50000000e-09,5.07554202e-19,8.50000000e-09,2.33086649e-16,8.50000000e-09,3.49350576e-16,8.50000000e-09,-2.00551945e-19,8.50000000e-09,3.32679434e-09,8.50000000e-09,1.00197688e+00,8.50000000e-09,3.78287144e-02,8.50000000e-09,8.15793385e-01,8.50000000e-09,8.15793383e-01,8.50000000e-09,3.00589666e+08,8.50000000e-09,2.09296838e+08,8.50000000e-09,3.33106264e+07,8.50000000e-09,2.22915779e+01,1.0,.300,sky130
9.00000000e-09,1.99386532e-07,9.00000000e-09,8.99921998e-09,9.00000000e-09,9.10900988e-16,9.00000000e-09,-4.92231651e-16,9.00000000e-09,5.16041374e-19,9.00000000e-09,2.36655271e-16,9.00000000e-09,3.54700425e-16,9.00000000e-09,-2.03994957e-19,9.00000000e-09,3.51288705e-09,9.00000000e-09,1.00197311e+00,9.00000000e-09,3.79081593e-02,9.00000000e-09,8.18321081e-01,9.00000000e-09,8.18321078e-01,9.00000000e-09,2.84666141e+08,9.00000000e-09,2.18889357e+08,9.00000000e-09,3.48373232e+07,9.00000000e-09,2.21559793e+01,1.0,.300,sky130
9.50000000e-09,2.09268202e-07,9.50000000e-09,9.49921152e-09,9.50000000e-09,9.16354346e-16,9.50000000e-09,-4.99636449e-16,9.50000000e-09,5.24189021e-19,9.50000000e-09,2.40077678e-16,9.50000000e-09,3.59831092e-16,9.50000000e-09,-2.07297195e-19,9.50000000e-09,3.69829210e-09,9.50000000e-09,1.00196953e+00,9.50000000e-09,3.79872822e-02,9.50000000e-09,8.20726091e-01,9.50000000e-09,8.20726088e-01,9.50000000e-09,2.70395083e+08,9.50000000e-09,2.28370393e+08,9.50000000e-09,3.63462769e+07,9.50000000e-09,2.20300603e+01,1.0,.300,sky130
1.00000000e-08,2.19110067e-07,1.00000000e-08,9.99917774e-09,1.00000000e-08,9.21605529e-16,1.00000000e-08,-5.06756738e-16,1.00000000e-08,5.32025420e-19,1.00000000e-08,2.43366214e-16,1.00000000e-08,3.64761080e-16,1.00000000e-08,-2.10470453e-19,1.00000000e-08,3.88302181e-09,1.00000000e-08,1.00196611e+00,1.00000000e-08,3.80660859e-02,1.00000000e-08,8.23020098e-01,1.00000000e-08,8.23020095e-01,1.00000000e-08,2.57531389e+08,1.00000000e-08,2.37748213e+08,1.00000000e-08,3.78388033e+07,1.00000000e-08,2.19128085e+01,1.0,.300,sky130
1.50000000e-08,3.16912079e-07,1.50000000e-08,1.50450984e-08,1.50000000e-08,9.66106811e-16,1.50000000e-08,-5.66742931e-16,1.50000000e-08,5.98104986e-19,1.50000000e-08,2.70981424e-16,1.50000000e-08,4.06160713e-16,1.50000000e-08,-2.37114825e-19,1.50000000e-08,5.71399837e-09,1.50000000e-08,1.00193824e+00,1.50000000e-08,3.88450716e-02,1.50000000e-08,8.41712329e-01,1.50000000e-08,8.41712325e-01,1.50000000e-08,1.75008800e+08,1.50000000e-08,3.28030063e+08,1.50000000e-08,5.22076061e+07,1.50000000e-08,2.10641413e+01,1.0,.300,sky130
2.00000000e-08,4.13478814e-07,2.00000000e-08,2.01074766e-08,2.00000000e-08,1.00046893e-15,2.00000000e-08,-6.12686704e-16,2.00000000e-08,6.48771796e-19,2.00000000e-08,2.92028099e-16,2.00000000e-08,4.37713601e-16,2.00000000e-08,-2.57400447e-19,2.00000000e-08,7.49847884e-09,2.00000000e-08,1.00191782e+00,2.00000000e-08,3.95998931e-02,2.00000000e-08,8.55405182e-01,2.00000000e-08,8.55405176e-01,2.00000000e-08,1.33360382e+08,2.00000000e-08,4.13285012e+08,2.00000000e-08,6.57763525e+07,2.00000000e-08,2.05634363e+01,1.0,.300,sky130
2.50000000e-08,5.07078322e-07,2.50000000e-08,2.50491681e-08,2.50000000e-08,1.02789773e-15,2.50000000e-08,-6.49162821e-16,2.50000000e-08,6.89019947e-19,2.50000000e-08,3.08676351e-16,2.50000000e-08,4.62672752e-16,2.50000000e-08,-2.73420384e-19,2.50000000e-08,9.19763010e-09,2.50000000e-08,1.00190205e+00,2.50000000e-08,4.03141517e-02,2.50000000e-08,8.65985903e-01,2.50000000e-08,8.65985896e-01,2.50000000e-08,1.08723659e+08,2.50000000e-08,4.93315929e+08,2.50000000e-08,7.85136685e+07,2.50000000e-08,2.02433198e+01,1.0,.300,sky130
3.00000000e-08,6.00867361e-07,3.00000000e-08,3.00175227e-08,3.00000000e-08,1.05128753e-15,3.00000000e-08,-6.80145437e-16,3.00000000e-08,7.23215461e-19,3.00000000e-08,3.22775944e-16,3.00000000e-08,4.83811160e-16,3.00000000e-08,-2.86962406e-19,3.00000000e-08,1.08685546e-08,3.00000000e-08,1.00188888e+00,3.00000000e-08,4.10121523e-02,3.00000000e-08,8.74815739e-01,3.00000000e-08,8.74815731e-01,3.00000000e-08,9.20085548e+07,3.00000000e-08,5.71553778e+08,3.00000000e-08,9.09656089e+07,3.00000000e-08,2.00172202e+01,1.0,.300,sky130
3.50000000e-08,6.94946594e-07,3.50000000e-08,3.50098406e-08,3.50000000e-08,1.07167996e-15,3.50000000e-08,-7.07074277e-16,3.50000000e-08,7.52939522e-19,3.50000000e-08,3.35000561e-16,3.50000000e-08,5.02138724e-16,3.50000000e-08,-2.98680166e-19,3.50000000e-08,1.25136579e-08,3.50000000e-08,1.00187758e+00,3.50000000e-08,4.16950883e-02,3.50000000e-08,8.82397649e-01,3.50000000e-08,8.82397639e-01,3.50000000e-08,7.99126852e+07,3.50000000e-08,6.48464673e+08,3.50000000e-08,1.03206358e+08,3.50000000e-08,1.98500360e+01,1.0,.300,sky130
4.00000000e-08,7.89009940e-07,4.00000000e-08,4.00062505e-08,4.00000000e-08,1.08969180e-15,4.00000000e-08,-7.30799774e-16,4.00000000e-08,7.79127162e-19,4.00000000e-08,3.45748098e-16,4.00000000e-08,5.18251923e-16,4.00000000e-08,-3.08961033e-19,4.00000000e-08,1.41291910e-08,4.00000000e-08,1.00186771e+00,4.00000000e-08,4.23616465e-02,4.00000000e-08,8.89021577e-01,4.00000000e-08,8.89021565e-01,4.00000000e-08,7.07754607e+07,4.00000000e-08,7.24067063e+08,4.00000000e-08,1.15238852e+08,4.00000000e-08,1.97221666e+01,1.0,.300,sky130
4.50000000e-08,8.83030237e-07,4.50000000e-08,4.50039162e-08,4.50000000e-08,1.10580558e-15,4.50000000e-08,-7.51980707e-16,4.50000000e-08,8.02503861e-19,4.50000000e-08,3.55325060e-16,4.50000000e-08,5.32610239e-16,4.50000000e-08,-3.18103356e-19,4.50000000e-08,1.57167199e-08,4.50000000e-08,1.00185894e+00,4.50000000e-08,4.30127426e-02,4.50000000e-08,8.94900806e-01,4.50000000e-08,8.94900793e-01,4.50000000e-08,6.36265077e+07,4.50000000e-08,7.98540223e+08,4.50000000e-08,1.27091624e+08,4.50000000e-08,1.96211866e+01,1.0,.300,sky130
5.00000000e-08,9.77004618e-07,5.00000000e-08,5.00024736e-08,5.00000000e-08,1.12037481e-15,5.00000000e-08,-7.71097263e-16,5.00000000e-08,8.23598943e-19,5.00000000e-08,3.63954245e-16,5.00000000e-08,5.45547676e-16,5.00000000e-08,-3.26324118e-19,5.00000000e-08,1.72782420e-08,5.00000000e-08,1.00185106e+00,5.00000000e-08,4.36494560e-02,5.00000000e-08,9.00186268e-01,5.00000000e-08,9.00186253e-01,5.00000000e-08,5.78762585e+07,5.00000000e-08,8.72033727e+08,5.00000000e-08,1.38788478e+08,5.00000000e-08,1.95391257e+01,1.0,.300,sky130
5.50000000e-08,1.07091849e-06,5.50000000e-08,5.50015508e-08,5.50000000e-08,1.13366197e-15,5.50000000e-08,-7.88504724e-16,5.50000000e-08,8.42804345e-19,5.50000000e-08,3.71800169e-16,5.50000000e-08,5.57310862e-16,5.50000000e-08,-3.33783623e-19,5.50000000e-08,1.88154579e-08,5.50000000e-08,1.00184390e+00,5.50000000e-08,4.42727242e-02,5.50000000e-08,9.04987129e-01,5.50000000e-08,9.04987113e-01,5.50000000e-08,5.31477896e+07,5.50000000e-08,9.44654156e+08,5.50000000e-08,1.50346378e+08,5.50000000e-08,1.94706962e+01,1.0,.300,sky130
6.00000000e-08,1.16475438e-06,6.00000000e-08,6.00009337e-08,6.00000000e-08,1.14586800e-15,6.00000000e-08,-8.04474181e-16,6.00000000e-08,8.60419314e-19,6.00000000e-08,3.78988126e-16,6.00000000e-08,5.68087631e-16,6.00000000e-08,-3.40603992e-19,6.00000000e-08,2.03298868e-08,6.00000000e-08,1.00183735e+00,6.00000000e-08,4.48833903e-02,6.00000000e-08,9.09385083e-01,6.00000000e-08,9.09385065e-01,6.00000000e-08,4.91886654e+07,6.00000000e-08,1.01648216e+09,6.00000000e-08,1.61778160e+08,6.00000000e-08,1.94122709e+01,1.0,.300,sky130
6.50000000e-08,1.25849391e-06,6.50000000e-08,6.50005018e-08,6.50000000e-08,1.15715021e-15,6.50000000e-08,-8.19217271e-16,6.50000000e-08,8.76677599e-19,6.50000000e-08,3.85615771e-16,6.50000000e-08,5.78024381e-16,6.50000000e-08,-3.46880416e-19,6.50000000e-08,2.18228896e-08,6.50000000e-08,1.00183130e+00,6.50000000e-08,4.54822135e-02,6.50000000e-08,9.13442852e-01,6.50000000e-08,9.13442833e-01,6.50000000e-08,4.58234458e+07,6.50000000e-08,1.08758042e+09,6.50000000e-08,1.73093799e+08,6.50000000e-08,1.93612953e+01,1.0,.300,sky130
7.00000000e-08,1.35211890e-06,7.00000000e-08,7.00001926e-08,7.00000000e-08,1.16763409e-15,7.00000000e-08,-8.32902420e-16,7.00000000e-08,8.91765299e-19,7.00000000e-08,3.91760696e-16,7.00000000e-08,5.87237437e-16,7.00000000e-08,-3.52688528e-19,7.00000000e-08,2.32956905e-08,7.00000000e-08,1.00182568e+00,7.00000000e-08,4.60698796e-02,7.00000000e-08,9.17209636e-01,7.00000000e-08,9.17209616e-01,7.00000000e-08,4.29263945e+07,7.00000000e-08,1.15799882e+09,7.00000000e-08,1.84301236e+08,7.00000000e-08,1.93159311e+01,1.0,.300,sky130
7.50000000e-08,1.44561166e-06,7.50000000e-08,7.49999644e-08,7.50000000e-08,1.17742133e-15,7.50000000e-08,-8.45665825e-16,7.50000000e-08,9.05832967e-19,7.50000000e-08,3.97485563e-16,7.50000000e-08,5.95820737e-16,7.50000000e-08,-3.58089402e-19,7.50000000e-08,2.47493909e-08,7.50000000e-08,1.00182044e+00,7.50000000e-08,4.66470082e-02,7.50000000e-08,9.20724729e-01,7.50000000e-08,9.20724707e-01,7.50000000e-08,4.04050348e+07,7.50000000e-08,1.22777770e+09,7.50000000e-08,1.95406891e+08,7.50000000e-08,1.92748313e+01,1.0,.300,sky130
8.00000000e-08,1.53895550e-06,8.00000000e-08,7.99997927e-08,8.00000000e-08,1.18659551e-15,8.00000000e-08,-8.57619205e-16,8.00000000e-08,9.19004133e-19,8.00000000e-08,4.02841701e-16,8.00000000e-08,6.03851234e-16,8.00000000e-08,-3.63133055e-19,8.00000000e-08,2.61849880e-08,8.00000000e-08,1.00181553e+00,8.00000000e-08,4.72141619e-02,8.00000000e-08,9.24020004e-01,8.00000000e-08,9.24019981e-01,8.00000000e-08,3.81898208e+07,8.00000000e-08,1.29695037e+09,8.00000000e-08,2.06416063e+08,8.00000000e-08,1.92369936e+01,1.0,.300,sky130
8.50000000e-08,1.63213482e-06,8.50000000e-08,8.49996613e-08,8.50000000e-08,1.19522615e-15,8.50000000e-08,-8.68855322e-16,8.50000000e-08,9.31381397e-19,8.50000000e-08,4.07871682e-16,8.50000000e-08,6.11392748e-16,8.50000000e-08,-3.67860963e-19,8.50000000e-08,2.76033880e-08,8.50000000e-08,1.00181090e+00,8.50000000e-08,4.77718534e-02,8.50000000e-08,9.27121674e-01,8.50000000e-08,9.27121649e-01,8.50000000e-08,3.62274370e+07,8.50000000e-08,1.36554477e+09,8.50000000e-08,2.17333200e+08,8.50000000e-08,1.92016626e+01,1.0,.300,sky130
9.00000000e-08,1.72513522e-06,9.00000000e-08,8.99995583e-08,9.00000000e-08,1.20337169e-15,9.00000000e-08,-8.79452038e-16,9.00000000e-08,9.43050897e-19,9.00000000e-08,4.12611196e-16,9.00000000e-08,6.18498787e-16,9.00000000e-08,-3.72307886e-19,9.00000000e-08,2.90054173e-08,9.00000000e-08,1.00180653e+00,9.00000000e-08,4.83205515e-02,9.00000000e-08,9.30051551e-01,9.00000000e-08,9.30051525e-01,9.00000000e-08,3.44763183e+07,9.00000000e-08,1.43358468e+09,9.00000000e-08,2.28162088e+08,9.00000000e-08,1.91682632e+01,1.0,.300,sky130
9.50000000e-08,1.81794351e-06,9.50000000e-08,9.49994765e-08,9.50000000e-08,1.21108173e-15,9.50000000e-08,-8.89475337e-16,9.50000000e-08,9.54085648e-19,9.50000000e-08,4.17090459e-16,9.50000000e-08,6.25214652e-16,9.50000000e-08,-3.76503244e-19,9.50000000e-08,3.03918334e-08,9.50000000e-08,1.00180240e+00,9.50000000e-08,4.88606861e-02,9.50000000e-08,9.32827980e-01,9.50000000e-08,9.32827953e-01,9.50000000e-08,3.29035760e+07,9.50000000e-08,1.50109070e+09,9.50000000e-08,2.38906005e+08,9.50000000e-08,1.91363530e+01,1.0,.300,sky130
1.00000000e-07,1.91074187e-06,1.00000000e-07,1.00009907e-07,1.00000000e-07,1.21841368e-15,1.00000000e-07,-8.99001069e-16,1.00000000e-07,9.64569472e-19,1.00000000e-07,4.21343956e-16,1.00000000e-07,6.31592038e-16,1.00000000e-07,-3.80480257e-19,1.00000000e-07,3.17661967e-08,1.00000000e-07,1.00179845e+00,1.00000000e-07,4.93937616e-02,1.00000000e-07,9.35471937e-01,1.00000000e-07,9.35471908e-01,1.00000000e-07,3.14800040e+07,1.00000000e-07,1.56822096e+09,1.00000000e-07,2.49590117e+08,1.00000000e-07,1.91055259e+01,1.0,.300,sky130
