isweep,gm,i_id,id,i_cgg,cgg,i_cgs,cgs,i_cgd,cgd,i_cds,cds,i_css,css,i_cdd,cdd,i_gds,gds,i_vth,vth,i_vdsat,vdsat,i_vgs,vgs,i_vds,vds,i_rds,rds,i_wt,wt,i_ft,ft,i_kgm,kgm,W,L,pdk
1.00000000e-09,2.27061118e-08,1.00000000e-09,9.99326332e-10,1.00000000e-09,7.84716798e-16,1.00000000e-09,-2.92230353e-16,1.00000000e-09,1.70641474e-19,1.00000000e-09,1.45414136e-16,1.00000000e-09,2.17814128e-16,1.00000000e-09,4.88267675e-20,1.00000000e-09,3.84516186e-10,1.00000000e-09,8.33888229e-01,1.00000000e-09,5.10881405e-02,1.00000000e-09,5.11069810e-01,1.00000000e-09,5.11069809e-01,1.00000000e-09,2.60067076e+09,1.00000000e-09,2.89354221e+07,1.00000000e-09,4.60521546e+06,1.00000000e-09,2.27214185e+01,1.0,.300,sky130
1.50000000e-09,3.36742743e-08,1.50000000e-09,1.50498155e-09,1.50000000e-09,8.02569287e-16,1.50000000e-09,-3.20638484e-16,1.50000000e-09,2.01547990e-19,1.50000000e-09,1.58865070e-16,1.50000000e-09,2.37974003e-16,1.50000000e-09,3.55576205e-20,1.50000000e-09,5.71437558e-10,1.50000000e-09,8.33861610e-01,1.50000000e-09,5.11791105e-02,1.50000000e-09,5.28923029e-01,1.50000000e-09,5.28923028e-01,1.50000000e-09,1.74997248e+09,1.50000000e-09,4.19580899e+07,1.50000000e-09,6.67783741e+06,1.50000000e-09,2.23752074e+01,1.0,.300,sky130
2.00000000e-09,4.44650800e-08,2.00000000e-09,2.01229432e-09,2.00000000e-09,8.16506576e-16,2.00000000e-09,-3.42328708e-16,2.00000000e-09,2.24998597e-19,2.00000000e-09,1.69095124e-16,2.00000000e-09,2.53306969e-16,2.00000000e-09,2.57042909e-20,2.00000000e-09,7.56666236e-10,2.00000000e-09,8.33842460e-01,2.00000000e-09,5.12696175e-02,2.00000000e-09,5.41767764e-01,2.00000000e-09,5.41767763e-01,2.00000000e-09,1.32158665e+09,2.00000000e-09,5.44577121e+07,2.00000000e-09,8.66721407e+06,2.00000000e-09,2.20967080e+01,1.0,.300,sky130
2.50000000e-09,5.47786267e-08,2.50000000e-09,2.50497560e-09,2.50000000e-09,8.27752957e-16,2.50000000e-09,-3.59576304e-16,2.50000000e-09,2.43577685e-19,2.50000000e-09,1.77206502e-16,2.50000000e-09,2.65464682e-16,2.50000000e-09,1.80079104e-20,2.50000000e-09,9.34824076e-10,2.50000000e-09,8.33827855e-01,2.50000000e-09,5.13569083e-02,2.50000000e-09,5.51563030e-01,2.50000000e-09,5.51563029e-01,2.50000000e-09,1.06971999e+09,2.50000000e-09,6.61775065e+07,2.50000000e-09,1.05324773e+07,2.50000000e-09,2.18679283e+01,1.0,.300,sky130
3.00000000e-09,6.50251532e-08,3.00000000e-09,3.00114690e-09,3.00000000e-09,8.37532781e-16,3.00000000e-09,-3.74415013e-16,3.00000000e-09,2.59523017e-19,3.00000000e-09,1.84169149e-16,3.00000000e-09,2.75900787e-16,3.00000000e-09,1.14707146e-20,3.00000000e-09,1.11280497e-09,3.00000000e-09,8.33815686e-01,3.00000000e-09,5.14442878e-02,3.00000000e-09,5.59725385e-01,3.00000000e-09,5.59725384e-01,3.00000000e-09,8.98630066e+08,3.00000000e-09,7.76389350e+07,3.00000000e-09,1.23566203e+07,3.00000000e-09,2.16667678e+01,1.0,.300,sky130
3.50000000e-09,7.52103026e-08,3.50000000e-09,3.50032308e-09,3.50000000e-09,8.46227850e-16,3.50000000e-09,-3.87496618e-16,3.50000000e-09,2.73555243e-19,3.50000000e-09,1.90295562e-16,3.50000000e-09,2.85083606e-16,3.50000000e-09,5.76492679e-21,3.50000000e-09,1.29059657e-09,3.50000000e-09,8.33805233e-01,3.50000000e-09,5.15317101e-02,3.50000000e-09,5.66735937e-01,3.50000000e-09,5.66735936e-01,3.50000000e-09,7.74835471e+08,3.50000000e-09,8.88771299e+07,3.50000000e-09,1.41452345e+07,3.50000000e-09,2.14866745e+01,1.0,.300,sky130
4.00000000e-09,8.52949333e-08,4.00000000e-09,3.99995202e-09,4.00000000e-09,8.54050627e-16,4.00000000e-09,-3.99184548e-16,4.00000000e-09,2.86075546e-19,4.00000000e-09,1.95760220e-16,4.00000000e-09,2.93274615e-16,4.00000000e-09,7.08174999e-22,4.00000000e-09,1.46741485e-09,4.00000000e-09,8.33796097e-01,4.00000000e-09,5.16187602e-02,4.00000000e-09,5.72863891e-01,4.00000000e-09,5.72863890e-01,4.00000000e-09,6.81470545e+08,4.00000000e-09,9.98710506e+07,4.00000000e-09,1.58949714e+07,4.00000000e-09,2.13239891e+01,1.0,.300,sky130
4.50000000e-09,9.52835770e-08,4.50000000e-09,4.49970727e-09,4.50000000e-09,8.61176404e-16,4.50000000e-09,-4.09769301e-16,4.50000000e-09,2.97402023e-19,4.50000000e-09,2.00701882e-16,4.50000000e-09,3.00681772e-16,4.50000000e-09,-3.84044333e-21,4.50000000e-09,1.64324724e-09,4.50000000e-09,8.33787976e-01,4.50000000e-09,5.17054089e-02,4.50000000e-09,5.78310301e-01,4.50000000e-09,5.78310300e-01,4.50000000e-09,6.08551152e+08,4.50000000e-09,1.10643506e+08,4.50000000e-09,1.76094610e+07,4.50000000e-09,2.11755057e+01,1.0,.300,sky130
5.00000000e-09,1.05184801e-07,5.00000000e-09,4.99955899e-09,5.00000000e-09,8.67733379e-16,5.00000000e-09,-4.19460650e-16,5.00000000e-09,3.07763548e-19,5.00000000e-09,2.05220556e-16,5.00000000e-09,3.07454961e-16,5.00000000e-09,-7.98118617e-21,5.00000000e-09,1.81816507e-09,5.00000000e-09,8.33780662e-01,5.00000000e-09,5.17916734e-02,5.00000000e-09,5.83216145e-01,5.00000000e-09,5.83216143e-01,5.00000000e-09,5.50005065e+08,5.00000000e-09,1.21217880e+08,5.00000000e-09,1.92924248e+07,5.00000000e-09,2.10388159e+01,1.0,.300,sky130
5.50000000e-09,1.15005439e-07,5.50000000e-09,5.49946592e-09,5.50000000e-09,8.73815923e-16,5.50000000e-09,-4.28411735e-16,5.50000000e-09,3.17326802e-19,5.50000000e-09,2.09389167e-16,5.50000000e-09,3.13703475e-16,5.50000000e-09,-1.17865212e-20,5.50000000e-09,1.99222032e-09,5.50000000e-09,8.33774003e-01,5.50000000e-09,5.18775651e-02,5.50000000e-09,5.87682290e-01,5.50000000e-09,5.87682288e-01,5.50000000e-09,5.01952516e+08,5.50000000e-09,1.31612891e+08,5.50000000e-09,2.09468421e+07,5.50000000e-09,2.09121106e+01,1.0,.300,sky130
6.00000000e-09,1.24751496e-07,6.00000000e-09,5.99940283e-09,6.00000000e-09,8.79495958e-16,6.00000000e-09,-4.36738402e-16,6.00000000e-09,3.26217600e-19,6.00000000e-09,2.13262815e-16,6.00000000e-09,3.19509895e-16,6.00000000e-09,-1.53107833e-20,6.00000000e-09,2.16545929e-09,6.00000000e-09,8.33767888e-01,6.00000000e-09,5.19630952e-02,6.00000000e-09,5.91783625e-01,6.00000000e-09,5.91783623e-01,6.00000000e-09,4.61795797e+08,6.00000000e-09,1.41844308e+08,6.00000000e-09,2.25752228e+07,6.00000000e-09,2.07939855e+01,1.0,.300,sky130
6.50000000e-09,1.34428331e-07,6.50000000e-09,6.49935784e-09,6.50000000e-09,8.84829691e-16,6.50000000e-09,-4.44530581e-16,6.50000000e-09,3.34533443e-19,6.50000000e-09,2.16884231e-16,6.50000000e-09,3.24938264e-16,6.50000000e-09,-1.85958303e-20,6.50000000e-09,2.33792448e-09,6.50000000e-09,8.33762232e-01,6.50000000e-09,5.20482753e-02,6.50000000e-09,5.95577316e-01,6.50000000e-09,5.95577314e-01,6.50000000e-09,4.27729813e+08,6.50000000e-09,1.51925656e+08,6.50000000e-09,2.41797191e+07,6.50000000e-09,2.06833251e+01,1.0,.300,sky130
7.00000000e-09,1.44040709e-07,7.00000000e-09,6.99932563e-09,7.00000000e-09,8.89861924e-16,7.00000000e-09,-4.51859541e-16,7.00000000e-09,3.42351479e-19,7.00000000e-09,2.20287245e-16,7.00000000e-09,3.30039287e-16,7.00000000e-09,-2.16746105e-20,7.00000000e-09,2.50965401e-09,7.00000000e-09,8.33756968e-01,7.00000000e-09,5.21331159e-02,7.00000000e-09,5.99107981e-01,7.00000000e-09,5.99107979e-01,7.00000000e-09,3.98461301e+08,7.00000000e-09,1.61868606e+08,7.00000000e-09,2.57621887e+07,7.00000000e-09,2.05792267e+01,1.0,.300,sky130
7.50000000e-09,1.53592832e-07,7.50000000e-09,7.49930247e-09,7.50000000e-09,8.94628963e-16,7.50000000e-09,-4.58782742e-16,7.50000000e-09,3.49733827e-19,7.50000000e-09,2.23499112e-16,7.50000000e-09,3.34853809e-16,7.50000000e-09,-2.45735325e-20,7.50000000e-09,2.68068132e-09,7.50000000e-09,8.33752043e-01,7.50000000e-09,5.22176269e-02,7.50000000e-09,6.02411106e-01,7.50000000e-09,6.02411104e-01,7.50000000e-09,3.73039492e+08,7.50000000e-09,1.71683276e+08,7.50000000e-09,2.73242421e+07,7.50000000e-09,2.04809490e+01,1.0,.300,sky130
8.00000000e-09,1.63088399e-07,8.00000000e-09,7.99928384e-09,8.00000000e-09,8.99160662e-16,8.00000000e-09,-4.65347213e-16,8.00000000e-09,3.56731270e-19,8.00000000e-09,2.26542118e-16,8.00000000e-09,3.39415234e-16,8.00000000e-09,-2.73140965e-20,8.00000000e-09,2.85103539e-09,8.00000000e-09,8.33747415e-01,8.00000000e-09,5.23018168e-02,8.00000000e-09,6.05515370e-01,8.00000000e-09,6.05515368e-01,8.00000000e-09,3.50749767e+08,8.00000000e-09,1.81378485e+08,8.00000000e-09,2.88672824e+07,8.00000000e-09,2.03878750e+01,1.0,.300,sky130
8.50000000e-09,1.72530793e-07,8.50000000e-09,8.49927003e-09,8.50000000e-09,9.03481936e-16,8.50000000e-09,-4.71592032e-16,8.50000000e-09,3.63385964e-19,8.50000000e-09,2.29434770e-16,8.50000000e-09,3.43751300e-16,8.50000000e-09,-2.99140815e-20,8.50000000e-09,3.02074338e-09,8.50000000e-09,8.33743048e-01,8.50000000e-09,5.23856939e-02,8.50000000e-09,6.08444323e-01,8.50000000e-09,6.08444321e-01,8.50000000e-09,3.31044341e+08,8.50000000e-09,1.90962083e+08,8.50000000e-09,3.03925595e+07,8.50000000e-09,2.02994836e+01,1.0,.300,sky130
9.00000000e-09,1.81922998e-07,9.00000000e-09,8.99925849e-09,9.00000000e-09,9.07613758e-16,9.00000000e-09,-4.77549975e-16,9.00000000e-09,3.69733232e-19,9.00000000e-09,2.32192579e-16,9.00000000e-09,3.47885255e-16,9.00000000e-09,-3.23883347e-20,9.00000000e-09,3.18982862e-09,9.00000000e-09,8.33738913e-01,9.00000000e-09,5.24692654e-02,9.00000000e-09,6.11217507e-01,9.00000000e-09,6.11217504e-01,9.00000000e-09,3.13496466e+08,9.00000000e-09,2.00440987e+08,9.00000000e-09,3.19011739e+07,9.00000000e-09,2.02153319e+01,1.0,.300,sky130
9.50000000e-09,1.91267751e-07,9.50000000e-09,9.49924928e-09,9.50000000e-09,9.11574007e-16,9.50000000e-09,-4.83248875e-16,9.50000000e-09,3.75803047e-19,9.50000000e-09,2.34828706e-16,9.50000000e-09,3.51836825e-16,9.50000000e-09,-3.47494133e-20,9.50000000e-09,3.35831294e-09,9.50000000e-09,8.33734986e-01,9.50000000e-09,5.25525382e-02,9.50000000e-09,6.13851343e-01,9.50000000e-09,6.13851341e-01,9.50000000e-09,2.97768557e+08,9.50000000e-09,2.09821419e+08,9.50000000e-09,3.33941160e+07,9.50000000e-09,2.01350387e+01,1.0,.300,sky130
1.00000000e-08,2.00566948e-07,1.00000000e-08,9.99921066e-09,1.00000000e-08,9.15377801e-16,1.00000000e-08,-4.88712221e-16,1.00000000e-08,3.81620687e-19,1.00000000e-08,2.37354257e-16,1.00000000e-08,3.55622655e-16,1.00000000e-08,-3.70078882e-20,1.00000000e-08,3.52620551e-09,1.00000000e-08,8.33731247e-01,1.00000000e-08,5.26355135e-02,1.00000000e-08,6.16359605e-01,1.00000000e-08,6.16359602e-01,1.00000000e-08,2.83590959e+08,1.00000000e-08,2.19108382e+08,1.00000000e-08,3.48721820e+07,1.00000000e-08,2.00582781e+01,1.0,.300,sky130
1.50000000e-08,2.92382213e-07,1.50000000e-08,1.50481075e-08,1.50000000e-08,9.47356808e-16,1.50000000e-08,-5.34275815e-16,1.50000000e-08,4.30097534e-19,1.50000000e-08,2.58357010e-16,1.50000000e-08,3.87106549e-16,1.50000000e-08,-5.56656892e-20,1.50000000e-08,5.19251964e-09,1.50000000e-08,8.33700918e-01,1.50000000e-08,5.34582163e-02,1.50000000e-08,6.36701813e-01,1.50000000e-08,6.36701809e-01,1.50000000e-08,1.92584731e+08,1.50000000e-08,3.08629453e+08,1.50000000e-08,4.91199030e+07,1.50000000e-08,1.94298329e+01,1.0,.300,sky130
2.00000000e-08,3.81535228e-07,2.00000000e-08,2.01096724e-08,2.00000000e-08,9.71880289e-16,2.00000000e-08,-5.68827280e-16,2.00000000e-08,4.66818926e-19,2.00000000e-08,2.74214770e-16,2.00000000e-08,4.10878506e-16,2.00000000e-08,-6.96218351e-20,2.00000000e-08,6.81746625e-09,2.00000000e-08,8.33678797e-01,2.00000000e-08,5.42579794e-02,2.00000000e-08,6.51538361e-01,2.00000000e-08,6.51538355e-01,2.00000000e-08,1.46682061e+08,2.00000000e-08,3.92574304e+08,2.00000000e-08,6.24801410e+07,2.00000000e-08,1.89727222e+01,1.0,.300,sky130
2.50000000e-08,4.66513485e-07,2.50000000e-08,2.50473982e-08,2.50000000e-08,9.91484070e-16,2.50000000e-08,-5.96239694e-16,2.50000000e-08,4.95934140e-19,2.50000000e-08,2.86755423e-16,2.50000000e-08,4.29678221e-16,2.50000000e-08,-8.05871892e-20,2.50000000e-08,8.36578334e-09,2.50000000e-08,8.33661689e-01,2.50000000e-08,5.50168812e-02,2.50000000e-08,6.63013147e-01,2.50000000e-08,6.63013140e-01,2.50000000e-08,1.19534532e+08,2.50000000e-08,4.70520403e+08,2.50000000e-08,7.48856480e+07,2.50000000e-08,1.86252273e+01,1.0,.300,sky130
3.00000000e-08,5.50503030e-07,3.00000000e-08,3.00159631e-08,3.00000000e-08,1.00831052e-15,3.00000000e-08,-6.19637439e-16,3.00000000e-08,5.20773833e-19,3.00000000e-08,2.97431859e-16,3.00000000e-08,4.45683519e-16,3.00000000e-08,-8.98756844e-20,3.00000000e-08,9.89167472e-09,3.00000000e-08,8.33647349e-01,3.00000000e-08,5.57613642e-02,3.00000000e-08,6.72631473e-01,3.00000000e-08,6.72631464e-01,3.00000000e-08,1.01095116e+08,3.00000000e-08,5.45965770e+08,3.00000000e-08,8.68931511e+07,3.00000000e-08,1.83403420e+01,1.0,.300,sky130
3.50000000e-08,6.33672420e-07,3.50000000e-08,3.50087761e-08,3.50000000e-08,1.02309039e-15,3.50000000e-08,-6.40098123e-16,3.50000000e-08,5.42487373e-19,3.50000000e-08,3.06747732e-16,3.50000000e-08,4.59649337e-16,3.50000000e-08,-9.79464759e-20,3.50000000e-08,1.13960307e-08,3.50000000e-08,8.33634981e-01,3.50000000e-08,5.64917755e-02,3.50000000e-08,6.80927467e-01,3.50000000e-08,6.80927457e-01,3.50000000e-08,8.77498517e+07,3.50000000e-08,6.19370903e+08,3.50000000e-08,9.85759408e+07,3.50000000e-08,1.81003877e+01,1.0,.300,sky130
4.00000000e-08,7.15883498e-07,4.00000000e-08,4.00054385e-08,4.00000000e-08,1.03625239e-15,4.00000000e-08,-6.58252458e-16,4.00000000e-08,5.61747180e-19,4.00000000e-08,3.14997857e-16,4.00000000e-08,4.72017581e-16,4.00000000e-08,-1.05067962e-19,4.00000000e-08,1.28751771e-08,4.00000000e-08,8.33624124e-01,4.00000000e-08,5.72063636e-02,4.00000000e-08,6.88209711e-01,4.00000000e-08,6.88209699e-01,4.00000000e-08,7.76688347e+07,4.00000000e-08,6.90838938e+08,4.00000000e-08,1.09950432e+08,4.00000000e-08,1.78946545e+01,1.0,.300,sky130
4.50000000e-08,7.97243975e-07,4.50000000e-08,4.50033112e-08,4.50000000e-08,1.04812881e-15,4.50000000e-08,-6.74583071e-16,4.50000000e-08,5.79067259e-19,4.50000000e-08,3.22406801e-16,4.50000000e-08,4.83124866e-16,4.50000000e-08,-1.11442693e-19,4.50000000e-08,1.43305060e-08,4.50000000e-08,8.33614440e-01,4.50000000e-08,5.79059054e-02,4.50000000e-08,6.94704730e-01,4.50000000e-08,6.94704717e-01,4.50000000e-08,6.97812065e+07,4.50000000e-08,7.60635491e+08,4.50000000e-08,1.21058898e+08,4.50000000e-08,1.77152293e+01,1.0,.300,sky130
5.00000000e-08,8.77860581e-07,5.00000000e-08,5.00020240e-08,5.00000000e-08,1.05895982e-15,5.00000000e-08,-6.89436630e-16,5.00000000e-08,5.94816639e-19,5.00000000e-08,3.29135538e-16,5.00000000e-08,4.93212490e-16,5.00000000e-08,-1.17215259e-19,5.00000000e-08,1.57637445e-08,5.00000000e-08,8.33605693e-01,5.00000000e-08,5.85913623e-02,5.00000000e-08,7.00571751e-01,5.00000000e-08,7.00571736e-01,5.00000000e-08,6.34367043e+07,5.00000000e-08,8.28983844e+08,5.00000000e-08,1.31936877e+08,5.00000000e-08,1.75565009e+01,1.0,.300,sky130
5.50000000e-08,9.57813398e-07,5.50000000e-08,5.50012139e-08,5.50000000e-08,1.06892211e-15,5.50000000e-08,-7.03067112e-16,5.50000000e-08,6.09265601e-19,5.50000000e-08,3.35301837e-16,5.50000000e-08,5.02456985e-16,5.50000000e-08,-1.22491132e-19,5.50000000e-08,1.71763568e-08,5.50000000e-08,8.33597711e-01,5.50000000e-08,5.92635769e-02,5.50000000e-08,7.05925516e-01,5.50000000e-08,7.05925500e-01,5.50000000e-08,5.82195639e+07,5.50000000e-08,8.96055371e+08,5.50000000e-08,1.42611642e+08,5.50000000e-08,1.74144047e+01,1.0,.300,sky130
6.00000000e-08,1.03716606e-06,6.00000000e-08,6.00006759e-08,6.00000000e-08,1.07815011e-15,6.00000000e-08,-7.15666958e-16,6.00000000e-08,6.22618890e-19,6.00000000e-08,3.40994808e-16,6.00000000e-08,5.10991931e-16,6.00000000e-08,-1.27349913e-19,6.00000000e-08,1.85696461e-08,6.00000000e-08,8.33590367e-01,6.00000000e-08,5.99233156e-02,6.00000000e-08,7.10851692e-01,6.00000000e-08,7.10851675e-01,6.00000000e-08,5.38513223e+07,6.00000000e-08,9.61986692e+08,6.00000000e-08,1.53104937e+08,6.00000000e-08,1.72859062e+01,1.0,.300,sky130
6.50000000e-08,1.11596988e-06,6.50000000e-08,6.50003031e-08,6.50000000e-08,1.08674862e-15,6.50000000e-08,-7.27385689e-16,6.50000000e-08,6.35035558e-19,6.50000000e-08,3.46283602e-16,6.50000000e-08,5.18920984e-16,6.50000000e-08,-1.31853235e-19,6.50000000e-08,1.99447781e-08,6.50000000e-08,8.33583562e-01,6.50000000e-08,6.05712759e-02,6.50000000e-08,7.15415971e-01,6.50000000e-08,7.15415952e-01,6.50000000e-08,5.01384371e+07,6.50000000e-08,1.02688870e+09,6.50000000e-08,1.63434413e+08,6.50000000e-08,1.71686874e+01,1.0,.300,sky130
7.00000000e-08,1.19426666e-06,7.00000000e-08,7.00000393e-08,7.00000000e-08,1.09480104e-15,7.00000000e-08,-7.38341906e-16,7.00000000e-08,6.46641745e-19,7.00000000e-08,3.51223009e-16,7.00000000e-08,5.26326274e-16,7.00000000e-08,-1.36049829e-19,7.00000000e-08,2.13027965e-08,7.00000000e-08,8.33577220e-01,7.00000000e-08,6.12080916e-02,7.00000000e-08,7.19669855e-01,7.00000000e-08,7.19669835e-01,7.00000000e-08,4.69421937e+07,7.00000000e-08,1.09085270e+09,7.00000000e-08,1.73614599e+08,7.00000000e-08,1.70609428e+01,1.0,.300,sky130
7.50000000e-08,1.27209062e-06,7.50000000e-08,7.49998451e-08,7.50000000e-08,1.10237485e-15,7.50000000e-08,-7.48631334e-16,7.50000000e-08,6.57539251e-19,7.50000000e-08,3.55857203e-16,7.50000000e-08,5.33274021e-16,7.50000000e-08,-1.39978916e-19,7.50000000e-08,2.26446375e-08,7.50000000e-08,8.33571279e-01,7.50000000e-08,6.18343393e-02,7.50000000e-08,7.23654477e-01,7.50000000e-08,7.23654455e-01,7.50000000e-08,4.41605657e+07,7.50000000e-08,1.15395468e+09,7.50000000e-08,1.83657592e+08,7.50000000e-08,1.69612433e+01,1.0,.300,sky130
8.00000000e-08,1.34947021e-06,8.00000000e-08,7.99997000e-08,8.00000000e-08,1.10952551e-15,8.00000000e-08,-7.58332437e-16,8.00000000e-08,6.67811512e-19,8.00000000e-08,3.60222357e-16,8.00000000e-08,5.39818449e-16,8.00000000e-08,-1.43672561e-19,8.00000000e-08,2.39711474e-08,8.00000000e-08,8.33565691e-01,8.00000000e-08,6.24505459e-02,8.00000000e-08,7.27403229e-01,8.00000000e-08,7.27403206e-01,8.00000000e-08,4.17168183e+07,8.00000000e-08,1.21625883e+09,8.00000000e-08,1.93573606e+08,8.00000000e-08,1.68684409e+01,1.0,.300,sky130
8.50000000e-08,1.42642926e-06,8.50000000e-08,8.49995884e-08,8.50000000e-08,1.11629919e-15,8.50000000e-08,-7.67510366e-16,8.50000000e-08,6.77527798e-19,8.50000000e-08,3.64348478e-16,8.50000000e-08,5.46004541e-16,8.50000000e-08,-1.47157321e-19,8.50000000e-08,2.52830932e-08,8.50000000e-08,8.33560412e-01,8.50000000e-08,6.30571938e-02,8.50000000e-08,7.30943598e-01,8.50000000e-08,7.30943574e-01,8.50000000e-08,3.95521226e+07,8.50000000e-08,1.27781985e+09,8.50000000e-08,2.03371345e+08,8.50000000e-08,1.67816020e+01,1.0,.300,sky130
9.00000000e-08,1.50298798e-06,9.00000000e-08,8.99995009e-08,9.00000000e-08,1.12273474e-15,9.00000000e-08,-7.76219848e-16,9.00000000e-08,6.86746297e-19,9.00000000e-08,3.68260753e-16,9.00000000e-08,5.51870051e-16,9.00000000e-08,-1.50455458e-19,9.00000000e-08,2.65811742e-08,9.00000000e-08,8.33555411e-01,9.00000000e-08,6.36547267e-02,9.00000000e-08,7.34298489e-01,9.00000000e-08,7.34298463e-01,9.00000000e-08,3.76206105e+07,9.00000000e-08,1.33868484e+09,9.00000000e-08,2.13058309e+08,9.00000000e-08,1.66999590e+01,1.0,.300,sky130
9.50000000e-08,1.57916361e-06,9.50000000e-08,9.49994314e-08,9.50000000e-08,1.12886520e-15,9.50000000e-08,-7.84507324e-16,9.50000000e-08,6.95516382e-19,9.50000000e-08,3.71980536e-16,9.50000000e-08,5.57446992e-16,9.50000000e-08,-1.53585819e-19,9.50000000e-08,2.78660302e-08,9.50000000e-08,8.33550657e-01,9.50000000e-08,6.42435536e-02,9.50000000e-08,7.37487195e-01,9.50000000e-08,7.37487167e-01,9.50000000e-08,3.58859870e+07,9.50000000e-08,1.39889476e+09,9.50000000e-08,2.22641016e+08,9.50000000e-08,1.66228744e+01,1.0,.300,sky130
1.00000000e-07,1.65518436e-06,1.00000000e-07,1.00013478e-07,1.00000000e-07,1.13473504e-15,1.00000000e-07,-7.92434350e-16,1.00000000e-07,7.03903378e-19,1.00000000e-07,3.75535865e-16,1.00000000e-07,5.62777397e-16,1.00000000e-07,-1.56572712e-19,1.00000000e-07,2.91418202e-08,1.00000000e-07,8.33546114e-01,1.00000000e-07,6.48256787e-02,1.00000000e-07,7.40534495e-01,1.00000000e-07,7.40534466e-01,1.00000000e-07,3.43149465e+07,1.00000000e-07,1.45865273e+09,1.00000000e-07,2.32151792e+08,1.00000000e-07,1.65496130e+01,1.0,.300,sky130
