isweep,gm,i_id,id,i_cgg,cgg,i_cgs,cgs,i_cgd,cgd,i_cds,cds,i_css,css,i_cdd,cdd,i_gds,gds,i_vth,vth,i_vdsat,vdsat,i_vgs,vgs,i_vds,vds,i_rds,rds,i_wt,wt,i_ft,ft,i_kgm,kgm,W,L,pdk
1.00000000e-09,2.46175812e-08,1.00000000e-09,9.99472582e-10,1.00000000e-09,6.59791458e-16,1.00000000e-09,-1.62535366e-16,1.00000000e-09,1.79630968e-18,1.00000000e-09,9.09794145e-17,1.00000000e-09,1.36266128e-16,1.00000000e-09,-9.56894225e-19,1.00000000e-09,7.00692031e-10,1.00000000e-09,8.49915130e-01,1.00000000e-09,4.30883141e-02,1.00000000e-09,5.26708959e-01,1.00000000e-09,5.26708959e-01,1.00000000e-09,1.42716052e+09,1.00000000e-09,3.73111548e+07,1.00000000e-09,5.93825473e+06,1.00000000e-09,2.46305719e+01,1.0,.200,sky130
1.50000000e-09,3.59259891e-08,1.50000000e-09,1.50438845e-09,1.50000000e-09,6.70764970e-16,1.50000000e-09,-1.80370764e-16,1.50000000e-09,2.00296317e-18,1.50000000e-09,1.00629543e-16,1.50000000e-09,1.50728392e-16,1.50000000e-09,-1.06757229e-18,1.50000000e-09,1.03125813e-09,1.50000000e-09,8.49658704e-01,1.50000000e-09,4.31664748e-02,1.50000000e-09,5.43095813e-01,1.50000000e-09,5.43095813e-01,1.50000000e-09,9.69689327e+08,1.50000000e-09,5.35597276e+07,1.50000000e-09,8.52429540e+06,1.50000000e-09,2.38807930e+01,1.0,.200,sky130
2.00000000e-09,4.68492765e-08,2.00000000e-09,2.01044937e-09,2.00000000e-09,6.79545053e-16,2.00000000e-09,-1.94326212e-16,2.00000000e-09,2.16490939e-18,2.00000000e-09,1.08154505e-16,2.00000000e-09,1.62006070e-16,2.00000000e-09,-1.15400981e-18,2.00000000e-09,1.35437919e-09,2.00000000e-09,8.49471769e-01,2.00000000e-09,4.32441883e-02,2.00000000e-09,5.55041951e-01,2.00000000e-09,5.55041950e-01,2.00000000e-09,7.38345664e+08,2.00000000e-09,6.89421199e+07,2.00000000e-09,1.09724792e+07,2.00000000e-09,2.33028880e+01,1.0,.200,sky130
2.50000000e-09,5.72025040e-08,2.50000000e-09,2.50415728e-09,2.50000000e-09,6.86803767e-16,2.50000000e-09,-2.05693015e-16,2.50000000e-09,2.29696881e-18,2.50000000e-09,1.14267903e-16,2.50000000e-09,1.71168419e-16,2.50000000e-09,-1.22431738e-18,2.50000000e-09,1.66352387e-09,2.50000000e-09,8.49327039e-01,2.50000000e-09,4.33194980e-02,2.50000000e-09,5.64290875e-01,2.50000000e-09,5.64290875e-01,2.50000000e-09,6.01133543e+08,2.50000000e-09,8.32879881e+07,2.50000000e-09,1.32556950e+07,2.50000000e-09,2.28430157e+01,1.0,.200,sky130
3.00000000e-09,6.73792866e-08,3.00000000e-09,3.00104729e-09,3.00000000e-09,6.93212676e-16,3.00000000e-09,-2.15619612e-16,3.00000000e-09,2.41240376e-18,3.00000000e-09,1.19595694e-16,3.00000000e-09,1.79153481e-16,3.00000000e-09,-1.28565036e-18,3.00000000e-09,1.96973257e-09,3.00000000e-09,8.49205516e-01,3.00000000e-09,4.33948449e-02,3.00000000e-09,5.72056821e-01,3.00000000e-09,5.72056820e-01,3.00000000e-09,5.07683132e+08,3.00000000e-09,9.71985785e+07,3.00000000e-09,1.54696342e+07,3.00000000e-09,2.24519243e+01,1.0,.200,sky130
3.50000000e-09,7.74016365e-08,3.50000000e-09,3.50034247e-09,3.50000000e-09,6.98982444e-16,3.50000000e-09,-2.24478846e-16,3.50000000e-09,2.51550842e-18,3.50000000e-09,1.24342249e-16,3.50000000e-09,1.86267507e-16,3.50000000e-09,-1.34033852e-18,3.50000000e-09,2.27324472e-09,3.50000000e-09,8.49100514e-01,3.50000000e-09,4.34701424e-02,3.50000000e-09,5.78767015e-01,3.50000000e-09,5.78767014e-01,3.50000000e-09,4.39899846e+08,3.50000000e-09,1.10734736e+08,3.50000000e-09,1.76239806e+07,3.50000000e-09,2.21125896e+01,1.0,.200,sky130
4.00000000e-09,8.72586009e-08,4.00000000e-09,4.00001223e-09,4.00000000e-09,7.04235264e-16,4.00000000e-09,-2.32486914e-16,4.00000000e-09,2.60877156e-18,4.00000000e-09,1.28626189e-16,4.00000000e-09,1.92688249e-16,4.00000000e-09,-1.38973328e-18,4.00000000e-09,2.57338847e-09,4.00000000e-09,8.49008163e-01,4.00000000e-09,4.35451098e-02,4.00000000e-09,5.84668708e-01,4.00000000e-09,5.84668707e-01,4.00000000e-09,3.88592710e+08,4.00000000e-09,1.23905469e+08,4.00000000e-09,1.97201679e+07,4.00000000e-09,2.18145835e+01,1.0,.200,sky130
4.50000000e-09,9.69693089e-08,4.50000000e-09,4.49980252e-09,4.50000000e-09,7.09070801e-16,4.50000000e-09,-2.39814623e-16,4.50000000e-09,2.69416330e-18,4.50000000e-09,1.32540835e-16,4.50000000e-09,1.98555554e-16,4.50000000e-09,-1.43489983e-18,4.50000000e-09,2.87046697e-09,4.50000000e-09,8.48925629e-01,4.50000000e-09,4.36197308e-02,4.50000000e-09,5.89943007e-01,4.50000000e-09,5.89943006e-01,4.50000000e-09,3.48375372e+08,4.50000000e-09,1.36755468e+08,4.50000000e-09,2.17653086e+07,4.50000000e-09,2.15496810e+01,1.0,.200,sky130
5.00000000e-09,1.06552333e-07,5.00000000e-09,4.99967573e-09,5.00000000e-09,7.13562142e-16,5.00000000e-09,-2.46585665e-16,5.00000000e-09,2.77311124e-18,5.00000000e-09,1.36153664e-16,5.00000000e-09,2.03970542e-16,5.00000000e-09,-1.47660888e-18,5.00000000e-09,3.16482187e-09,5.00000000e-09,8.48850927e-01,5.00000000e-09,4.36940175e-02,5.00000000e-09,5.94716838e-01,5.00000000e-09,5.94716837e-01,5.00000000e-09,3.15973550e+08,5.00000000e-09,1.49324532e+08,5.00000000e-09,2.37657373e+07,5.00000000e-09,2.13118487e+01,1.0,.200,sky130
5.50000000e-09,1.16022680e-07,5.50000000e-09,5.49959559e-09,5.50000000e-09,7.17763555e-16,5.50000000e-09,-2.52891102e-16,5.50000000e-09,2.84666688e-18,5.50000000e-09,1.39514309e-16,5.50000000e-09,2.09007591e-16,5.50000000e-09,-1.51542754e-18,5.50000000e-09,3.45672784e-09,5.50000000e-09,8.48782628e-01,5.50000000e-09,4.37679793e-02,5.50000000e-09,5.99081501e-01,5.50000000e-09,5.99081499e-01,5.50000000e-09,2.89290926e+08,5.50000000e-09,1.61644707e+08,5.50000000e-09,2.57265541e+07,5.50000000e-09,2.10965839e+01,1.0,.200,sky130
6.00000000e-09,1.25392958e-07,6.00000000e-09,5.99954148e-09,6.00000000e-09,7.21716699e-16,6.00000000e-09,-2.58800301e-16,6.00000000e-09,2.91563149e-18,6.00000000e-09,1.42660542e-16,6.00000000e-09,2.13723305e-16,6.00000000e-09,-1.55178759e-18,6.00000000e-09,3.74641810e-09,6.00000000e-09,8.48719667e-01,6.00000000e-09,4.38416258e-02,6.00000000e-09,6.03105052e-01,6.00000000e-09,6.03105050e-01,6.00000000e-09,2.66921623e+08,6.00000000e-09,1.73742630e+08,6.00000000e-09,2.76519985e+07,6.00000000e-09,2.09004235e+01,1.0,.200,sky130
6.50000000e-09,1.34673890e-07,6.50000000e-09,6.49950349e-09,6.50000000e-09,7.25454340e-16,6.50000000e-09,-2.64367452e-16,6.50000000e-09,2.98063130e-18,6.50000000e-09,1.45621847e-16,6.50000000e-09,2.18161870e-16,6.50000000e-09,-1.58602618e-18,6.50000000e-09,4.03409302e-09,6.50000000e-09,8.48661227e-01,6.50000000e-09,4.39149665e-02,6.50000000e-09,6.06839626e-01,6.50000000e-09,6.06839624e-01,6.50000000e-09,2.47887194e+08,6.50000000e-09,1.85640753e+08,6.50000000e-09,2.95456435e+07,6.50000000e-09,2.07206427e+01,1.0,.200,sky130
7.00000000e-09,1.43874632e-07,7.00000000e-09,6.99947589e-09,7.00000000e-09,7.29002753e-16,7.00000000e-09,-2.69635752e-16,7.00000000e-09,3.04216568e-18,7.00000000e-09,1.48421709e-16,7.00000000e-09,2.22358483e-16,7.00000000e-09,-1.61841198e-18,7.00000000e-09,4.31992467e-09,7.00000000e-09,8.48606671e-01,7.00000000e-09,4.39880100e-02,7.00000000e-09,6.10326051e-01,7.00000000e-09,6.10326049e-01,7.00000000e-09,2.31485518e+08,7.00000000e-09,1.97358147e+08,7.00000000e-09,3.14105246e+07,7.00000000e-09,2.05550579e+01,1.0,.200,sky130
7.50000000e-09,1.53003041e-07,7.50000000e-09,7.49945382e-09,7.50000000e-09,7.32383366e-16,7.50000000e-09,-2.74640238e-16,7.50000000e-09,3.10063978e-18,7.50000000e-09,1.51079164e-16,7.50000000e-09,2.26341670e-16,7.50000000e-09,-1.64916280e-18,7.50000000e-09,4.60406109e-09,7.50000000e-09,8.48555488e-01,7.50000000e-09,4.40607642e-02,7.50000000e-09,6.13596908e-01,7.50000000e-09,6.13596905e-01,7.50000000e-09,2.17199551e+08,7.50000000e-09,2.08911136e+08,7.50000000e-09,3.32492399e+07,7.50000000e-09,2.04018912e+01,1.0,.200,sky130
8.00000000e-09,1.62066003e-07,8.00000000e-09,7.99943803e-09,8.00000000e-09,7.35613943e-16,8.00000000e-09,-2.79409813e-16,8.00000000e-09,3.15638792e-18,8.00000000e-09,1.53609906e-16,8.00000000e-09,2.30134950e-16,8.00000000e-09,-1.67845828e-18,8.00000000e-09,4.88663359e-09,8.00000000e-09,8.48507264e-01,8.00000000e-09,4.41332368e-02,8.00000000e-09,6.16678658e-01,8.00000000e-09,6.16678656e-01,8.00000000e-09,2.04639857e+08,8.00000000e-09,2.20313935e+08,8.00000000e-09,3.50640518e+07,8.00000000e-09,2.02596735e+01,1.0,.200,sky130
8.50000000e-09,1.71069434e-07,8.50000000e-09,8.49942436e-09,8.50000000e-09,7.38709343e-16,8.50000000e-09,-2.83968549e-16,8.50000000e-09,3.20968864e-18,8.50000000e-09,1.56026997e-16,8.50000000e-09,2.33757899e-16,8.50000000e-09,-1.70644798e-18,8.50000000e-09,5.16775430e-09,8.50000000e-09,8.48461659e-01,8.50000000e-09,4.42054342e-02,8.50000000e-09,6.19593046e-01,8.50000000e-09,6.19593044e-01,8.50000000e-09,1.93507652e+08,8.50000000e-09,2.31578814e+08,8.50000000e-09,3.68569130e+07,8.50000000e-09,2.01271788e+01,1.0,.200,sky130
9.00000000e-09,1.80018628e-07,9.00000000e-09,8.99941475e-09,9.00000000e-09,7.41682199e-16,9.00000000e-09,-2.88336825e-16,9.00000000e-09,3.26077780e-18,9.00000000e-09,1.58341488e-16,9.00000000e-09,2.37227078e-16,9.00000000e-09,-1.73325848e-18,9.00000000e-09,5.44752518e-09,9.00000000e-09,8.48418389e-01,9.00000000e-09,4.42773629e-02,9.00000000e-09,6.22358222e-01,9.00000000e-09,6.22358220e-01,9.00000000e-09,1.83569597e+08,9.00000000e-09,2.42716662e+08,9.00000000e-09,3.86295566e+07,9.00000000e-09,2.00033705e+01,1.0,.200,sky130
9.50000000e-09,1.88918178e-07,9.50000000e-09,9.49940645e-09,9.50000000e-09,7.44543301e-16,9.50000000e-09,-2.92531980e-16,9.50000000e-09,3.30985614e-18,9.50000000e-09,1.60562778e-16,9.50000000e-09,2.40556575e-16,9.50000000e-09,-1.75899746e-18,9.50000000e-09,5.72603408e-09,9.50000000e-09,8.48377215e-01,9.50000000e-09,4.43490286e-02,9.50000000e-09,6.24989449e-01,9.50000000e-09,6.24989446e-01,9.50000000e-09,1.74640945e+08,9.50000000e-09,2.53736992e+08,9.50000000e-09,4.03834965e+07,9.50000000e-09,1.98873665e+01,1.0,.200,sky130
1.00000000e-08,1.97773472e-07,1.00000000e-08,9.99947129e-09,1.00000000e-08,7.47302372e-16,1.00000000e-08,-2.96569531e-16,1.00000000e-08,3.35710341e-18,1.00000000e-08,1.62699266e-16,1.00000000e-08,2.43758976e-16,1.00000000e-08,-1.78376120e-18,1.00000000e-08,6.00340048e-09,1.00000000e-08,8.48337928e-01,1.00000000e-08,4.44204467e-02,1.00000000e-08,6.27500074e-01,1.00000000e-08,6.27500071e-01,1.00000000e-08,1.66572262e+08,1.00000000e-08,2.64649865e+08,1.00000000e-08,4.21203342e+07,1.00000000e-08,1.97783929e+01,1.0,.200,sky130
1.50000000e-08,2.85222340e-07,1.50000000e-08,1.50439840e-08,1.50000000e-08,7.70833720e-16,1.50000000e-08,-3.30718060e-16,1.50000000e-08,3.75718625e-18,1.50000000e-08,1.80717490e-16,1.50000000e-08,2.70767158e-16,1.50000000e-08,-1.99288586e-18,1.50000000e-08,8.74832114e-09,1.50000000e-08,8.48017536e-01,1.50000000e-08,4.51274623e-02,1.50000000e-08,6.47974737e-01,1.50000000e-08,6.47974733e-01,1.50000000e-08,1.14307646e+08,1.50000000e-08,3.70017986e+08,1.50000000e-08,5.88901915e+07,1.50000000e-08,1.89592291e+01,1.0,.200,sky130
2.00000000e-08,3.70796815e-07,2.00000000e-08,2.01029123e-08,2.00000000e-08,7.89229403e-16,2.00000000e-08,-3.57107281e-16,2.00000000e-08,4.06691188e-18,2.00000000e-08,1.94580598e-16,2.00000000e-08,2.91547682e-16,2.00000000e-08,-2.15410526e-18,2.00000000e-08,1.14306745e-08,2.00000000e-08,8.47782141e-01,2.00000000e-08,4.58143947e-02,2.00000000e-08,6.63017694e-01,2.00000000e-08,6.63017689e-01,2.00000000e-08,8.74839012e+07,2.00000000e-08,4.69821339e+08,2.00000000e-08,7.47743885e+07,2.00000000e-08,1.84449303e+01,1.0,.200,sky130
2.50000000e-08,4.53343731e-07,2.50000000e-08,2.50464800e-08,2.50000000e-08,8.04096946e-16,2.50000000e-08,-3.78271444e-16,2.50000000e-08,4.31563319e-18,2.50000000e-08,2.05661894e-16,2.50000000e-08,3.08158682e-16,2.50000000e-08,-2.28316079e-18,2.50000000e-08,1.40046815e-08,2.50000000e-08,8.47599448e-01,2.50000000e-08,4.64667747e-02,2.50000000e-08,6.74692728e-01,2.50000000e-08,6.74692721e-01,2.50000000e-08,7.14046940e+07,2.50000000e-08,5.63792381e+08,2.50000000e-08,8.97303442e+07,2.50000000e-08,1.81000976e+01,1.0,.200,sky130
3.00000000e-08,5.35735187e-07,3.00000000e-08,3.00167442e-08,3.00000000e-08,8.16901436e-16,3.00000000e-08,-3.96396054e-16,3.00000000e-08,4.52884773e-18,3.00000000e-08,2.15126259e-16,3.00000000e-08,3.22346125e-16,3.00000000e-08,-2.39350967e-18,3.00000000e-08,1.65567089e-08,3.00000000e-08,8.47446551e-01,3.00000000e-08,4.71056996e-02,3.00000000e-08,6.84463655e-01,3.00000000e-08,6.84463647e-01,3.00000000e-08,6.03984768e+07,3.00000000e-08,6.55813741e+08,3.00000000e-08,1.04375999e+08,3.00000000e-08,1.78478779e+01,1.0,.200,sky130
3.50000000e-08,6.18144993e-07,3.50000000e-08,3.50095052e-08,3.50000000e-08,8.28160937e-16,3.50000000e-08,-4.12262922e-16,3.50000000e-08,4.71565689e-18,3.50000000e-08,2.23392728e-16,3.50000000e-08,3.34738056e-16,3.50000000e-08,-2.48998154e-18,3.50000000e-08,1.90908290e-08,3.50000000e-08,8.47314973e-01,3.50000000e-08,4.77318567e-02,3.50000000e-08,6.92872144e-01,3.50000000e-08,6.92872134e-01,3.50000000e-08,5.23811722e+07,3.50000000e-08,7.46406846e+08,3.50000000e-08,1.18794339e+08,3.50000000e-08,1.76564904e+01,1.0,.200,sky130
4.00000000e-08,7.00404663e-07,4.00000000e-08,4.00060859e-08,4.00000000e-08,8.38184392e-16,4.00000000e-08,-4.26336763e-16,4.00000000e-08,4.88147123e-18,4.00000000e-08,2.30710438e-16,4.00000000e-08,3.45707880e-16,4.00000000e-08,-2.57544834e-18,4.00000000e-08,2.16017945e-08,4.00000000e-08,8.47199781e-01,4.00000000e-08,4.83440179e-02,4.00000000e-08,7.00233538e-01,4.00000000e-08,7.00233526e-01,4.00000000e-08,4.62924503e+07,4.00000000e-08,8.35621218e+08,4.00000000e-08,1.32993247e+08,4.00000000e-08,1.75074529e+01,1.0,.200,sky130
4.50000000e-08,7.82552664e-07,4.50000000e-08,4.50038781e-08,4.50000000e-08,8.47215025e-16,4.50000000e-08,-4.38978180e-16,4.50000000e-08,5.03049817e-18,4.50000000e-08,2.37271757e-16,4.50000000e-08,3.55543924e-16,4.50000000e-08,-2.65213274e-18,4.50000000e-08,2.40913681e-08,4.50000000e-08,8.47097357e-01,4.50000000e-08,4.89428988e-02,4.50000000e-08,7.06778973e-01,4.50000000e-08,7.06778960e-01,4.50000000e-08,4.15086430e+07,4.50000000e-08,9.23676565e+08,4.50000000e-08,1.47007691e+08,4.50000000e-08,1.73885607e+01,1.0,.200,sky130
5.00000000e-08,8.64629319e-07,5.00000000e-08,5.00025154e-08,5.00000000e-08,8.55431807e-16,5.00000000e-08,-4.50450616e-16,5.00000000e-08,5.16581469e-18,5.00000000e-08,2.43216898e-16,5.00000000e-08,3.64456348e-16,5.00000000e-08,-2.72165672e-18,5.00000000e-08,2.65616194e-08,5.00000000e-08,8.47005141e-01,5.00000000e-08,4.95293635e-02,5.00000000e-08,7.12672045e-01,5.00000000e-08,7.12672030e-01,5.00000000e-08,3.76483069e+07,5.00000000e-08,1.01075189e+09,5.00000000e-08,1.60866160e+08,5.00000000e-08,1.72917165e+01,1.0,.200,sky130
5.50000000e-08,9.46654036e-07,5.50000000e-08,5.50016428e-08,5.50000000e-08,8.62968361e-16,5.50000000e-08,-4.60949724e-16,5.50000000e-08,5.28970779e-18,5.50000000e-08,2.48649818e-16,5.50000000e-08,3.72600971e-16,5.50000000e-08,-2.78522385e-18,5.50000000e-08,2.90140782e-08,5.50000000e-08,8.46921278e-01,5.50000000e-08,5.01041696e-02,5.50000000e-08,7.18031328e-01,5.50000000e-08,7.18031312e-01,5.50000000e-08,3.44660269e+07,5.50000000e-08,1.09697421e+09,5.50000000e-08,1.74588868e+08,5.50000000e-08,1.72113775e+01,1.0,.200,sky130
6.00000000e-08,1.02863571e-06,6.00000000e-08,6.00010554e-08,6.00000000e-08,8.69927537e-16,6.00000000e-08,-4.70625404e-16,6.00000000e-08,5.40393091e-18,6.00000000e-08,2.53650040e-16,6.00000000e-08,3.80096989e-16,6.00000000e-08,-2.84375557e-18,6.00000000e-08,3.14499768e-08,6.00000000e-08,8.46844377e-01,6.00000000e-08,5.06680041e-02,6.00000000e-08,7.22945731e-01,6.00000000e-08,7.22945713e-01,6.00000000e-08,3.17965258e+07,6.00000000e-08,1.18243839e+09,6.00000000e-08,1.88190914e+08,6.00000000e-08,1.71436270e+01,1.0,.200,sky130
6.50000000e-08,1.11057676e-06,6.50000000e-08,6.50006458e-08,6.50000000e-08,8.76390312e-16,6.50000000e-08,-4.79595202e-16,6.50000000e-08,5.50985991e-18,6.50000000e-08,2.58279829e-16,6.50000000e-08,3.87037731e-16,6.50000000e-08,-2.89797385e-18,6.50000000e-08,3.38703321e-08,6.50000000e-08,8.46773367e-01,6.50000000e-08,5.12214910e-02,6.50000000e-08,7.27483664e-01,6.50000000e-08,7.27483645e-01,6.50000000e-08,2.95243636e+07,6.50000000e-08,1.26721707e+09,6.50000000e-08,2.01683860e+08,6.50000000e-08,1.70856266e+01,1.0,.200,sky130
7.00000000e-08,1.19247524e-06,7.00000000e-08,7.00003498e-08,7.00000000e-08,8.82421632e-16,7.00000000e-08,-4.87953050e-16,7.00000000e-08,5.60859494e-18,7.00000000e-08,2.62588877e-16,7.00000000e-08,3.93497681e-16,7.00000000e-08,-2.94845528e-18,7.00000000e-08,3.62759905e-08,7.00000000e-08,8.46707406e-01,7.00000000e-08,5.17651961e-02,7.00000000e-08,7.31698893e-01,7.00000000e-08,7.31698873e-01,7.00000000e-08,2.75664423e+07,7.00000000e-08,1.35136673e+09,7.00000000e-08,2.15076695e+08,7.00000000e-08,1.70352754e+01,1.0,.200,sky130
7.50000000e-08,1.27432649e-06,7.50000000e-08,7.50001307e-08,7.50000000e-08,8.88074420e-16,7.50000000e-08,-4.95775251e-16,7.50000000e-08,5.70103015e-18,7.50000000e-08,2.66617500e-16,7.50000000e-08,3.99537269e-16,7.50000000e-08,-2.99566791e-18,7.50000000e-08,3.86676690e-08,7.50000000e-08,8.46645822e-01,7.50000000e-08,5.22996340e-02,7.50000000e-08,7.35634451e-01,7.50000000e-08,7.35634429e-01,7.50000000e-08,2.58613986e+07,7.50000000e-08,1.43493210e+09,7.50000000e-08,2.28376537e+08,7.50000000e-08,1.69909903e+01,1.0,.200,sky130
8.00000000e-08,1.35612422e-06,8.00000000e-08,7.99999658e-08,8.00000000e-08,8.93392395e-16,8.00000000e-08,-5.03124661e-16,8.00000000e-08,5.78790246e-18,8.00000000e-08,2.70398869e-16,8.00000000e-08,4.05206218e-16,8.00000000e-08,-3.03999709e-18,8.00000000e-08,4.10459820e-08,8.00000000e-08,8.46588067e-01,8.00000000e-08,5.28252745e-02,8.00000000e-08,7.39325314e-01,8.00000000e-08,7.39325290e-01,8.00000000e-08,2.43629206e+07,8.00000000e-08,1.51794915e+09,8.00000000e-08,2.41589110e+08,8.00000000e-08,1.69515600e+01,1.0,.200,sky130
8.50000000e-08,1.43786113e-06,8.50000000e-08,8.49998385e-08,8.50000000e-08,8.98412106e-16,8.50000000e-08,-5.10053688e-16,8.50000000e-08,5.86982660e-18,8.50000000e-08,2.73960611e-16,8.50000000e-08,4.10545939e-16,8.50000000e-08,-3.08176389e-18,8.50000000e-08,4.34114625e-08,8.50000000e-08,8.46533690e-01,8.50000000e-08,5.33425471e-02,8.50000000e-08,7.42800300e-01,8.50000000e-08,7.42800275e-01,8.50000000e-08,2.30353907e+07,8.50000000e-08,1.60044719e+09,8.50000000e-08,2.54719081e+08,8.50000000e-08,1.69160454e+01,1.0,.200,sky130
9.00000000e-08,1.51952945e-06,9.00000000e-08,8.99997381e-08,9.00000000e-08,9.03164429e-16,9.00000000e-08,-5.16606500e-16,9.00000000e-08,5.94732088e-18,9.00000000e-08,2.77325988e-16,9.00000000e-08,4.15591302e-16,9.00000000e-08,-3.12123882e-18,9.00000000e-08,4.57645791e-08,9.00000000e-08,8.46482316e-01,9.00000000e-08,5.38518465e-02,9.00000000e-08,7.46083435e-01,9.00000000e-08,7.46083409e-01,9.00000000e-08,2.18509603e+07,9.00000000e-08,1.68245051e+09,9.00000000e-08,2.67770315e+08,9.00000000e-08,1.68837097e+01,1.0,.200,sky130
9.50000000e-08,1.60112130e-06,9.50000000e-08,9.49996581e-08,9.50000000e-08,9.07675689e-16,9.50000000e-08,-5.22820680e-16,9.50000000e-08,6.02082649e-18,9.50000000e-08,2.80514772e-16,9.50000000e-08,4.20371942e-16,9.50000000e-08,-3.15865187e-18,9.50000000e-08,4.81057485e-08,9.50000000e-08,8.46433626e-01,9.50000000e-08,5.43535361e-02,9.50000000e-08,7.49194961e-01,9.50000000e-08,7.49194934e-01,9.50000000e-08,2.07875364e+07,9.50000000e-08,1.76397950e+09,9.50000000e-08,2.80746056e+08,9.50000000e-08,1.68539691e+01,1.0,.200,sky130
1.00000000e-07,1.68262589e-06,1.00000000e-07,9.99994106e-08,1.00000000e-07,9.11968366e-16,1.00000000e-07,-5.28728259e-16,1.00000000e-07,6.09071959e-18,1.00000000e-07,2.83543803e-16,1.00000000e-07,4.24913105e-16,1.00000000e-07,-3.19419902e-18,1.00000000e-07,5.04352592e-08,1.00000000e-07,8.46387354e-01,1.00000000e-07,5.48479339e-02,1.00000000e-07,7.52151985e-01,1.00000000e-07,7.52151956e-01,1.00000000e-07,1.98273988e+07,1.00000000e-07,1.84504852e+09,1.00000000e-07,2.93648593e+08,1.00000000e-07,1.68263580e+01,1.0,.200,sky130
