isweep,gm,i_id,id,i_cgg,cgg,i_cgs,cgs,i_cgd,cgd,i_cds,cds,i_css,css,i_cdd,cdd,i_gds,gds,i_vth,vth,i_vdsat,vdsat,i_vgs,vgs,i_vds,vds,i_rds,rds,i_wt,wt,i_ft,ft,i_kgm,kgm,W,L,pdk
1.00000000e-09,1.66756955e-08,1.00000000e-09,9.99618405e-10,1.00000000e-09,5.62374614e-16,1.00000000e-09,-9.01072516e-17,1.00000000e-09,-2.59194427e-19,1.00000000e-09,4.55368456e-17,1.00000000e-09,6.82912079e-17,1.00000000e-09,5.40085145e-19,1.00000000e-09,1.04136259e-09,1.00000000e-09,7.23705678e-01,1.00000000e-09,5.28257123e-02,1.00000000e-09,2.18838044e-01,1.00000000e-09,2.18838044e-01,1.00000000e-09,9.60280322e+08,1.00000000e-09,2.96522906e+07,1.00000000e-09,4.71930862e+06,1.00000000e-09,1.66820613e+01,1.0,.250,sky130
1.50000000e-09,2.39238639e-08,1.50000000e-09,1.50384710e-09,1.50000000e-09,5.66239478e-16,1.50000000e-09,-1.03382374e-16,1.50000000e-09,-1.73002073e-19,1.50000000e-09,5.19549567e-17,1.50000000e-09,7.78587975e-17,1.50000000e-09,4.48312665e-19,1.50000000e-09,1.51276776e-09,1.50000000e-09,7.23636443e-01,1.50000000e-09,5.28748520e-02,1.50000000e-09,2.42427242e-01,1.50000000e-09,2.42427242e-01,1.50000000e-09,6.61040000e+08,1.50000000e-09,4.22504343e+07,1.50000000e-09,6.72436547e+06,1.50000000e-09,1.59084416e+01,1.0,.250,sky130
2.00000000e-09,3.07777403e-08,2.00000000e-09,1.99959699e-09,2.00000000e-09,5.70114266e-16,2.00000000e-09,-1.14107004e-16,2.00000000e-09,-1.17573339e-19,2.00000000e-09,5.71054152e-17,2.00000000e-09,8.55495119e-17,2.00000000e-09,3.93793802e-19,2.00000000e-09,1.96549902e-09,2.00000000e-09,7.23586190e-01,2.00000000e-09,5.29221404e-02,2.00000000e-09,2.59548826e-01,2.00000000e-09,2.59548826e-01,2.00000000e-09,5.08776648e+08,2.00000000e-09,5.39852133e+07,2.00000000e-09,8.59201356e+06,2.00000000e-09,1.53919717e+01,1.0,.250,sky130
2.50000000e-09,3.75552471e-08,2.50000000e-09,2.50264047e-09,2.50000000e-09,5.73953552e-16,2.50000000e-09,-1.23524523e-16,2.50000000e-09,-7.54343168e-20,2.50000000e-09,6.16068413e-17,2.50000000e-09,9.22768976e-17,2.50000000e-09,3.54993007e-19,2.50000000e-09,2.41677856e-09,2.50000000e-09,7.23545461e-01,2.50000000e-09,5.29693432e-02,2.50000000e-09,2.73425762e-01,2.50000000e-09,2.73425761e-01,2.50000000e-09,4.13773945e+08,2.50000000e-09,6.54325546e+07,2.50000000e-09,1.04139145e+07,2.50000000e-09,1.50062494e+01,1.0,.250,sky130
3.00000000e-09,4.41536906e-08,3.00000000e-09,3.00146270e-09,3.00000000e-09,5.77627673e-16,3.00000000e-09,-1.31843262e-16,3.00000000e-09,-4.17907988e-20,3.00000000e-09,6.55684076e-17,3.00000000e-09,9.82006193e-17,3.00000000e-09,3.25711063e-19,3.00000000e-09,2.85786671e-09,3.00000000e-09,7.23511731e-01,3.00000000e-09,5.30155246e-02,3.00000000e-09,2.84917854e-01,3.00000000e-09,2.84917853e-01,3.00000000e-09,3.49911350e+08,3.00000000e-09,7.64397079e+07,3.00000000e-09,1.21657574e+07,3.00000000e-09,1.47107244e+01,1.0,.250,sky130
3.50000000e-09,5.06663993e-08,3.50000000e-09,3.50050236e-09,3.50000000e-09,5.81164585e-16,3.50000000e-09,-1.39403193e-16,3.50000000e-09,-1.34124881e-20,3.50000000e-09,6.91577412e-17,3.50000000e-09,1.03569672e-16,3.50000000e-09,3.02175956e-19,3.50000000e-09,3.29387039e-09,3.50000000e-09,7.23482677e-01,3.50000000e-09,5.30612038e-02,3.50000000e-09,2.94816906e-01,3.50000000e-09,2.94816905e-01,3.50000000e-09,3.03594216e+08,3.50000000e-09,8.71808101e+07,3.50000000e-09,1.38752569e+07,3.50000000e-09,1.44740366e+01,1.0,.250,sky130
4.00000000e-09,5.71197122e-08,4.00000000e-09,4.00012530e-09,4.00000000e-09,5.84571276e-16,4.00000000e-09,-1.46370623e-16,4.00000000e-09,1.12772656e-20,4.00000000e-09,7.24572518e-17,4.00000000e-09,1.08506482e-16,4.00000000e-09,2.82544077e-19,4.00000000e-09,3.72587980e-09,4.00000000e-09,7.23457103e-01,4.00000000e-09,5.31064848e-02,4.00000000e-09,3.03530356e-01,4.00000000e-09,3.03530355e-01,4.00000000e-09,2.68392985e+08,4.00000000e-09,9.77121431e+07,4.00000000e-09,1.55513706e+07,4.00000000e-09,1.42794807e+01,1.0,.250,sky130
4.50000000e-09,6.35233219e-08,4.50000000e-09,4.49992558e-09,4.50000000e-09,5.87852886e-16,4.50000000e-09,-1.52850482e-16,4.50000000e-09,3.32088713e-20,4.50000000e-09,7.55189762e-17,4.50000000e-09,1.13088417e-16,4.50000000e-09,2.65739871e-19,4.50000000e-09,4.15411748e-09,4.50000000e-09,7.23434255e-01,4.50000000e-09,5.31513840e-02,4.50000000e-09,3.11314791e-01,4.50000000e-09,3.11314790e-01,4.50000000e-09,2.40725017e+08,4.50000000e-09,1.08059896e+08,4.50000000e-09,1.71982666e+07,4.50000000e-09,1.41165272e+01,1.0,.250,sky130
5.00000000e-09,6.98867237e-08,5.00000000e-09,4.99980039e-09,5.00000000e-09,5.91017622e-16,5.00000000e-09,-1.58922051e-16,5.00000000e-09,5.30034879e-20,5.00000000e-09,7.83820663e-17,5.00000000e-09,1.17373757e-16,5.00000000e-09,2.51063737e-19,5.00000000e-09,4.57894314e-09,5.00000000e-09,7.23413597e-01,5.00000000e-09,5.31959337e-02,5.00000000e-09,3.18353217e-01,5.00000000e-09,3.18353216e-01,5.00000000e-09,2.18391006e+08,5.00000000e-09,1.18248122e+08,5.00000000e-09,1.88197731e+07,5.00000000e-09,1.39779028e+01,1.0,.250,sky130
5.50000000e-09,7.62175358e-08,5.50000000e-09,5.49971780e-09,5.50000000e-09,5.94073953e-16,5.50000000e-09,-1.64645622e-16,5.50000000e-09,7.10919969e-20,5.50000000e-09,8.10762174e-17,5.50000000e-09,1.21406743e-16,5.50000000e-09,2.38040991e-19,5.50000000e-09,5.00068611e-09,5.50000000e-09,7.23394736e-01,5.50000000e-09,5.32401648e-02,5.50000000e-09,3.24779235e-01,5.50000000e-09,3.24779233e-01,5.50000000e-09,1.99972559e+08,5.50000000e-09,1.28296377e+08,5.50000000e-09,2.04190026e+07,5.50000000e-09,1.38584449e+01,1.0,.250,sky130
6.00000000e-09,8.25216467e-08,6.00000000e-09,5.99966140e-09,6.00000000e-09,5.97029833e-16,6.00000000e-09,-1.70068011e-16,6.00000000e-09,8.77845507e-20,6.00000000e-09,8.36244392e-17,6.00000000e-09,1.25221677e-16,6.00000000e-09,2.26336814e-19,6.00000000e-09,5.41962227e-09,6.00000000e-09,7.23377379e-01,6.00000000e-09,5.32841032e-02,6.00000000e-09,3.30693105e-01,6.00000000e-09,3.30693104e-01,6.00000000e-09,1.84514704e+08,6.00000000e-09,1.38220307e+08,6.00000000e-09,2.19984451e+07,6.00000000e-09,1.37543840e+01,1.0,.250,sky130
6.50000000e-09,8.88036466e-08,6.50000000e-09,6.49962040e-09,6.50000000e-09,5.99892535e-16,6.50000000e-09,-1.75226395e-16,6.50000000e-09,1.03311765e-19,6.50000000e-09,8.60449715e-17,6.50000000e-09,1.28845764e-16,6.50000000e-09,2.15707035e-19,6.50000000e-09,5.83598227e-09,6.50000000e-09,7.23361298e-01,6.50000000e-09,5.33277708e-02,6.50000000e-09,3.36172026e-01,6.50000000e-09,3.36172024e-01,6.50000000e-09,1.71350760e+08,6.50000000e-09,1.48032592e+08,6.50000000e-09,2.35601187e+07,6.50000000e-09,1.36628974e+01,1.0,.250,sky130
7.00000000e-09,9.50672005e-08,7.00000000e-09,6.99958980e-09,7.00000000e-09,6.02668648e-16,7.00000000e-09,-1.80150912e-16,7.00000000e-09,1.17849932e-19,7.00000000e-09,8.83525748e-17,7.00000000e-09,1.32301027e-16,7.00000000e-09,2.05968493e-19,7.00000000e-09,6.24996342e-09,7.00000000e-09,7.23346316e-01,7.00000000e-09,5.33711867e-02,7.00000000e-09,3.41276772e-01,7.00000000e-09,3.41276770e-01,7.00000000e-09,1.60000936e+08,7.00000000e-09,1.57743730e+08,7.00000000e-09,2.51056944e+07,7.00000000e-09,1.35818245e+01,1.0,.250,sky130
7.50000000e-09,1.01315251e-07,7.50000000e-09,7.49956622e-09,7.50000000e-09,6.05364111e-16,7.50000000e-09,-1.84866379e-16,7.50000000e-09,1.31536865e-19,7.50000000e-09,9.05593845e-17,7.50000000e-09,1.35605580e-16,7.50000000e-09,1.96980566e-19,7.50000000e-09,6.66173443e-09,7.50000000e-09,7.23332288e-01,7.50000000e-09,5.34143671e-02,7.50000000e-09,3.46056062e-01,7.50000000e-09,3.46056060e-01,7.50000000e-09,1.50111057e+08,7.50000000e-09,1.67362499e+08,7.50000000e-09,2.66365690e+07,7.50000000e-09,1.35094814e+01,1.0,.250,sky130
8.00000000e-09,1.07550197e-07,8.00000000e-09,7.99954799e-09,8.00000000e-09,6.07984274e-16,8.00000000e-09,-1.89393528e-16,8.00000000e-09,1.44482439e-19,8.00000000e-09,9.26755258e-17,8.00000000e-09,1.38774543e-16,8.00000000e-09,1.88633087e-19,8.00000000e-09,7.07144162e-09,8.00000000e-09,7.23319100e-01,8.00000000e-09,5.34573263e-02,8.00000000e-09,3.50549577e-01,8.00000000e-09,3.50549574e-01,8.00000000e-09,1.41413881e+08,8.00000000e-09,1.76896346e+08,8.00000000e-09,2.81539279e+07,8.00000000e-09,1.34445342e+01,1.0,.250,sky130
8.50000000e-09,1.13773992e-07,8.50000000e-09,8.49953256e-09,8.50000000e-09,6.10533950e-16,8.50000000e-09,-1.93749878e-16,8.50000000e-09,1.56775677e-19,8.50000000e-09,9.47095424e-17,8.50000000e-09,1.41820673e-16,8.50000000e-09,1.80838279e-19,8.50000000e-09,7.47921132e-09,8.50000000e-09,7.23306654e-01,8.50000000e-09,5.35000767e-02,8.50000000e-09,3.54790063e-01,8.50000000e-09,3.54790061e-01,8.50000000e-09,1.33703937e+08,8.50000000e-09,1.86351622e+08,8.50000000e-09,2.96587818e+07,8.50000000e-09,1.33859117e+01,1.0,.250,sky130
9.00000000e-09,1.19988289e-07,9.00000000e-09,8.99952040e-09,9.00000000e-09,6.13017503e-16,9.00000000e-09,-1.97950424e-16,9.00000000e-09,1.68489859e-19,9.00000000e-09,9.66687376e-17,9.00000000e-09,1.44754881e-16,9.00000000e-09,1.73525075e-19,9.00000000e-09,7.88515662e-09,9.00000000e-09,7.23294870e-01,9.00000000e-09,5.35426293e-02,9.00000000e-09,3.58804905e-01,9.00000000e-09,3.58804903e-01,9.00000000e-09,1.26820563e+08,9.00000000e-09,1.95733871e+08,9.00000000e-09,3.11520130e+07,9.00000000e-09,1.33327426e+01,1.0,.250,sky130
9.50000000e-09,1.26194438e-07,9.50000000e-09,9.49950954e-09,9.50000000e-09,6.15438869e-16,9.50000000e-09,-2.02008082e-16,9.50000000e-09,1.79685964e-19,9.50000000e-09,9.85593949e-17,9.50000000e-09,1.47586555e-16,9.50000000e-09,1.66635244e-19,9.50000000e-09,8.28937552e-09,9.50000000e-09,7.23283681e-01,9.50000000e-09,5.35849940e-02,9.50000000e-09,3.62617203e-01,9.50000000e-09,3.62617201e-01,9.50000000e-09,1.20636349e+08,9.50000000e-09,2.05047884e+08,9.50000000e-09,3.26343842e+07,9.50000000e-09,1.32843108e+01,1.0,.250,sky130
1.00000000e-08,1.32393228e-07,1.00000000e-08,9.99947004e-09,1.00000000e-08,6.17801493e-16,1.00000000e-08,-2.05933871e-16,1.00000000e-08,1.90414771e-19,1.00000000e-08,1.00386874e-16,1.00000000e-08,1.50323703e-16,1.00000000e-08,1.60120828e-19,1.00000000e-08,8.69193265e-09,1.00000000e-08,7.23273029e-01,1.00000000e-08,5.36271771e-02,1.00000000e-08,3.66246449e-01,1.00000000e-08,3.66246446e-01,1.00000000e-08,1.15049212e+08,1.00000000e-08,2.14297358e+08,1.00000000e-08,3.41064838e+07,1.00000000e-08,1.32400244e+01,1.0,.250,sky130
1.50000000e-08,1.94818871e-07,1.50000000e-08,1.50526959e-08,1.50000000e-08,6.39007991e-16,1.50000000e-08,-2.39982678e-16,1.50000000e-08,2.80123131e-19,1.50000000e-08,1.16169763e-16,1.50000000e-08,1.73966157e-16,1.50000000e-08,1.08574016e-19,1.50000000e-08,1.26833903e-08,1.50000000e-08,7.23186900e-01,1.50000000e-08,5.40449520e-02,1.50000000e-08,3.95591541e-01,1.50000000e-08,3.95591536e-01,1.50000000e-08,7.88432728e+07,1.50000000e-08,3.04877049e+08,1.50000000e-08,4.85226894e+07,1.50000000e-08,1.29424570e+01,1.0,.250,sky130
2.00000000e-08,2.57358222e-07,2.00000000e-08,2.01266708e-08,2.00000000e-08,6.56723501e-16,2.00000000e-08,-2.67215254e-16,2.00000000e-08,3.48842756e-19,2.00000000e-08,1.28714044e-16,2.00000000e-08,1.92760387e-16,2.00000000e-08,7.19269289e-20,2.00000000e-08,1.65801272e-08,2.00000000e-08,7.23124640e-01,2.00000000e-08,5.44518526e-02,2.00000000e-08,4.16804271e-01,2.00000000e-08,4.16804265e-01,2.00000000e-08,6.03131680e+07,2.00000000e-08,3.91882157e+08,2.00000000e-08,6.23699824e+07,2.00000000e-08,1.27869246e+01,1.0,.250,sky130
2.50000000e-08,3.18166595e-07,2.50000000e-08,2.50583294e-08,2.50000000e-08,6.71593537e-16,2.50000000e-08,-2.89471929e-16,2.50000000e-08,4.03710859e-19,2.50000000e-08,1.38919217e-16,2.50000000e-08,2.08051580e-16,2.50000000e-08,4.40000705e-20,2.50000000e-08,2.02857205e-08,2.50000000e-08,7.23077192e-01,2.50000000e-08,5.48378542e-02,2.50000000e-08,4.32970449e-01,2.50000000e-08,4.32970442e-01,2.50000000e-08,4.92957595e+07,2.50000000e-08,4.73748745e+08,2.50000000e-08,7.53994545e+07,2.50000000e-08,1.26970394e+01,1.0,.250,sky130
3.00000000e-08,3.79422810e-07,3.00000000e-08,3.00199151e-08,3.00000000e-08,6.84831137e-16,3.00000000e-08,-3.08923590e-16,3.00000000e-08,4.50973437e-19,3.00000000e-08,1.47806137e-16,3.00000000e-08,2.21368409e-16,3.00000000e-08,2.07077923e-20,3.00000000e-08,2.39466891e-08,3.00000000e-08,7.23037830e-01,3.00000000e-08,5.52182962e-02,3.00000000e-08,4.46381606e-01,3.00000000e-08,4.46381598e-01,3.00000000e-08,4.17594263e+07,3.00000000e-08,5.54038492e+08,3.00000000e-08,8.81779647e+07,3.00000000e-08,1.26390368e+01,1.0,.250,sky130
3.50000000e-08,4.41146237e-07,3.50000000e-08,3.50111652e-08,3.50000000e-08,6.96796787e-16,3.50000000e-08,-3.26262987e-16,3.50000000e-08,4.92683334e-19,3.50000000e-08,1.55704154e-16,3.50000000e-08,2.33203972e-16,3.50000000e-08,6.44935034e-22,3.50000000e-08,2.75711404e-08,3.50000000e-08,7.23004171e-01,3.50000000e-08,5.55940547e-02,3.50000000e-08,4.57849897e-01,3.50000000e-08,4.57849887e-01,3.50000000e-08,3.62698091e+07,3.50000000e-08,6.33106015e+08,3.50000000e-08,1.00761952e+08,3.50000000e-08,1.26001587e+01,1.0,.250,sky130
4.00000000e-08,5.03037653e-07,4.00000000e-08,4.00072529e-08,4.00000000e-08,7.07686803e-16,4.00000000e-08,-3.41871131e-16,4.00000000e-08,5.29955223e-19,4.00000000e-08,1.62795200e-16,4.00000000e-08,2.43830663e-16,4.00000000e-08,-1.69453576e-20,4.00000000e-08,3.11473106e-08,4.00000000e-08,7.22974886e-01,4.00000000e-08,5.59639499e-02,4.00000000e-08,4.67827444e-01,4.00000000e-08,4.67827433e-01,4.00000000e-08,3.21055006e+07,4.00000000e-08,7.10819604e+08,4.00000000e-08,1.13130454e+08,4.00000000e-08,1.25736614e+01,1.0,.250,sky130
4.50000000e-08,5.65053414e-07,4.50000000e-08,4.50046462e-08,4.50000000e-08,7.17685324e-16,4.50000000e-08,-3.56073951e-16,4.50000000e-08,5.63684143e-19,4.50000000e-08,1.69233216e-16,4.50000000e-08,2.53479023e-16,4.50000000e-08,-3.26209042e-20,4.50000000e-08,3.46777796e-08,4.50000000e-08,7.22948987e-01,4.50000000e-08,5.63282930e-02,4.50000000e-08,4.76651759e-01,4.50000000e-08,4.76651746e-01,4.50000000e-08,2.88369097e+07,4.50000000e-08,7.87327531e+08,4.50000000e-08,1.25307068e+08,4.50000000e-08,1.25554462e+01,1.0,.250,sky130
5.00000000e-08,6.27186400e-07,5.00000000e-08,5.00030406e-08,5.00000000e-08,7.26935455e-16,5.00000000e-08,-3.69116044e-16,5.00000000e-08,5.94523091e-19,5.00000000e-08,1.75133254e-16,5.00000000e-08,2.62321376e-16,5.00000000e-08,-4.67721427e-20,5.00000000e-08,3.81663906e-08,5.00000000e-08,7.22925773e-01,5.00000000e-08,5.66875222e-02,5.00000000e-08,4.84560998e-01,5.00000000e-08,4.84560984e-01,5.00000000e-08,2.62010629e+07,5.00000000e-08,8.62781414e+08,5.00000000e-08,1.37315927e+08,5.00000000e-08,1.25429652e+01,1.0,.250,sky130
5.50000000e-08,6.89426438e-07,5.50000000e-08,5.50020220e-08,5.50000000e-08,7.35546795e-16,5.50000000e-08,-3.81180667e-16,5.50000000e-08,6.22952290e-19,5.50000000e-08,1.80581300e-16,5.50000000e-08,2.70486516e-16,5.50000000e-08,-5.96780488e-20,5.50000000e-08,4.16161480e-08,5.50000000e-08,7.22904744e-01,5.50000000e-08,5.70419854e-02,5.50000000e-08,4.91726174e-01,5.50000000e-08,4.91726158e-01,5.50000000e-08,2.40291341e+07,5.50000000e-08,9.37297862e+08,5.50000000e-08,1.49175588e+08,5.50000000e-08,1.25345653e+01,1.0,.250,sky130
6.00000000e-08,7.51764618e-07,6.00000000e-08,6.00013432e-08,6.00000000e-08,7.43605769e-16,6.00000000e-08,-3.92409629e-16,6.00000000e-08,6.49337706e-19,6.00000000e-08,1.85643729e-16,6.00000000e-08,2.78073873e-16,6.00000000e-08,-7.15459124e-20,6.00000000e-08,4.50296201e-08,6.00000000e-08,7.22885524e-01,6.00000000e-08,5.73919817e-02,6.00000000e-08,4.98274572e-01,6.00000000e-08,4.98274555e-01,6.00000000e-08,2.22076046e+07,6.00000000e-08,1.01097201e+09,6.00000000e-08,1.60901193e+08,6.00000000e-08,1.25291298e+01,1.0,.250,sky130
6.50000000e-08,8.14193112e-07,6.50000000e-08,6.50008715e-08,6.50000000e-08,7.51181869e-16,6.50000000e-08,-4.02915150e-16,6.50000000e-08,6.73965358e-19,6.50000000e-08,1.90372957e-16,6.50000000e-08,2.85161968e-16,6.50000000e-08,-8.25342440e-20,6.50000000e-08,4.84090368e-08,6.50000000e-08,7.22867829e-01,6.50000000e-08,5.77377724e-02,6.50000000e-08,5.04303485e-01,6.50000000e-08,5.04303466e-01,6.50000000e-08,2.06573001e+07,6.50000000e-08,1.08388281e+09,6.50000000e-08,1.72505306e+08,6.50000000e-08,1.25258799e+01,1.0,.250,sky130
7.00000000e-08,8.76704764e-07,7.00000000e-08,7.00005341e-08,7.00000000e-08,7.58331866e-16,7.00000000e-08,-4.12787676e-16,7.00000000e-08,6.97063396e-19,7.00000000e-08,1.94811143e-16,7.00000000e-08,2.91813958e-16,7.00000000e-08,-9.27671093e-20,7.00000000e-08,5.17563452e-08,7.00000000e-08,7.22851436e-01,7.00000000e-08,5.80795871e-02,7.00000000e-08,5.09888927e-01,7.00000000e-08,5.09888907e-01,7.00000000e-08,1.93213025e+07,7.00000000e-08,1.15609643e+09,7.00000000e-08,1.83998462e+08,7.00000000e-08,1.25242582e+01,1.0,.250,sky130
7.50000000e-08,9.39292837e-07,7.50000000e-08,7.50002856e-08,7.50000000e-08,7.65102779e-16,7.50000000e-08,-4.22101242e-16,7.50000000e-08,7.18816970e-19,7.50000000e-08,1.98992737e-16,7.50000000e-08,2.98081456e-16,7.50000000e-08,-1.02343530e-19,7.50000000e-08,5.50732550e-08,7.50000000e-08,7.22836167e-01,7.50000000e-08,5.84176283e-02,7.50000000e-08,5.15091401e-01,7.50000000e-08,5.15091380e-01,7.50000000e-08,1.81576339e+07,7.50000000e-08,1.22766883e+09,7.50000000e-08,1.95389563e+08,7.50000000e-08,1.25238568e+01,1.0,.250,sky130
8.00000000e-08,1.00195099e-06,8.00000000e-08,8.00000994e-08,8.00000000e-08,7.71534035e-16,8.00000000e-08,-4.30917290e-16,8.00000000e-08,7.39378600e-19,8.00000000e-08,2.02946280e-16,8.00000000e-08,3.04007222e-16,8.00000000e-08,-1.11343884e-19,8.00000000e-08,5.83612820e-08,8.00000000e-08,7.22821878e-01,8.00000000e-08,5.87520768e-02,8.00000000e-08,5.19959850e-01,8.00000000e-08,5.19959826e-01,8.00000000e-08,1.71346476e+07,8.00000000e-08,1.29864781e+09,8.00000000e-08,2.06686218e+08,8.00000000e-08,1.25243718e+01,1.0,.250,sky130
8.50000000e-08,1.06467315e-06,8.50000000e-08,8.49999551e-08,8.50000000e-08,7.77659041e-16,8.50000000e-08,-4.39287411e-16,8.50000000e-08,7.58875537e-19,8.50000000e-08,2.06695699e-16,8.50000000e-08,3.09627106e-16,8.50000000e-08,-1.19834354e-19,8.50000000e-08,6.16217774e-08,8.50000000e-08,7.22808452e-01,8.50000000e-08,5.90830944e-02,8.50000000e-08,5.24534414e-01,8.50000000e-08,5.24534389e-01,8.50000000e-08,1.62280292e+07,8.50000000e-08,1.36907448e+09,8.50000000e-08,2.17894971e+08,8.50000000e-08,1.25255731e+01,1.0,.250,sky130
9.00000000e-08,1.12745362e-06,9.00000000e-08,8.99998425e-08,9.00000000e-08,7.83506380e-16,9.00000000e-08,-4.47255385e-16,9.00000000e-08,7.77415183e-19,9.00000000e-08,2.10261273e-16,9.00000000e-08,3.14971489e-16,9.00000000e-08,-1.27870139e-19,9.00000000e-08,6.48559586e-08,9.00000000e-08,7.22795791e-01,9.00000000e-08,5.94108277e-02,9.00000000e-08,5.28848431e-01,9.00000000e-08,5.28848405e-01,9.00000000e-08,1.54187837e+07,9.00000000e-08,1.43898460e+09,9.00000000e-08,2.29021513e+08,9.00000000e-08,1.25272843e+01,1.0,.250,sky130
9.50000000e-08,1.19028695e-06,9.50000000e-08,9.49997539e-08,9.50000000e-08,7.89100713e-16,9.50000000e-08,-4.54858708e-16,9.50000000e-08,7.95089067e-19,9.50000000e-08,2.13660344e-16,9.50000000e-08,3.20066355e-16,9.50000000e-08,-1.35497778e-19,9.50000000e-08,6.80649267e-08,9.50000000e-08,7.22783812e-01,9.50000000e-08,5.97354098e-02,9.50000000e-08,5.32929886e-01,9.50000000e-08,5.32929858e-01,9.50000000e-08,1.46918545e+07,9.50000000e-08,1.50840942e+09,9.50000000e-08,2.40070816e+08,9.50000000e-08,1.25293688e+01,1.0,.250,sky130
1.00000000e-07,1.25321584e-06,1.00000000e-07,1.00003489e-07,1.00000000e-07,7.94467473e-16,1.00000000e-07,-4.62135170e-16,1.00000000e-07,8.11988456e-19,1.00000000e-07,2.16910283e-16,1.00000000e-07,3.24937736e-16,1.00000000e-07,-1.42762290e-19,1.00000000e-07,7.12520989e-08,1.00000000e-07,7.22772437e-01,1.00000000e-07,6.00572060e-02,1.00000000e-07,5.36805367e-01,1.00000000e-07,5.36805338e-01,1.00000000e-07,1.40346743e+07,1.00000000e-07,1.57742876e+09,1.00000000e-07,2.51055585e+08,1.00000000e-07,1.25317212e+01,1.0,.250,sky130
