isweep,gm,i_id,id,i_cgg,cgg,i_cgs,cgs,i_cgd,cgd,i_cds,cds,i_css,css,i_cdd,cdd,i_gds,gds,i_vth,vth,i_vdsat,vdsat,i_vgs,vgs,i_vds,vds,i_rds,rds,i_wt,wt,i_ft,ft,i_kgm,kgm,W,L,pdk
1.00000000e-09,2.12198240e-08,1.00000000e-09,9.99399624e-10,1.00000000e-09,5.69907650e-16,1.00000000e-09,-1.29505721e-16,1.00000000e-09,1.73115547e-19,1.00000000e-09,6.38389258e-17,1.00000000e-09,9.56380258e-17,1.00000000e-09,-6.16816478e-20,1.00000000e-09,7.94527550e-10,1.00000000e-09,9.32479030e-01,1.00000000e-09,3.76064918e-02,1.00000000e-09,6.00392358e-01,1.00000000e-09,6.00392358e-01,1.00000000e-09,1.25860960e+09,1.00000000e-09,3.72337939e+07,1.00000000e-09,5.92594235e+06,1.00000000e-09,2.12325715e+01,1.0,.250,sky130
1.50000000e-09,3.07135477e-08,1.50000000e-09,1.50402649e-09,1.50000000e-09,5.83661309e-16,1.50000000e-09,-1.51580089e-16,1.50000000e-09,2.05666976e-19,1.50000000e-09,7.44083697e-17,1.50000000e-09,1.11478424e-16,1.50000000e-09,-7.53036554e-20,1.50000000e-09,1.17695041e-09,1.50000000e-09,9.32441450e-01,1.50000000e-09,3.76560595e-02,1.50000000e-09,6.19316155e-01,1.50000000e-09,6.19316155e-01,1.50000000e-09,8.49653473e+08,1.50000000e-09,5.26222095e+07,1.50000000e-09,8.37508476e+06,1.50000000e-09,2.04208822e+01,1.0,.250,sky130
2.00000000e-09,4.00895600e-08,2.00000000e-09,2.01031861e-09,2.00000000e-09,5.95475021e-16,2.00000000e-09,-1.69778283e-16,2.00000000e-09,2.32607693e-19,2.00000000e-09,8.30798528e-17,2.00000000e-09,1.24474735e-16,2.00000000e-09,-8.65698806e-20,2.00000000e-09,1.55541235e-09,2.00000000e-09,9.32413948e-01,2.00000000e-09,3.77050905e-02,2.00000000e-09,6.33164435e-01,2.00000000e-09,6.33164434e-01,2.00000000e-09,6.42916329e+08,2.00000000e-09,6.73236635e+07,2.00000000e-09,1.07148938e+07,2.00000000e-09,1.99418937e+01,1.0,.250,sky130
2.50000000e-09,4.91652035e-08,2.50000000e-09,2.50439869e-09,2.50000000e-09,6.05675383e-16,2.50000000e-09,-1.85092223e-16,2.50000000e-09,2.55341724e-19,2.50000000e-09,9.03504243e-17,2.50000000e-09,1.35371672e-16,2.50000000e-09,-9.60685875e-20,2.50000000e-09,1.92099584e-09,2.50000000e-09,9.32392715e-01,2.50000000e-09,3.77524249e-02,2.50000000e-09,6.43856558e-01,2.50000000e-09,6.43856558e-01,2.50000000e-09,5.20563335e+08,2.50000000e-09,8.11741815e+07,2.50000000e-09,1.29192722e+07,2.50000000e-09,1.96315402e+01,1.0,.250,sky130
3.00000000e-09,5.82475222e-08,3.00000000e-09,3.00118680e-09,3.00000000e-09,6.14939646e-16,3.00000000e-09,-1.98752526e-16,3.00000000e-09,2.75664091e-19,3.00000000e-09,9.68169146e-17,3.00000000e-09,1.45063633e-16,3.00000000e-09,-1.04551743e-19,3.00000000e-09,2.28558747e-09,3.00000000e-09,9.32374996e-01,3.00000000e-09,3.77996020e-02,3.00000000e-09,6.52778892e-01,3.00000000e-09,6.52778891e-01,3.00000000e-09,4.37524275e+08,3.00000000e-09,9.47207137e+07,3.00000000e-09,1.50752698e+07,3.00000000e-09,1.94081629e+01,1.0,.250,sky130
3.50000000e-09,6.73469879e-08,3.50000000e-09,3.50040900e-09,3.50000000e-09,6.23459595e-16,3.50000000e-09,-2.11144386e-16,3.50000000e-09,2.94131318e-19,3.50000000e-09,1.02668365e-16,3.50000000e-09,1.53833892e-16,3.50000000e-09,-1.12253177e-19,3.50000000e-09,2.64942286e-09,3.50000000e-09,9.32359779e-01,3.50000000e-09,3.78466531e-02,3.50000000e-09,6.60441283e-01,3.50000000e-09,6.60441282e-01,3.50000000e-09,3.77440692e+08,3.50000000e-09,1.08021416e+08,3.50000000e-09,1.71921422e+07,3.50000000e-09,1.92397483e+01,1.0,.250,sky130
4.00000000e-09,7.64359013e-08,4.00000000e-09,4.00004342e-09,4.00000000e-09,6.31341192e-16,4.00000000e-09,-2.22484028e-16,4.00000000e-09,3.11054877e-19,4.00000000e-09,1.08011386e-16,4.00000000e-09,1.61842201e-16,4.00000000e-09,-1.19304173e-19,4.00000000e-09,3.01134906e-09,4.00000000e-09,9.32346483e-01,4.00000000e-09,3.78934301e-02,4.00000000e-09,6.67136685e-01,4.00000000e-09,6.67136684e-01,4.00000000e-09,3.32077079e+08,4.00000000e-09,1.21069086e+08,4.00000000e-09,1.92687435e+07,4.00000000e-09,1.91087679e+01,1.0,.250,sky130
4.50000000e-09,8.55148624e-08,4.50000000e-09,4.49980460e-09,4.50000000e-09,6.38685792e-16,4.50000000e-09,-2.32957882e-16,4.50000000e-09,3.26705541e-19,4.50000000e-09,1.12937048e-16,4.50000000e-09,1.69225032e-16,4.50000000e-09,-1.25818775e-19,4.50000000e-09,3.37140995e-09,4.50000000e-09,9.32334679e-01,4.50000000e-09,3.79399400e-02,4.50000000e-09,6.73080600e-01,4.50000000e-09,6.73080599e-01,4.50000000e-09,2.96611808e+08,4.50000000e-09,1.33891913e+08,4.50000000e-09,2.13095598e+07,4.50000000e-09,1.90041279e+01,1.0,.250,sky130
5.00000000e-09,9.45870161e-08,5.00000000e-09,4.99965689e-09,5.00000000e-09,6.45573011e-16,5.00000000e-09,-2.42707038e-16,5.00000000e-09,3.41288827e-19,5.00000000e-09,1.17514065e-16,5.00000000e-09,1.76085356e-16,5.00000000e-09,-1.31883579e-19,5.00000000e-09,3.72977447e-09,5.00000000e-09,9.32324065e-01,5.00000000e-09,3.79862059e-02,5.00000000e-09,6.78425298e-01,5.00000000e-09,6.78425296e-01,5.00000000e-09,2.68112726e+08,5.00000000e-09,1.46516373e+08,5.00000000e-09,2.33188050e+07,5.00000000e-09,1.89187015e+01,1.0,.250,sky130
5.50000000e-09,1.03654248e-07,5.50000000e-09,5.49956189e-09,5.50000000e-09,6.52064555e-16,5.50000000e-09,-2.51838321e-16,5.50000000e-09,3.54960625e-19,5.50000000e-09,1.21794371e-16,5.50000000e-09,1.82501002e-16,5.50000000e-09,-1.37564304e-19,5.50000000e-09,4.08656991e-09,5.50000000e-09,9.32314422e-01,5.50000000e-09,3.80322455e-02,5.50000000e-09,6.83280750e-01,5.50000000e-09,6.83280748e-01,5.50000000e-09,2.44703999e+08,5.50000000e-09,1.58963169e+08,5.50000000e-09,2.52997742e+07,5.50000000e-09,1.88477283e+01,1.0,.250,sky130
6.00000000e-09,1.12717942e-07,6.00000000e-09,5.99949565e-09,6.00000000e-09,6.58209618e-16,6.00000000e-09,-2.60435183e-16,6.00000000e-09,3.67842923e-19,6.00000000e-09,1.25818470e-16,6.00000000e-09,1.88532666e-16,6.00000000e-09,-1.42912399e-19,6.00000000e-09,4.44190529e-09,6.00000000e-09,9.32305588e-01,6.00000000e-09,3.80780738e-02,6.00000000e-09,6.87729154e-01,6.00000000e-09,6.87729153e-01,6.00000000e-09,2.25128618e+08,6.00000000e-09,1.71249309e+08,6.00000000e-09,2.72551741e+07,6.00000000e-09,1.87879030e+01,1.0,.250,sky130
6.50000000e-09,1.21779273e-07,6.50000000e-09,6.49945043e-09,6.50000000e-09,6.64048247e-16,6.50000000e-09,-2.68564372e-16,6.50000000e-09,3.80033452e-19,6.50000000e-09,1.29618703e-16,6.50000000e-09,1.94228819e-16,6.50000000e-09,-1.47969093e-19,6.50000000e-09,4.79587984e-09,6.50000000e-09,9.32297437e-01,6.50000000e-09,3.81237048e-02,6.50000000e-09,6.91833633e-01,6.50000000e-09,6.91833631e-01,6.50000000e-09,2.08512313e+08,6.50000000e-09,1.83389194e+08,6.50000000e-09,2.91872968e+07,6.50000000e-09,1.87368570e+01,1.0,.250,sky130
7.00000000e-09,1.30839011e-07,7.00000000e-09,6.99941518e-09,7.00000000e-09,6.69613393e-16,7.00000000e-09,-2.76280030e-16,7.00000000e-09,3.91611586e-19,7.00000000e-09,1.33221268e-16,7.00000000e-09,1.99628720e-16,7.00000000e-09,-1.52767878e-19,7.00000000e-09,5.14857409e-09,7.00000000e-09,9.32289871e-01,7.00000000e-09,3.81691495e-02,7.00000000e-09,6.95643604e-01,7.00000000e-09,6.95643602e-01,7.00000000e-09,1.94228535e+08,7.00000000e-09,1.95394855e+08,7.00000000e-09,3.10980570e+07,7.00000000e-09,1.86928491e+01,1.0,.250,sky130
7.50000000e-09,1.39897896e-07,7.50000000e-09,7.49939024e-09,7.50000000e-09,6.74932703e-16,7.50000000e-09,-2.83626978e-16,7.50000000e-09,4.02643128e-19,7.50000000e-09,1.36647822e-16,7.50000000e-09,2.04764826e-16,7.50000000e-09,-1.57336524e-19,7.50000000e-09,5.50006382e-09,7.50000000e-09,9.32282811e-01,7.50000000e-09,3.82144185e-02,7.50000000e-09,6.99198591e-01,7.50000000e-09,6.99198589e-01,7.50000000e-09,1.81816072e+08,7.50000000e-09,2.07276807e+08,7.50000000e-09,3.29891285e+07,7.50000000e-09,1.86545694e+01,1.0,.250,sky130
8.00000000e-09,1.48956374e-07,8.00000000e-09,7.99936950e-09,8.00000000e-09,6.80029492e-16,8.00000000e-09,-2.90642604e-16,8.00000000e-09,4.13183024e-19,8.00000000e-09,1.39916410e-16,8.00000000e-09,2.09664178e-16,8.00000000e-09,-1.61698223e-19,8.00000000e-09,5.85041009e-09,8.00000000e-09,9.32276194e-01,8.00000000e-09,3.82595205e-02,8.00000000e-09,7.02530602e-01,8.00000000e-09,7.02530599e-01,8.00000000e-09,1.70928189e+08,8.00000000e-09,2.19043992e+08,8.00000000e-09,3.48619340e+07,8.00000000e-09,1.86210144e+01,1.0,.250,sky130
8.50000000e-09,1.58014901e-07,8.50000000e-09,8.49935410e-09,8.50000000e-09,6.84923752e-16,8.50000000e-09,-2.97358633e-16,8.50000000e-09,4.23277954e-19,8.50000000e-09,1.43042321e-16,8.50000000e-09,2.14349692e-16,8.50000000e-09,-1.65872676e-19,8.50000000e-09,6.19967084e-09,8.50000000e-09,9.32269968e-01,8.50000000e-09,3.83044634e-02,8.50000000e-09,7.05665999e-01,8.50000000e-09,7.05665997e-01,8.50000000e-09,1.61298886e+08,8.50000000e-09,2.30704368e+08,8.50000000e-09,3.67177405e+07,8.50000000e-09,1.85914011e+01,1.0,.250,sky130
9.00000000e-09,1.67073764e-07,9.00000000e-09,8.99934125e-09,9.00000000e-09,6.89632689e-16,9.00000000e-09,-3.03802128e-16,9.00000000e-09,4.32967779e-19,9.00000000e-09,1.46038589e-16,9.00000000e-09,2.18840900e-16,9.00000000e-09,-1.69876710e-19,9.00000000e-09,6.54789447e-09,9.00000000e-09,9.32264088e-01,9.00000000e-09,3.83492542e-02,9.00000000e-09,7.08626702e-01,9.00000000e-09,7.08626699e-01,9.00000000e-09,1.52720849e+08,9.00000000e-09,2.42264855e+08,9.00000000e-09,3.85576493e+07,9.00000000e-09,1.85651104e+01,1.0,.250,sky130
9.50000000e-09,1.76133216e-07,9.50000000e-09,9.49933022e-09,9.50000000e-09,6.94171281e-16,9.50000000e-09,-3.09996459e-16,9.50000000e-09,4.42286947e-19,9.50000000e-09,1.48916452e-16,9.50000000e-09,2.23154645e-16,9.50000000e-09,-1.73724864e-19,9.50000000e-09,6.89512525e-09,9.50000000e-09,9.32258519e-01,9.50000000e-09,3.83938991e-02,9.50000000e-09,7.11431159e-01,9.50000000e-09,7.11431157e-01,9.50000000e-09,1.45029998e+08,9.50000000e-09,2.53731637e+08,9.50000000e-09,4.03826442e+07,9.50000000e-09,1.85416457e+01,1.0,.250,sky130
1.00000000e-08,1.85204883e-07,1.00000000e-08,9.99995087e-09,1.00000000e-08,6.98558083e-16,1.00000000e-08,-3.15969328e-16,1.00000000e-08,4.51276557e-19,1.00000000e-08,1.51689101e-16,1.00000000e-08,2.27310697e-16,1.00000000e-08,-1.77434379e-19,1.00000000e-08,7.24183887e-09,1.00000000e-08,9.32253222e-01,1.00000000e-08,3.84384596e-02,1.00000000e-08,7.14098317e-01,1.00000000e-08,7.14098315e-01,1.00000000e-08,1.38086475e+08,1.00000000e-08,2.65124529e+08,1.00000000e-08,4.21958793e+07,1.00000000e-08,1.85205793e+01,1.0,.250,sky130
1.50000000e-08,2.76972424e-07,1.50000000e-08,1.50603724e-08,1.50000000e-08,7.36140745e-16,1.50000000e-08,-3.66643371e-16,1.50000000e-08,5.27672123e-19,1.50000000e-08,1.75124656e-16,1.50000000e-08,2.62439941e-16,1.50000000e-08,-2.08853505e-19,1.50000000e-08,1.06995915e-08,1.50000000e-08,9.32210797e-01,1.50000000e-08,3.88819446e-02,1.50000000e-08,7.35461750e-01,1.50000000e-08,7.35461746e-01,1.50000000e-08,9.34615122e+07,1.50000000e-08,3.76249278e+08,1.50000000e-08,5.98819324e+07,1.50000000e-08,1.83908085e+01,1.0,.250,sky130
2.00000000e-08,3.69326414e-07,2.00000000e-08,2.01447889e-08,2.00000000e-08,7.65554191e-16,2.00000000e-08,-4.05797786e-16,2.00000000e-08,5.86831233e-19,2.00000000e-08,1.93131798e-16,2.00000000e-08,2.89432833e-16,2.00000000e-08,-2.33047978e-19,2.00000000e-08,1.41021224e-08,2.00000000e-08,9.32180498e-01,2.00000000e-08,3.93168577e-02,2.00000000e-08,7.50718676e-01,2.00000000e-08,7.50718670e-01,2.00000000e-08,7.09113120e+07,2.00000000e-08,4.82430138e+08,2.00000000e-08,7.67811412e+07,2.00000000e-08,1.83335957e+01,1.0,.250,sky130
2.50000000e-08,4.58855268e-07,2.50000000e-08,2.50659041e-08,2.50000000e-08,7.89039172e-16,2.50000000e-08,-4.36809908e-16,2.50000000e-08,6.33751290e-19,2.50000000e-08,2.07336181e-16,2.50000000e-08,3.10725740e-16,2.50000000e-08,-2.52147816e-19,2.50000000e-08,1.73391503e-08,2.50000000e-08,9.32157672e-01,2.50000000e-08,3.97293624e-02,2.50000000e-08,7.62213087e-01,2.50000000e-08,7.62213079e-01,2.50000000e-08,5.76729529e+07,2.50000000e-08,5.81536740e+08,2.50000000e-08,9.25544468e+07,2.50000000e-08,1.83059532e+01,1.0,.250,sky130
3.00000000e-08,5.49127236e-07,3.00000000e-08,3.00211285e-08,3.00000000e-08,8.09248842e-16,3.00000000e-08,-4.63346589e-16,3.00000000e-08,6.73936124e-19,3.00000000e-08,2.19451860e-16,3.00000000e-08,3.28887860e-16,3.00000000e-08,-2.68440497e-19,3.00000000e-08,2.05500933e-08,3.00000000e-08,9.32138804e-01,3.00000000e-08,4.01374095e-02,3.00000000e-08,7.71714324e-01,3.00000000e-08,7.71714315e-01,3.00000000e-08,4.86615795e+07,3.00000000e-08,6.78564129e+08,3.00000000e-08,1.07996835e+08,3.00000000e-08,1.82913589e+01,1.0,.250,sky130
3.50000000e-08,6.40145675e-07,3.50000000e-08,3.50116203e-08,3.50000000e-08,8.27019414e-16,3.50000000e-08,-4.86579515e-16,3.50000000e-08,7.09140339e-19,3.50000000e-08,2.30030809e-16,3.50000000e-08,3.44746519e-16,3.50000000e-08,-2.82662438e-19,3.50000000e-08,2.37398216e-08,3.50000000e-08,9.32122704e-01,3.50000000e-08,4.05416960e-02,3.50000000e-08,7.79821351e-01,3.50000000e-08,7.79821341e-01,3.50000000e-08,4.21233157e+07,3.50000000e-08,7.74039478e+08,3.50000000e-08,1.23192209e+08,3.50000000e-08,1.82838061e+01,1.0,.250,sky130
4.00000000e-08,7.31347358e-07,4.00000000e-08,4.00075345e-08,4.00000000e-08,8.42804363e-16,4.00000000e-08,-5.07145018e-16,4.00000000e-08,7.40316918e-19,4.00000000e-08,2.39373692e-16,4.00000000e-08,3.58752366e-16,4.00000000e-08,-2.95215961e-19,4.00000000e-08,2.68926076e-08,4.00000000e-08,9.32108731e-01,4.00000000e-08,4.09402982e-02,4.00000000e-08,7.86857700e-01,4.00000000e-08,7.86857689e-01,4.00000000e-08,3.71849400e+07,4.00000000e-08,8.67754593e+08,4.00000000e-08,1.38107433e+08,4.00000000e-08,1.82802406e+01,1.0,.250,sky130
4.50000000e-08,8.22638051e-07,4.50000000e-08,4.50047455e-08,4.50000000e-08,8.56994459e-16,4.50000000e-08,-5.25580045e-16,4.50000000e-08,7.68273006e-19,4.50000000e-08,2.47731947e-16,4.50000000e-08,3.71282276e-16,4.50000000e-08,-3.06438791e-19,4.50000000e-08,3.00088351e-08,4.50000000e-08,9.32096396e-01,4.50000000e-08,4.13333318e-02,4.50000000e-08,7.93069129e-01,4.50000000e-08,7.93069116e-01,4.50000000e-08,3.33235194e+07,4.50000000e-08,9.59910582e+08,4.50000000e-08,1.52774514e+08,4.50000000e-08,1.82789179e+01,1.0,.250,sky130
5.00000000e-08,9.13996046e-07,5.00000000e-08,5.00030338e-08,5.00000000e-08,8.69881278e-16,5.00000000e-08,-5.42281833e-16,5.00000000e-08,7.93606725e-19,5.00000000e-08,2.55290941e-16,5.00000000e-08,3.82614101e-16,5.00000000e-08,-3.16580455e-19,5.00000000e-08,3.30908456e-08,5.00000000e-08,9.32085356e-01,5.00000000e-08,4.17211511e-02,5.00000000e-08,7.98628714e-01,5.00000000e-08,7.98628700e-01,5.00000000e-08,3.02198382e+07,5.00000000e-08,1.05071355e+09,5.00000000e-08,1.67226255e+08,5.00000000e-08,1.82788118e+01,1.0,.250,sky130
5.50000000e-08,1.00539694e-06,5.50000000e-08,5.50019601e-08,5.50000000e-08,8.81681481e-16,5.50000000e-08,-5.57543929e-16,5.50000000e-08,8.16760574e-19,5.50000000e-08,2.62187358e-16,5.50000000e-08,3.92952720e-16,5.50000000e-08,-3.25825259e-19,5.50000000e-08,3.61404513e-08,5.50000000e-08,9.32075364e-01,5.50000000e-08,4.21040358e-02,5.50000000e-08,8.03660019e-01,5.50000000e-08,8.03660003e-01,5.50000000e-08,2.76698261e+07,5.50000000e-08,1.14031764e+09,5.50000000e-08,1.81487188e+08,5.50000000e-08,1.82792930e+01,1.0,.250,sky130
6.00000000e-08,1.09682057e-06,6.00000000e-08,6.00012488e-08,6.00000000e-08,8.92561433e-16,6.00000000e-08,-5.71590650e-16,6.00000000e-08,8.38073032e-19,6.00000000e-08,2.68525429e-16,6.00000000e-08,4.02454368e-16,6.00000000e-08,-3.34313942e-19,6.00000000e-08,3.91592737e-08,6.00000000e-08,9.32066240e-01,6.00000000e-08,4.24822354e-02,6.00000000e-08,8.08254627e-01,6.00000000e-08,8.08254610e-01,6.00000000e-08,2.55367351e+07,6.00000000e-08,1.22884603e+09,6.00000000e-08,1.95576920e+08,6.00000000e-08,1.82799624e+01,1.0,.250,sky130
6.50000000e-08,1.18825040e-06,6.50000000e-08,6.50007587e-08,6.50000000e-08,9.02651838e-16,6.50000000e-08,-5.84597502e-16,6.50000000e-08,8.57809157e-19,6.50000000e-08,2.74386550e-16,6.50000000e-08,4.11241057e-16,6.50000000e-08,-3.42156533e-19,6.50000000e-08,4.21487900e-08,6.50000000e-08,9.32057845e-01,6.50000000e-08,4.28559765e-02,6.50000000e-08,8.12482314e-01,6.50000000e-08,8.12482295e-01,6.50000000e-08,2.37254735e+07,6.50000000e-08,1.31639947e+09,6.50000000e-08,2.09511482e+08,6.50000000e-08,1.82805620e+01,1.0,.250,sky130
7.00000000e-08,1.27967204e-06,7.00000000e-08,7.00004091e-08,7.00000000e-08,9.12057268e-16,7.00000000e-08,-5.96704402e-16,7.00000000e-08,8.76180417e-19,7.00000000e-08,2.79835503e-16,7.00000000e-08,4.19409891e-16,7.00000000e-08,-3.49440682e-19,7.00000000e-08,4.51103329e-08,7.00000000e-08,9.32050070e-01,7.00000000e-08,4.32254633e-02,7.00000000e-08,8.16397426e-01,7.00000000e-08,8.16397406e-01,7.00000000e-08,2.21678701e+07,7.00000000e-08,1.40306106e+09,7.00000000e-08,2.23304103e+08,7.00000000e-08,1.82809223e+01,1.0,.250,sky130
7.50000000e-08,1.37107274e-06,7.50000000e-08,7.50001550e-08,7.50000000e-08,9.20862738e-16,7.50000000e-08,-6.08024742e-16,7.50000000e-08,8.93358302e-19,7.50000000e-08,2.84924707e-16,7.50000000e-08,4.27039445e-16,7.50000000e-08,-3.56237362e-19,7.50000000e-08,4.80451099e-08,7.50000000e-08,9.32042830e-01,7.50000000e-08,4.35908812e-02,7.50000000e-08,8.20043114e-01,7.50000000e-08,8.20043092e-01,7.50000000e-08,2.08137728e+07,7.50000000e-08,1.48890023e+09,7.50000000e-08,2.36965832e+08,7.50000000e-08,1.82809322e+01,1.0,.250,sky130
8.00000000e-08,1.46244089e-06,8.00000000e-08,7.99999641e-08,8.00000000e-08,9.29138304e-16,8.00000000e-08,-6.18651709e-16,8.00000000e-08,9.09483829e-19,8.00000000e-08,2.89697179e-16,8.00000000e-08,4.34194202e-16,8.00000000e-08,-3.62604855e-19,8.00000000e-08,5.09542148e-08,8.00000000e-08,9.32036057e-01,8.00000000e-08,4.39523979e-02,8.00000000e-08,8.23454192e-01,8.00000000e-08,8.23454168e-01,8.00000000e-08,1.96254619e+07,8.00000000e-08,1.57397546e+09,8.00000000e-08,2.50505974e+08,8.00000000e-08,1.82805193e+01,1.0,.250,sky130
8.50000000e-08,1.55376590e-06,8.50000000e-08,8.49998182e-08,8.50000000e-08,9.36942416e-16,8.50000000e-08,-6.28662856e-16,8.50000000e-08,9.24674414e-19,8.50000000e-08,2.94188673e-16,8.50000000e-08,4.40927755e-16,8.50000000e-08,-3.68591623e-19,8.50000000e-08,5.38386477e-08,8.50000000e-08,9.32029692e-01,8.50000000e-08,4.43101675e-02,8.50000000e-08,8.26659161e-01,8.50000000e-08,8.26659137e-01,8.50000000e-08,1.85740178e+07,8.50000000e-08,1.65833659e+09,8.50000000e-08,2.63932466e+08,8.50000000e-08,1.82796379e+01,1.0,.250,sky130
9.00000000e-08,1.64503804e-06,9.00000000e-08,8.99997039e-08,9.00000000e-08,9.44324350e-16,9.00000000e-08,-6.38123418e-16,9.00000000e-08,9.39028873e-19,9.00000000e-08,2.98429225e-16,9.00000000e-08,4.47285130e-16,9.00000000e-08,-3.74238397e-19,9.00000000e-08,5.66993255e-08,9.00000000e-08,9.32023690e-01,9.00000000e-08,4.46643309e-02,9.00000000e-08,8.29681644e-01,9.00000000e-08,8.29681618e-01,9.00000000e-08,1.76368941e+07,9.00000000e-08,1.74202649e+09,9.00000000e-08,2.77252127e+08,9.00000000e-08,1.82782605e+01,1.0,.250,sky130
9.50000000e-08,1.73624836e-06,9.50000000e-08,9.49996141e-08,9.50000000e-08,9.51326047e-16,9.50000000e-08,-6.47088810e-16,9.50000000e-08,9.52631181e-19,9.50000000e-08,3.02444321e-16,9.50000000e-08,4.53304531e-16,9.50000000e-08,-3.79579749e-19,9.50000000e-08,5.95370945e-08,9.50000000e-08,9.32018011e-01,9.50000000e-08,4.50150187e-02,9.50000000e-08,8.32541437e-01,9.50000000e-08,8.32541410e-01,9.50000000e-08,1.67962513e+07,9.50000000e-08,1.82508233e+09,9.50000000e-08,2.90470874e+08,9.50000000e-08,1.82763727e+01,1.0,.250,sky130
1.00000000e-07,1.82739815e-06,1.00000000e-07,1.00000069e-07,1.00000000e-07,9.57984187e-16,1.00000000e-07,-6.55607377e-16,1.00000000e-07,9.65554629e-19,1.00000000e-07,3.06256162e-16,1.00000000e-07,4.59019235e-16,1.00000000e-07,-3.84645790e-19,1.00000000e-07,6.23530326e-08,1.00000000e-07,9.32012622e-01,1.00000000e-07,4.53623880e-02,1.00000000e-07,8.35255570e-01,1.00000000e-07,8.35255541e-01,1.00000000e-07,1.60377123e+07,1.00000000e-07,1.90754521e+09,1.00000000e-07,3.03595250e+08,1.00000000e-07,1.82739688e+01,1.0,.250,sky130
