isweep,gm,i_id,id,i_cgg,cgg,i_cgs,cgs,i_cgd,cgd,i_cds,cds,i_css,css,i_cdd,cdd,i_gds,gds,i_vth,vth,i_vdsat,vdsat,i_vgs,vgs,i_vds,vds,i_rds,rds,i_wt,wt,i_ft,ft,i_kgm,kgm,W,L,pdk
1.00000000e-09,1.71533252e-08,1.00000000e-09,9.99491045e-10,1.00000000e-09,5.32192422e-16,1.00000000e-09,-9.59218544e-17,1.00000000e-09,1.85055049e-19,1.00000000e-09,4.69771642e-17,1.00000000e-09,7.03559424e-17,1.00000000e-09,-6.09823488e-20,1.00000000e-09,9.45023824e-10,1.00000000e-09,8.91773241e-01,1.00000000e-09,3.77572951e-02,1.00000000e-09,5.08038655e-01,1.00000000e-09,5.08038654e-01,1.00000000e-09,1.05817438e+09,1.00000000e-09,3.22314345e+07,1.00000000e-09,5.12979213e+06,1.00000000e-09,1.71620599e+01,1.0,.250,sky130
1.50000000e-09,2.56729647e-08,1.50000000e-09,1.50560472e-09,1.50000000e-09,5.42478209e-16,1.50000000e-09,-1.15012705e-16,1.50000000e-09,2.27298124e-19,1.50000000e-09,5.60521826e-17,1.50000000e-09,8.39547425e-17,1.50000000e-09,-7.90269407e-20,1.50000000e-09,1.39592878e-09,1.50000000e-09,8.91706582e-01,1.50000000e-09,3.77958189e-02,1.50000000e-09,5.30750134e-01,1.50000000e-09,5.30750134e-01,1.50000000e-09,7.16368926e+08,1.50000000e-09,4.73253383e+07,1.50000000e-09,7.53206152e+06,1.50000000e-09,1.70515968e+01,1.0,.250,sky130
2.00000000e-09,3.42299002e-08,2.00000000e-09,2.01400904e-09,2.00000000e-09,5.51644638e-16,2.00000000e-09,-1.30717649e-16,2.00000000e-09,2.62190468e-19,2.00000000e-09,6.34756898e-17,2.00000000e-09,9.50792560e-17,2.00000000e-09,-9.38890234e-20,2.00000000e-09,1.84175592e-09,2.00000000e-09,8.91658992e-01,2.00000000e-09,3.78338488e-02,2.00000000e-09,5.46964259e-01,2.00000000e-09,5.46964259e-01,2.00000000e-09,5.42960112e+08,2.00000000e-09,6.20506352e+07,2.00000000e-09,9.87566532e+06,2.00000000e-09,1.69959020e+01,1.0,.250,sky130
2.50000000e-09,4.25126154e-08,2.50000000e-09,2.50607031e-09,2.50000000e-09,5.59647815e-16,2.50000000e-09,-1.43805951e-16,2.50000000e-09,2.91356895e-19,2.50000000e-09,6.96368205e-17,2.50000000e-09,1.04312310e-16,2.50000000e-09,-1.06287023e-19,2.50000000e-09,2.26826084e-09,2.50000000e-09,8.91623129e-01,2.50000000e-09,3.78701859e-02,2.50000000e-09,5.59183411e-01,2.50000000e-09,5.59183411e-01,2.50000000e-09,4.40866404e+08,2.50000000e-09,7.59631581e+07,2.50000000e-09,1.20899121e+07,2.50000000e-09,1.69638558e+01,1.0,.250,sky130
3.00000000e-09,5.08552970e-08,3.00000000e-09,3.00159984e-09,3.00000000e-09,5.67022843e-16,3.00000000e-09,-1.55497615e-16,3.00000000e-09,3.17472511e-19,3.00000000e-09,7.51226006e-17,3.00000000e-09,1.12533473e-16,3.00000000e-09,-1.17370231e-19,3.00000000e-09,2.69383269e-09,3.00000000e-09,8.91593468e-01,3.00000000e-09,3.79064068e-02,3.00000000e-09,5.69289131e-01,3.00000000e-09,5.69289130e-01,3.00000000e-09,3.71218304e+08,3.00000000e-09,8.96882684e+07,3.00000000e-09,1.42743313e+07,3.00000000e-09,1.69427305e+01,1.0,.250,sky130
3.50000000e-09,5.92592041e-08,3.50000000e-09,3.50065102e-09,3.50000000e-09,5.73885161e-16,3.50000000e-09,-1.66128890e-16,3.50000000e-09,3.41266187e-19,3.50000000e-09,8.00971900e-17,3.50000000e-09,1.19988687e-16,3.50000000e-09,-1.27453905e-19,3.50000000e-09,3.11910288e-09,3.50000000e-09,8.91568149e-01,3.50000000e-09,3.79425696e-02,3.50000000e-09,5.77915540e-01,3.50000000e-09,5.77915539e-01,3.50000000e-09,3.20605007e+08,3.50000000e-09,1.03259690e+08,3.50000000e-09,1.64342901e+07,3.50000000e-09,1.69280524e+01,1.0,.250,sky130
4.00000000e-09,6.76742444e-08,4.00000000e-09,4.00023860e-09,4.00000000e-09,5.80282557e-16,4.00000000e-09,-1.75864424e-16,4.00000000e-09,3.63091548e-19,4.00000000e-09,8.46418941e-17,4.00000000e-09,1.26799756e-16,4.00000000e-09,-1.36691888e-19,4.00000000e-09,3.54196191e-09,4.00000000e-09,8.91546166e-01,4.00000000e-09,3.79784988e-02,4.00000000e-09,5.85405638e-01,4.00000000e-09,5.85405637e-01,4.00000000e-09,2.82329405e+08,4.00000000e-09,1.16622917e+08,4.00000000e-09,1.85611137e+07,4.00000000e-09,1.69175519e+01,1.0,.250,sky130
4.50000000e-09,7.60936531e-08,4.50000000e-09,4.49995642e-09,4.50000000e-09,5.86281299e-16,4.50000000e-09,-1.84863445e-16,4.50000000e-09,3.83294951e-19,4.50000000e-09,8.88340898e-17,4.50000000e-09,1.33082610e-16,4.50000000e-09,-1.45233689e-19,4.50000000e-09,3.96241300e-09,4.50000000e-09,8.91526752e-01,4.50000000e-09,3.80141974e-02,4.50000000e-09,5.92020039e-01,4.50000000e-09,5.92020037e-01,4.50000000e-09,2.52371472e+08,4.50000000e-09,1.29790347e+08,4.50000000e-09,2.06567752e+07,4.50000000e-09,1.69098644e+01,1.0,.250,sky130
5.00000000e-09,8.45170773e-08,5.00000000e-09,4.99978176e-09,5.00000000e-09,5.91936851e-16,5.00000000e-09,-1.93248042e-16,5.00000000e-09,4.02142836e-19,5.00000000e-09,9.27328604e-17,5.00000000e-09,1.38925776e-16,5.00000000e-09,-1.53194113e-19,5.00000000e-09,4.38070666e-09,5.00000000e-09,8.91509370e-01,5.00000000e-09,3.80496891e-02,5.00000000e-09,5.97942158e-01,5.00000000e-09,5.97942156e-01,5.00000000e-09,2.28273673e+08,5.00000000e-09,1.42780564e+08,5.00000000e-09,2.27242325e+07,5.00000000e-09,1.69041533e+01,1.0,.250,sky130
5.50000000e-09,9.29437833e-08,5.50000000e-09,5.49967074e-09,5.50000000e-09,5.97292847e-16,5.50000000e-09,-2.01109957e-16,5.50000000e-09,4.19835731e-19,5.50000000e-09,9.63825182e-17,5.50000000e-09,1.44395647e-16,5.50000000e-09,-1.60659514e-19,5.50000000e-09,4.79702022e-09,5.50000000e-09,8.91493636e-01,5.50000000e-09,3.80849908e-02,5.50000000e-09,6.03302932e-01,5.50000000e-09,6.03302930e-01,5.50000000e-09,2.08462744e+08,5.50000000e-09,1.55608398e+08,5.50000000e-09,2.47658458e+07,5.50000000e-09,1.68998814e+01,1.0,.250,sky130
6.00000000e-09,1.01373313e-07,6.00000000e-09,5.99959673e-09,6.00000000e-09,6.02384630e-16,6.00000000e-09,-2.08520613e-16,6.00000000e-09,4.36530006e-19,6.00000000e-09,9.98174937e-17,6.00000000e-09,1.49543814e-16,6.00000000e-09,-1.67697184e-19,6.00000000e-09,5.21150559e-09,6.00000000e-09,8.91479265e-01,6.00000000e-09,3.81201170e-02,6.00000000e-09,6.08199417e-01,6.00000000e-09,6.08199416e-01,6.00000000e-09,1.91883129e+08,6.00000000e-09,1.68286685e+08,6.00000000e-09,2.67836578e+07,6.00000000e-09,1.68966878e+01,1.0,.250,sky130
6.50000000e-09,1.09805371e-07,6.50000000e-09,6.49954328e-09,6.50000000e-09,6.07241262e-16,6.50000000e-09,-2.15536857e-16,6.50000000e-09,4.52350297e-19,6.50000000e-09,1.03065142e-16,6.50000000e-09,1.54411265e-16,6.50000000e-09,-1.74360732e-19,6.50000000e-09,5.62429346e-09,6.50000000e-09,8.91466039e-01,6.50000000e-09,3.81550800e-02,6.50000000e-09,6.12705533e-01,6.50000000e-09,6.12705531e-01,6.50000000e-09,1.77800111e+08,6.50000000e-09,1.80826597e+08,6.50000000e-09,2.87794467e+07,6.50000000e-09,1.68943210e+01,1.0,.250,sky130
7.00000000e-09,1.18239850e-07,7.00000000e-09,6.99950539e-09,7.00000000e-09,6.11887005e-16,7.00000000e-09,-2.22204847e-16,7.00000000e-09,4.67397954e-19,7.00000000e-09,1.06147637e-16,7.00000000e-09,1.59031227e-16,7.00000000e-09,-1.80693725e-19,7.00000000e-09,6.03550119e-09,7.00000000e-09,8.91453790e-01,7.00000000e-09,3.81898909e-02,7.00000000e-09,6.16878908e-01,7.00000000e-09,6.16878906e-01,7.00000000e-09,1.65686323e+08,7.00000000e-09,1.93238047e+08,7.00000000e-09,3.07547904e+07,7.00000000e-09,1.68926007e+01,1.0,.250,sky130
7.50000000e-09,1.26676612e-07,7.50000000e-09,7.49947643e-09,7.50000000e-09,6.16342269e-16,7.50000000e-09,-2.28562534e-16,7.50000000e-09,4.81756399e-19,7.50000000e-09,1.09083186e-16,7.50000000e-09,1.63430979e-16,7.50000000e-09,-1.86732013e-19,7.50000000e-09,6.44522701e-09,7.50000000e-09,8.91442384e-01,7.50000000e-09,3.82245590e-02,7.50000000e-09,6.20765262e-01,7.50000000e-09,6.20765260e-01,7.50000000e-09,1.55153573e+08,7.50000000e-09,2.05529653e+08,7.50000000e-09,3.27110602e+07,7.50000000e-09,1.68913942e+01,1.0,.250,sky130
8.00000000e-09,1.35115599e-07,8.00000000e-09,7.99945454e-09,8.00000000e-09,6.20624460e-16,8.00000000e-09,-2.34641630e-16,8.00000000e-09,4.95495426e-19,8.00000000e-09,1.11886979e-16,8.00000000e-09,1.67633286e-16,8.00000000e-09,-1.92505572e-19,8.00000000e-09,6.85355892e-09,8.00000000e-09,8.91431711e-01,8.00000000e-09,3.82590925e-02,8.00000000e-09,6.24401519e-01,8.00000000e-09,6.24401517e-01,8.00000000e-09,1.45909594e+08,8.00000000e-09,2.17709111e+08,8.00000000e-09,3.46494811e+07,8.00000000e-09,1.68906015e+01,1.0,.250,sky130
8.50000000e-09,1.43556723e-07,8.50000000e-09,8.49943631e-09,8.50000000e-09,6.24748521e-16,8.50000000e-09,-2.40468890e-16,8.50000000e-09,5.08673978e-19,8.50000000e-09,1.14571818e-16,8.50000000e-09,1.71657329e-16,8.50000000e-09,-1.98039712e-19,8.50000000e-09,7.26057214e-09,8.50000000e-09,8.91421684e-01,8.50000000e-09,3.82934987e-02,8.50000000e-09,6.27817895e-01,8.50000000e-09,6.27817893e-01,8.50000000e-09,1.37730193e+08,8.50000000e-09,2.29783214e+08,8.50000000e-09,3.65711344e+07,8.50000000e-09,1.68901464e+01,1.0,.250,sky130
9.00000000e-09,1.51999964e-07,9.00000000e-09,8.99942225e-09,9.00000000e-09,6.28727431e-16,9.00000000e-09,-2.46067181e-16,9.00000000e-09,5.21342490e-19,9.00000000e-09,1.17148629e-16,9.00000000e-09,1.75519481e-16,9.00000000e-09,-2.03356079e-19,9.00000000e-09,7.66633578e-09,9.00000000e-09,8.91412229e-01,9.00000000e-09,3.83277839e-02,9.00000000e-09,6.31039461e-01,9.00000000e-09,6.31039458e-01,9.00000000e-09,1.30440412e+08,9.00000000e-09,2.41758124e+08,9.00000000e-09,3.84770005e+07,9.00000000e-09,1.68899692e+01,1.0,.250,sky130
9.50000000e-09,1.60445270e-07,9.50000000e-09,9.49941099e-09,9.50000000e-09,6.32572510e-16,9.50000000e-09,-2.51456175e-16,9.50000000e-09,5.33544385e-19,9.50000000e-09,1.19626802e-16,9.50000000e-09,1.79233814e-16,9.50000000e-09,-2.08473304e-19,9.50000000e-09,8.07090956e-09,9.50000000e-09,8.91403284e-01,9.50000000e-09,3.83619538e-02,9.50000000e-09,6.34087218e-01,9.50000000e-09,6.34087215e-01,9.50000000e-09,1.23901772e+08,9.50000000e-09,2.53639334e+08,9.50000000e-09,4.03679537e+07,9.50000000e-09,1.68900230e+01,1.0,.250,sky130
1.00000000e-08,1.68899040e-07,1.00000000e-08,9.99978302e-09,1.00000000e-08,6.36296506e-16,1.00000000e-08,-2.56656850e-16,1.00000000e-08,5.45326232e-19,1.00000000e-08,1.22016272e-16,1.00000000e-08,1.82815215e-16,1.00000000e-08,-2.13411275e-19,1.00000000e-08,8.47465441e-09,1.00000000e-08,8.91394790e-01,1.00000000e-08,3.83960395e-02,1.00000000e-08,6.36981096e-01,1.00000000e-08,6.36981093e-01,1.00000000e-08,1.17998912e+08,1.00000000e-08,2.65440778e+08,1.00000000e-08,4.22462119e+07,1.00000000e-08,1.68902704e+01,1.0,.250,sky130
1.50000000e-08,2.54567561e-07,1.50000000e-08,1.50641835e-08,1.50000000e-08,6.68606880e-16,1.50000000e-08,-3.01130372e-16,1.50000000e-08,6.46312668e-19,1.50000000e-08,1.42369939e-16,1.50000000e-08,2.13322489e-16,1.50000000e-08,-2.55611626e-19,1.50000000e-08,1.25060591e-08,1.50000000e-08,8.91326968e-01,1.50000000e-08,3.87356737e-02,1.50000000e-08,6.60088788e-01,1.50000000e-08,6.60088783e-01,1.50000000e-08,7.99612407e+07,1.50000000e-08,3.80743256e+08,1.50000000e-08,6.05971713e+07,1.50000000e-08,1.68988622e+01,1.0,.250,sky130
2.00000000e-08,3.40824557e-07,2.00000000e-08,2.01530293e-08,2.00000000e-08,6.94342842e-16,2.00000000e-08,-3.35897301e-16,2.00000000e-08,7.25516143e-19,2.00000000e-08,1.58189077e-16,2.00000000e-08,2.37033888e-16,2.00000000e-08,-2.88552486e-19,2.00000000e-08,1.64752489e-08,2.00000000e-08,8.91278787e-01,2.00000000e-08,3.90689460e-02,2.00000000e-08,6.76504747e-01,2.00000000e-08,6.76504741e-01,2.00000000e-08,6.06971102e+07,2.00000000e-08,4.90859178e+08,2.00000000e-08,7.81226645e+07,2.00000000e-08,1.69118276e+01,1.0,.250,sky130
2.50000000e-08,4.24298420e-07,2.50000000e-08,2.50691494e-08,2.50000000e-08,7.15133398e-16,2.50000000e-08,-3.63659294e-16,2.50000000e-08,7.88901039e-19,2.50000000e-08,1.70767687e-16,2.50000000e-08,2.55888462e-16,2.50000000e-08,-3.14814440e-19,2.50000000e-08,2.02477518e-08,2.50000000e-08,8.91242654e-01,2.50000000e-08,3.93847940e-02,2.50000000e-08,6.88815687e-01,2.50000000e-08,6.88815680e-01,2.50000000e-08,4.93881992e+07,2.50000000e-08,5.93313669e+08,2.50000000e-08,9.44288032e+07,2.50000000e-08,1.69251223e+01,1.0,.250,sky130
3.00000000e-08,5.08515216e-07,3.00000000e-08,3.00216478e-08,3.00000000e-08,7.33233254e-16,3.00000000e-08,-3.87633558e-16,3.00000000e-08,8.43726615e-19,3.00000000e-08,1.81594366e-16,3.00000000e-08,2.72117275e-16,3.00000000e-08,-3.37457840e-19,3.00000000e-08,2.39958798e-08,3.00000000e-08,8.91212819e-01,3.00000000e-08,3.96977960e-02,3.00000000e-08,6.98980911e-01,3.00000000e-08,6.98980902e-01,3.00000000e-08,4.16738211e+07,3.00000000e-08,6.93524487e+08,3.00000000e-08,1.10377850e+08,3.00000000e-08,1.69382846e+01,1.0,.250,sky130
3.50000000e-08,5.93484860e-07,3.50000000e-08,3.50118969e-08,3.50000000e-08,7.49308527e-16,3.50000000e-08,-4.08794702e-16,3.50000000e-08,8.92180959e-19,3.50000000e-08,1.91124381e-16,3.50000000e-08,2.86402638e-16,3.50000000e-08,-3.57413648e-19,3.50000000e-08,2.77258063e-08,3.50000000e-08,8.91187379e-01,3.50000000e-08,4.00085313e-02,3.50000000e-08,7.07648788e-01,3.50000000e-08,7.07648778e-01,3.50000000e-08,3.60674813e+07,3.50000000e-08,7.92043382e+08,3.50000000e-08,1.26057619e+08,3.50000000e-08,1.69509485e+01,1.0,.250,sky130
4.00000000e-08,6.78647194e-07,4.00000000e-08,4.00077712e-08,4.00000000e-08,7.63706776e-16,4.00000000e-08,-4.27654919e-16,4.00000000e-08,9.35411683e-19,4.00000000e-08,1.99598172e-16,4.00000000e-08,2.99104891e-16,4.00000000e-08,-3.75173202e-19,4.00000000e-08,3.14175629e-08,4.00000000e-08,8.91165318e-01,4.00000000e-08,4.03153903e-02,4.00000000e-08,7.15165406e-01,4.00000000e-08,7.15165394e-01,4.00000000e-08,3.18293307e+07,4.00000000e-08,8.88622722e+08,4.00000000e-08,1.41428699e+08,4.00000000e-08,1.69628843e+01,1.0,.250,sky130
4.50000000e-08,7.63915042e-07,4.50000000e-08,4.50049194e-08,4.50000000e-08,7.76745300e-16,4.50000000e-08,-4.44665049e-16,4.50000000e-08,9.74435428e-19,4.50000000e-08,2.07225067e-16,4.50000000e-08,3.10537763e-16,4.50000000e-08,-3.91167791e-19,4.50000000e-08,3.50714328e-08,4.50000000e-08,8.91145857e-01,4.50000000e-08,4.06184469e-02,4.50000000e-08,7.21796018e-01,4.50000000e-08,7.21796005e-01,4.50000000e-08,2.85132349e+07,4.50000000e-08,9.83482026e+08,4.50000000e-08,1.56526026e+08,4.50000000e-08,1.69740342e+01,1.0,.250,sky130
5.00000000e-08,8.49273518e-07,5.00000000e-08,5.00031693e-08,5.00000000e-08,7.88664241e-16,5.00000000e-08,-4.60161779e-16,5.00000000e-08,1.01001321e-18,5.00000000e-08,2.14160796e-16,5.00000000e-08,3.20934662e-16,5.00000000e-08,-4.05719365e-19,5.00000000e-08,3.86901249e-08,5.00000000e-08,8.91128449e-01,5.00000000e-08,4.09179686e-02,5.00000000e-08,7.27727323e-01,5.00000000e-08,7.27727309e-01,5.00000000e-08,2.58463885e+07,5.00000000e-08,1.07685055e+09,5.00000000e-08,1.71386087e+08,5.00000000e-08,1.69843938e+01,1.0,.250,sky130
5.50000000e-08,9.34704049e-07,5.50000000e-08,5.50020756e-08,5.50000000e-08,7.99643082e-16,5.50000000e-08,-4.74394705e-16,5.50000000e-08,1.04271000e-18,5.50000000e-08,2.20520548e-16,5.50000000e-08,3.30468232e-16,5.50000000e-08,-4.19066604e-19,5.50000000e-08,4.22756502e-08,5.50000000e-08,8.91112702e-01,5.50000000e-08,4.12141583e-02,5.50000000e-08,7.33092332e-01,5.50000000e-08,7.33092316e-01,5.50000000e-08,2.36542784e+07,5.50000000e-08,1.16890156e+09,5.50000000e-08,1.86036462e+08,5.50000000e-08,1.69939778e+01,1.0,.250,sky130
6.00000000e-08,1.02019162e-06,6.00000000e-08,6.00013515e-08,6.00000000e-08,8.09820539e-16,6.00000000e-08,-4.87555341e-16,6.00000000e-08,1.07295991e-18,6.00000000e-08,2.26392518e-16,6.00000000e-08,3.39270660e-16,6.00000000e-08,-4.31392624e-19,6.00000000e-08,4.58297709e-08,6.00000000e-08,8.91098329e-01,6.00000000e-08,4.15071936e-02,6.00000000e-08,7.37989492e-01,6.00000000e-08,7.37989475e-01,6.00000000e-08,2.18198778e+07,6.00000000e-08,1.25977494e+09,6.00000000e-08,2.00499409e+08,6.00000000e-08,1.70028107e+01,1.0,.250,sky130
6.50000000e-08,1.10572441e-06,6.50000000e-08,6.50008536e-08,6.50000000e-08,8.19306277e-16,6.50000000e-08,-4.99794166e-16,6.50000000e-08,1.10110444e-18,6.50000000e-08,2.31845866e-16,6.50000000e-08,3.47445607e-16,6.50000000e-08,-4.42841274e-19,6.50000000e-08,4.93540742e-08,6.50000000e-08,8.91085110e-01,6.50000000e-08,4.17972339e-02,6.50000000e-08,7.42493735e-01,6.50000000e-08,7.42493716e-01,6.50000000e-08,2.02617518e+07,6.50000000e-08,1.34958616e+09,6.50000000e-08,2.14793308e+08,6.50000000e-08,1.70109214e+01,1.0,.250,sky130
7.00000000e-08,1.19129228e-06,7.00000000e-08,7.00004980e-08,7.00000000e-08,8.28188535e-16,7.00000000e-08,-5.11231618e-16,7.00000000e-08,1.12741720e-18,7.00000000e-08,2.36935847e-16,7.00000000e-08,3.55075891e-16,7.00000000e-08,-4.53527651e-19,7.00000000e-08,5.28499721e-08,7.00000000e-08,8.91072872e-01,7.00000000e-08,4.20844207e-02,7.00000000e-08,7.46663375e-01,7.00000000e-08,7.46663355e-01,7.00000000e-08,1.89214859e+07,7.00000000e-08,1.43843126e+09,7.00000000e-08,2.28933446e+08,7.00000000e-08,1.70183401e+01,1.0,.250,sky130
7.50000000e-08,1.27688635e-06,7.50000000e-08,7.50002401e-08,7.50000000e-08,8.36539432e-16,7.50000000e-08,-5.21965679e-16,7.50000000e-08,1.15212099e-18,7.50000000e-08,2.41707341e-16,7.50000000e-08,3.62228781e-16,7.50000000e-08,-4.63545371e-19,7.50000000e-08,5.63187303e-08,7.50000000e-08,8.91061480e-01,7.50000000e-08,4.23688811e-02,7.50000000e-08,7.50544678e-01,7.50000000e-08,7.50544656e-01,7.50000000e-08,1.77560821e+07,7.50000000e-08,1.52639110e+09,7.50000000e-08,2.42932689e+08,7.50000000e-08,1.70250968e+01,1.0,.250,sky130
8.00000000e-08,1.36249845e-06,8.00000000e-08,8.00000459e-08,8.00000000e-08,8.44418694e-16,8.00000000e-08,-5.32077164e-16,8.00000000e-08,1.17539974e-18,8.00000000e-08,2.46197309e-16,8.00000000e-08,3.68959678e-16,8.00000000e-08,-4.72971621e-19,8.00000000e-08,5.97614805e-08,8.00000000e-08,8.91050826e-01,8.00000000e-08,4.26507289e-02,8.00000000e-08,7.54174950e-01,8.00000000e-08,7.54174927e-01,8.00000000e-08,1.67331865e+07,8.00000000e-08,1.61353421e+09,8.00000000e-08,2.56801945e+08,8.00000000e-08,1.70312208e+01,1.0,.250,sky130
8.50000000e-08,1.44812119e-06,8.50000000e-08,8.49998982e-08,8.50000000e-08,8.51876390e-16,8.50000000e-08,-5.41633572e-16,8.50000000e-08,1.19740721e-18,8.50000000e-08,2.50436582e-16,8.50000000e-08,3.75314792e-16,8.50000000e-08,-4.81870848e-19,8.50000000e-08,6.31792497e-08,8.50000000e-08,8.91040818e-01,8.50000000e-08,4.29300675e-02,8.50000000e-08,7.57584721e-01,8.50000000e-08,7.57584696e-01,8.50000000e-08,1.58279816e+07,8.50000000e-08,1.69991938e+09,8.50000000e-08,2.70550573e+08,8.50000000e-08,1.70367403e+01,1.0,.250,sky130
9.00000000e-08,1.53374767e-06,9.00000000e-08,8.99997829e-08,9.00000000e-08,8.58954918e-16,9.00000000e-08,-5.50691876e-16,9.00000000e-08,1.21827325e-18,9.00000000e-08,2.54451145e-16,9.00000000e-08,3.81333072e-16,9.00000000e-08,-4.90297431e-19,9.00000000e-08,6.65729691e-08,9.00000000e-08,8.91031384e-01,9.00000000e-08,4.32069909e-02,9.00000000e-08,7.60799279e-01,9.00000000e-08,7.60799253e-01,9.00000000e-08,1.50211116e+07,9.00000000e-08,1.78559740e+09,9.00000000e-08,2.84186653e+08,9.00000000e-08,1.70416819e+01,1.0,.250,sky130
9.50000000e-08,1.61937149e-06,9.50000000e-08,9.49996921e-08,9.50000000e-08,8.65690521e-16,9.50000000e-08,-5.59300632e-16,9.50000000e-08,1.23810862e-18,9.50000000e-08,2.58263120e-16,9.50000000e-08,3.87047678e-16,9.50000000e-08,-4.98297697e-19,9.50000000e-08,6.99434915e-08,9.50000000e-08,8.91022460e-01,9.50000000e-08,4.34815853e-02,9.50000000e-08,7.63839812e-01,9.50000000e-08,7.63839785e-01,9.50000000e-08,1.42972560e+07,9.50000000e-08,1.87061248e+09,9.50000000e-08,2.97717222e+08,9.50000000e-08,1.70460709e+01,1.0,.250,sky130
1.00000000e-07,1.70508500e-06,1.00000000e-07,1.00005364e-07,1.00000000e-07,8.72121643e-16,1.00000000e-07,-5.67510769e-16,1.00000000e-07,1.25702975e-18,1.00000000e-07,2.61895567e-16,1.00000000e-07,3.92493174e-16,1.00000000e-07,-5.05919985e-19,1.00000000e-07,7.32954337e-08,1.00000000e-07,8.91013985e-01,1.00000000e-07,4.37542416e-02,1.00000000e-07,7.66727474e-01,1.00000000e-07,7.66727445e-01,1.00000000e-07,1.36434147e+07,1.00000000e-07,1.95509998e+09,1.00000000e-07,3.11163825e+08,1.00000000e-07,1.70499355e+01,1.0,.250,sky130
