isweep,gm,i_id,id,i_cgg,cgg,i_cgs,cgs,i_cgd,cgd,i_cds,cds,i_css,css,i_cdd,cdd,i_gds,gds,i_vth,vth,i_vdsat,vdsat,i_vgs,vgs,i_vds,vds,i_rds,rds,i_wt,wt,i_ft,ft,i_kgm,kgm,W,L,pdk
1.00000000e-09,2.55497032e-08,1.00000000e-09,9.99421233e-10,1.00000000e-09,6.59743404e-16,1.00000000e-09,-2.27130791e-16,1.00000000e-09,1.63724901e-19,1.00000000e-09,1.13258359e-16,1.00000000e-09,1.69674774e-16,1.00000000e-09,-1.89914376e-20,1.00000000e-09,6.78407958e-10,1.00000000e-09,8.88165776e-01,1.00000000e-09,4.49425181e-02,1.00000000e-09,5.79506197e-01,1.00000000e-09,5.79506197e-01,1.00000000e-09,1.47403931e+09,1.00000000e-09,3.87267278e+07,1.00000000e-09,6.16355015e+06,1.00000000e-09,2.55644991e+01,1.0,.250,sky130
1.50000000e-09,3.77463002e-08,1.50000000e-09,1.50490517e-09,1.50000000e-09,6.74457575e-16,1.50000000e-09,-2.49746393e-16,1.50000000e-09,1.85411215e-19,1.50000000e-09,1.24067239e-16,1.50000000e-09,1.85875567e-16,1.50000000e-09,-2.73265623e-20,1.50000000e-09,1.00921669e-09,1.50000000e-09,8.88144341e-01,1.50000000e-09,4.50112202e-02,1.50000000e-09,5.95246883e-01,1.50000000e-09,5.95246882e-01,1.50000000e-09,9.90867483e+08,1.50000000e-09,5.59654181e+07,1.50000000e-09,8.90717294e+06,1.50000000e-09,2.50821786e+01,1.0,.250,sky130
2.00000000e-09,4.96849625e-08,2.00000000e-09,2.01189101e-09,2.00000000e-09,6.85992213e-16,2.00000000e-09,-2.67126475e-16,2.00000000e-09,2.02105761e-19,2.00000000e-09,1.32343500e-16,2.00000000e-09,1.98280631e-16,2.00000000e-09,-3.37139808e-20,2.00000000e-09,1.33718370e-09,2.00000000e-09,8.88128872e-01,2.00000000e-09,4.50793891e-02,2.00000000e-09,6.06606594e-01,2.00000000e-09,6.06606593e-01,2.00000000e-09,7.47840407e+08,2.00000000e-09,7.24278812e+07,2.00000000e-09,1.15272553e+07,2.00000000e-09,2.46956531e+01,1.0,.250,sky130
2.50000000e-09,6.10641328e-08,2.50000000e-09,2.50482103e-09,2.50000000e-09,6.95347163e-16,2.50000000e-09,-2.81037467e-16,2.50000000e-09,2.15485885e-19,2.50000000e-09,1.38949880e-16,2.50000000e-09,2.08182906e-16,2.50000000e-09,-3.88169058e-20,2.50000000e-09,1.65318490e-09,2.50000000e-09,8.88117030e-01,2.50000000e-09,4.51451094e-02,2.50000000e-09,6.15302381e-01,2.50000000e-09,6.15302380e-01,2.50000000e-09,6.04893017e+08,2.50000000e-09,8.78181951e+07,2.50000000e-09,1.39766998e+07,2.50000000e-09,2.43786411e+01,1.0,.250,sky130
3.00000000e-09,7.23302527e-08,3.00000000e-09,3.00118284e-09,3.00000000e-09,7.03509395e-16,3.00000000e-09,-2.93057824e-16,3.00000000e-09,2.27060017e-19,3.00000000e-09,1.44646096e-16,3.00000000e-09,2.16721042e-16,3.00000000e-09,-4.32200486e-20,3.00000000e-09,1.96899642e-09,3.00000000e-09,8.88107142e-01,3.00000000e-09,4.52108184e-02,3.00000000e-09,6.22563389e-01,3.00000000e-09,6.22563388e-01,3.00000000e-09,5.07872940e+08,3.00000000e-09,1.02813485e+08,3.00000000e-09,1.63632744e+07,3.00000000e-09,2.41005819e+01,1.0,.250,sky130
3.50000000e-09,8.34921165e-08,3.50000000e-09,3.50039237e-09,3.50000000e-09,7.10787449e-16,3.50000000e-09,-3.03693960e-16,3.50000000e-09,2.37310716e-19,3.50000000e-09,1.49677172e-16,3.50000000e-09,2.24262266e-16,3.50000000e-09,-4.71115381e-20,3.50000000e-09,2.28452058e-09,3.50000000e-09,8.88098636e-01,3.50000000e-09,4.52764889e-02,3.50000000e-09,6.28810225e-01,3.50000000e-09,6.28810224e-01,3.50000000e-09,4.37728602e+08,3.50000000e-09,1.17464253e+08,3.50000000e-09,1.86950165e+07,3.50000000e-09,2.38522164e+01,1.0,.250,sky130
4.00000000e-09,9.45138091e-08,4.00000000e-09,4.00003276e-09,4.00000000e-09,7.17354798e-16,4.00000000e-09,-3.13231037e-16,4.00000000e-09,2.46509481e-19,4.00000000e-09,1.54181249e-16,4.00000000e-09,2.31013613e-16,4.00000000e-09,-5.05973193e-20,4.00000000e-09,2.59844189e-09,4.00000000e-09,8.88091187e-01,4.00000000e-09,4.53418417e-02,4.00000000e-09,6.34280391e-01,4.00000000e-09,6.34280390e-01,4.00000000e-09,3.84846012e+08,4.00000000e-09,1.31753226e+08,4.00000000e-09,2.09691772e+07,4.00000000e-09,2.36282588e+01,1.0,.250,sky130
4.50000000e-09,1.05404054e-07,4.50000000e-09,4.49979832e-09,4.50000000e-09,7.23353713e-16,4.50000000e-09,-3.21896425e-16,4.50000000e-09,2.54873286e-19,4.50000000e-09,1.58267952e-16,4.50000000e-09,2.37139386e-16,4.50000000e-09,-5.37615789e-20,4.50000000e-09,2.91074230e-09,4.50000000e-09,8.88084555e-01,4.50000000e-09,4.54068689e-02,4.50000000e-09,6.39150339e-01,4.50000000e-09,6.39150337e-01,4.50000000e-09,3.43554976e+08,4.50000000e-09,1.45715785e+08,4.50000000e-09,2.31913875e+07,4.50000000e-09,2.34241730e+01,1.0,.250,sky130
5.00000000e-09,1.16174867e-07,5.00000000e-09,4.99965685e-09,5.00000000e-09,7.28888119e-16,5.00000000e-09,-3.29854366e-16,5.00000000e-09,2.62559002e-19,5.00000000e-09,1.62016335e-16,5.00000000e-09,2.42758070e-16,5.00000000e-09,-5.66650532e-20,5.00000000e-09,3.22154006e-09,5.00000000e-09,8.88078572e-01,5.00000000e-09,4.54715916e-02,5.00000000e-09,6.43543717e-01,5.00000000e-09,6.43543715e-01,5.00000000e-09,3.10410544e+08,5.00000000e-09,1.59386419e+08,5.00000000e-09,2.53671364e+07,5.00000000e-09,2.32365681e+01,1.0,.250,sky130
5.50000000e-09,1.26835975e-07,5.50000000e-09,5.49956771e-09,5.50000000e-09,7.34034580e-16,5.50000000e-09,-3.37224975e-16,5.50000000e-09,2.69681410e-19,5.50000000e-09,1.65484148e-16,5.50000000e-09,2.47956222e-16,5.50000000e-09,-5.93521270e-20,5.50000000e-09,3.53092220e-09,5.50000000e-09,8.88073118e-01,5.50000000e-09,4.55360253e-02,5.50000000e-09,6.47549084e-01,5.50000000e-09,6.47549082e-01,5.50000000e-09,2.83212130e+08,5.50000000e-09,1.72792915e+08,5.50000000e-09,2.75008465e+07,5.50000000e-09,2.30628990e+01,1.0,.250,sky130
6.00000000e-09,1.37395868e-07,6.00000000e-09,5.99950721e-09,6.00000000e-09,7.38851496e-16,6.00000000e-09,-3.44099259e-16,6.00000000e-09,2.76327523e-19,6.00000000e-09,1.68715101e-16,6.00000000e-09,2.52799353e-16,6.00000000e-09,-6.18564065e-20,6.00000000e-09,3.83896729e-09,6.00000000e-09,8.88068102e-01,6.00000000e-09,4.56001839e-02,6.00000000e-09,6.51232242e-01,6.00000000e-09,6.51232241e-01,6.00000000e-09,2.60486720e+08,6.00000000e-09,1.85958705e+08,6.00000000e-09,2.95962472e+07,6.00000000e-09,2.29011922e+01,1.0,.250,sky130
6.50000000e-09,1.47862068e-07,6.50000000e-09,6.49946535e-09,6.50000000e-09,7.43384539e-16,6.50000000e-09,-3.50547970e-16,6.50000000e-09,2.82565022e-19,6.50000000e-09,1.71743144e-16,6.50000000e-09,2.57338349e-16,6.50000000e-09,-6.42040050e-20,6.50000000e-09,4.14574792e-09,6.50000000e-09,8.88063457e-01,6.50000000e-09,4.56640808e-02,6.50000000e-09,6.54643459e-01,6.50000000e-09,6.54643457e-01,6.50000000e-09,2.41210999e+08,6.50000000e-09,1.98903879e+08,6.50000000e-09,3.16565355e+07,6.50000000e-09,2.27498817e+01,1.0,.250,sky130
7.00000000e-09,1.58241161e-07,7.00000000e-09,6.99943566e-09,7.00000000e-09,7.47670110e-16,7.00000000e-09,-3.56627216e-16,7.00000000e-09,2.88447604e-19,7.00000000e-09,1.74595176e-16,7.00000000e-09,2.61613527e-16,7.00000000e-09,-6.64156210e-20,7.00000000e-09,4.45132760e-09,7.00000000e-09,8.88059129e-01,7.00000000e-09,4.57277275e-02,7.00000000e-09,6.57821975e-01,7.00000000e-09,6.57821973e-01,7.00000000e-09,2.24652079e+08,7.00000000e-09,2.11645696e+08,7.00000000e-09,3.36844587e+07,7.00000000e-09,2.26077027e+01,1.0,.250,sky130
7.50000000e-09,1.68538936e-07,7.50000000e-09,7.49941283e-09,7.50000000e-09,7.51737730e-16,7.50000000e-09,-3.62382285e-16,7.50000000e-09,2.94018631e-19,7.50000000e-09,1.77292894e-16,7.50000000e-09,2.65657405e-16,7.50000000e-09,-6.85079557e-20,7.50000000e-09,4.75576167e-09,7.50000000e-09,8.88055075e-01,7.50000000e-09,4.57911340e-02,7.50000000e-09,6.60799013e-01,7.50000000e-09,6.60799011e-01,7.50000000e-09,2.10271260e+08,7.50000000e-09,2.24199118e+08,7.50000000e-09,3.56823979e+07,7.50000000e-09,2.24736176e+01,1.0,.250,sky130
8.00000000e-09,1.78760599e-07,8.00000000e-09,7.99939605e-09,8.00000000e-09,7.55611724e-16,8.00000000e-09,-3.67850341e-16,8.00000000e-09,2.99313700e-19,8.00000000e-09,1.79854088e-16,8.00000000e-09,2.69496649e-16,8.00000000e-09,-7.04947095e-20,8.00000000e-09,5.05910103e-09,8.00000000e-09,8.88051261e-01,8.00000000e-09,4.58543099e-02,8.00000000e-09,6.63599856e-01,8.00000000e-09,6.63599854e-01,8.00000000e-09,1.97663576e+08,8.00000000e-09,2.36577323e+08,8.00000000e-09,3.76524503e+07,8.00000000e-09,2.23467619e+01,1.0,.250,sky130
8.50000000e-09,1.88910741e-07,8.50000000e-09,8.49938223e-09,8.50000000e-09,7.59312359e-16,8.50000000e-09,-3.73062230e-16,8.50000000e-09,3.04362367e-19,8.50000000e-09,1.82293514e-16,8.50000000e-09,2.73153377e-16,8.50000000e-09,-7.23872508e-20,8.50000000e-09,5.36138933e-09,8.50000000e-09,8.88047658e-01,8.50000000e-09,4.59172631e-02,8.50000000e-09,6.66245235e-01,8.50000000e-09,6.66245232e-01,8.50000000e-09,1.86518818e+08,8.50000000e-09,2.48791870e+08,8.50000000e-09,3.95964558e+07,8.50000000e-09,2.22264085e+01,1.0,.250,sky130
9.00000000e-09,1.98993524e-07,9.00000000e-09,8.99937047e-09,9.00000000e-09,7.62856742e-16,9.00000000e-09,-3.78043899e-16,9.00000000e-09,3.09189505e-19,9.00000000e-09,1.84623578e-16,9.00000000e-09,2.76646180e-16,9.00000000e-09,-7.41951398e-20,9.00000000e-09,5.66266669e-09,9.00000000e-09,8.88044244e-01,9.00000000e-09,4.59800011e-02,9.00000000e-09,6.68752389e-01,9.00000000e-09,6.68752386e-01,9.00000000e-09,1.76595243e+08,9.00000000e-09,2.60853071e+08,9.00000000e-09,4.15160557e+07,9.00000000e-09,2.21119382e+01,1.0,.250,sky130
9.50000000e-09,2.09012741e-07,9.50000000e-09,9.49936203e-09,9.50000000e-09,7.66259461e-16,9.50000000e-09,-3.82817401e-16,9.50000000e-09,3.13816261e-19,9.50000000e-09,1.86854815e-16,9.50000000e-09,2.79990853e-16,9.50000000e-09,-7.59265001e-20,9.50000000e-09,5.96297041e-09,9.50000000e-09,8.88040998e-01,9.50000000e-09,4.60425307e-02,9.50000000e-09,6.71135811e-01,9.50000000e-09,6.71135808e-01,9.50000000e-09,1.67701654e+08,9.50000000e-09,2.72770193e+08,9.50000000e-09,4.34127245e+07,9.50000000e-09,2.20028187e+01,1.0,.250,sky130
1.00000000e-08,2.18971381e-07,1.00000000e-08,9.99933531e-09,1.00000000e-08,7.69532909e-16,1.00000000e-08,-3.87401431e-16,1.00000000e-08,3.18260564e-19,1.00000000e-08,1.88996155e-16,1.00000000e-08,2.83200778e-16,1.00000000e-08,-7.75882179e-20,1.00000000e-08,6.26232066e-09,1.00000000e-08,8.88037905e-01,1.00000000e-08,4.61048556e-02,1.00000000e-08,6.73407695e-01,1.00000000e-08,6.73407692e-01,1.00000000e-08,1.59685212e+08,1.00000000e-08,2.84551029e+08,1.00000000e-08,4.52877029e+07,1.00000000e-08,2.18985937e+01,1.0,.250,sky130
1.50000000e-08,3.16690925e-07,1.50000000e-08,1.50449521e-08,1.50000000e-08,7.97234113e-16,1.50000000e-08,-4.25903238e-16,1.50000000e-08,3.55631510e-19,1.50000000e-08,2.06931385e-16,1.50000000e-08,3.10086533e-16,1.50000000e-08,-9.15075159e-20,1.50000000e-08,9.23626359e-09,1.50000000e-08,8.88012725e-01,1.50000000e-08,4.67235622e-02,1.50000000e-08,6.91898059e-01,1.50000000e-08,6.91898054e-01,1.50000000e-08,1.08268889e+08,1.50000000e-08,3.97237047e+08,1.50000000e-08,6.32222396e+07,1.50000000e-08,2.10496466e+01,1.0,.250,sky130
2.00000000e-08,4.10821864e-07,2.00000000e-08,2.01014027e-08,2.00000000e-08,8.18708631e-16,2.00000000e-08,-4.55438939e-16,2.00000000e-08,3.84345079e-19,2.00000000e-08,2.20631577e-16,2.00000000e-08,3.30624201e-16,2.00000000e-08,-1.02135531e-19,2.00000000e-08,1.21433853e-08,2.00000000e-08,8.87994246e-01,2.00000000e-08,4.73272775e-02,2.00000000e-08,7.05468544e-01,2.00000000e-08,7.05468539e-01,2.00000000e-08,8.23493597e+07,2.00000000e-08,5.01792516e+08,2.00000000e-08,7.98627594e+07,2.00000000e-08,2.04374724e+01,1.0,.250,sky130
2.50000000e-08,5.00249689e-07,2.50000000e-08,2.50435815e-08,2.50000000e-08,8.36050276e-16,2.50000000e-08,-4.79121316e-16,2.50000000e-08,4.07391745e-19,2.50000000e-08,2.31581718e-16,2.50000000e-08,3.47039586e-16,2.50000000e-08,-1.10622428e-19,2.50000000e-08,1.49254232e-08,2.50000000e-08,8.87979858e-01,2.50000000e-08,4.79037943e-02,2.50000000e-08,7.16034596e-01,2.50000000e-08,7.16034589e-01,2.50000000e-08,6.69997752e+07,2.50000000e-08,5.98348812e+08,2.50000000e-08,9.52301710e+07,2.50000000e-08,1.99751656e+01,1.0,.250,sky130
3.00000000e-08,5.88284777e-07,3.00000000e-08,3.00150304e-08,3.00000000e-08,8.51024927e-16,3.00000000e-08,-4.99463306e-16,3.00000000e-08,4.27201606e-19,3.00000000e-08,2.40963288e-16,3.00000000e-08,3.61103700e-16,3.00000000e-08,-1.17885240e-19,3.00000000e-08,1.76720928e-08,3.00000000e-08,8.87967758e-01,3.00000000e-08,4.84716944e-02,3.00000000e-08,7.24920377e-01,3.00000000e-08,7.24920369e-01,3.00000000e-08,5.65863935e+07,3.00000000e-08,6.91266211e+08,3.00000000e-08,1.10018434e+08,3.00000000e-08,1.95996729e+01,1.0,.250,sky130
3.50000000e-08,6.75188940e-07,3.50000000e-08,3.50083315e-08,3.50000000e-08,8.64241168e-16,3.50000000e-08,-5.17340921e-16,3.50000000e-08,4.44620415e-19,3.50000000e-08,2.49190397e-16,3.50000000e-08,3.73437269e-16,3.50000000e-08,-1.24246067e-19,3.50000000e-08,2.03838628e-08,3.50000000e-08,8.87957294e-01,3.50000000e-08,4.90310566e-02,3.50000000e-08,7.32604130e-01,3.50000000e-08,7.32604120e-01,3.50000000e-08,4.90584151e+07,3.50000000e-08,7.81250610e+08,3.50000000e-08,1.24339896e+08,3.50000000e-08,1.92865215e+01,1.0,.250,sky130
4.00000000e-08,7.60926074e-07,4.00000000e-08,4.00051756e-08,4.00000000e-08,8.76061885e-16,4.00000000e-08,-5.33275151e-16,4.00000000e-08,4.60151491e-19,4.00000000e-08,2.56509330e-16,4.00000000e-08,3.84409459e-16,4.00000000e-08,-1.29896924e-19,4.00000000e-08,2.30546029e-08,4.00000000e-08,8.87948087e-01,4.00000000e-08,4.95806313e-02,4.00000000e-08,7.39365837e-01,4.00000000e-08,7.39365825e-01,4.00000000e-08,4.33752863e+07,4.00000000e-08,8.68575711e+08,4.00000000e-08,1.38238118e+08,4.00000000e-08,1.90206908e+01,1.0,.250,sky130
4.50000000e-08,8.45665791e-07,4.50000000e-08,4.50031884e-08,4.50000000e-08,8.86767466e-16,4.50000000e-08,-5.47663718e-16,4.50000000e-08,4.74179826e-19,4.50000000e-08,2.63107269e-16,4.50000000e-08,3.94300854e-16,4.50000000e-08,-1.34983833e-19,4.50000000e-08,2.56863507e-08,4.50000000e-08,8.87939857e-01,4.50000000e-08,5.01208726e-02,4.50000000e-08,7.45409544e-01,4.50000000e-08,7.45409531e-01,4.50000000e-08,3.89311823e+07,4.50000000e-08,9.53649998e+08,4.50000000e-08,1.51778111e+08,4.50000000e-08,1.87912417e+01,1.0,.250,sky130
5.00000000e-08,9.29558414e-07,5.00000000e-08,5.00019858e-08,5.00000000e-08,8.96561205e-16,5.00000000e-08,-5.60793347e-16,5.00000000e-08,4.86983259e-19,5.00000000e-08,2.69118897e-16,5.00000000e-08,4.03313341e-16,5.00000000e-08,-1.39611958e-19,5.00000000e-08,2.82816775e-08,5.00000000e-08,8.87932410e-01,5.00000000e-08,5.06523501e-02,5.00000000e-08,7.50878788e-01,5.00000000e-08,7.50878774e-01,5.00000000e-08,3.53585815e+07,5.00000000e-08,1.03680419e+09,5.00000000e-08,1.65012512e+08,5.00000000e-08,1.85904299e+01,1.0,.250,sky130
5.50000000e-08,1.01271764e-06,5.50000000e-08,5.50012278e-08,5.50000000e-08,9.05593458e-16,5.50000000e-08,-5.72875211e-16,5.50000000e-08,4.98766581e-19,5.50000000e-08,2.74643268e-16,5.50000000e-08,4.11595400e-16,5.50000000e-08,-1.43858712e-19,5.50000000e-08,3.08427697e-08,5.50000000e-08,8.87925603e-01,5.50000000e-08,5.11755565e-02,5.50000000e-08,7.55877289e-01,5.50000000e-08,7.55877273e-01,5.50000000e-08,3.24225097e+07,5.50000000e-08,1.11829170e+09,5.50000000e-08,1.77981651e+08,5.50000000e-08,1.84126370e+01,1.0,.250,sky130
6.00000000e-08,1.09523301e-06,6.00000000e-08,6.00007230e-08,6.00000000e-08,9.13979102e-16,6.00000000e-08,-5.84070046e-16,6.00000000e-08,5.09685793e-19,6.00000000e-08,2.79755677e-16,6.00000000e-08,4.19259900e-16,6.00000000e-08,-1.47782983e-19,6.00000000e-08,3.33715770e-08,6.00000000e-08,8.87919332e-01,6.00000000e-08,5.16909361e-02,6.00000000e-08,7.60482654e-01,6.00000000e-08,7.60482637e-01,6.00000000e-08,2.99656201e+07,6.00000000e-08,1.19831297e+09,6.00000000e-08,1.90717433e+08,6.00000000e-08,1.82536636e+01,1.0,.250,sky130
6.50000000e-08,1.17717607e-06,6.50000000e-08,6.50003741e-08,6.50000000e-08,9.21808089e-16,6.50000000e-08,-5.94503291e-16,6.50000000e-08,5.19862714e-19,6.50000000e-08,2.84514812e-16,6.50000000e-08,4.26394815e-16,6.50000000e-08,-1.51430701e-19,6.50000000e-08,3.58698484e-08,6.50000000e-08,8.87913515e-01,6.50000000e-08,5.21988913e-02,6.50000000e-08,7.64754527e-01,6.50000000e-08,7.64754508e-01,6.50000000e-08,2.78785678e+07,6.50000000e-08,1.27702944e+09,6.50000000e-08,2.03245548e+08,6.50000000e-08,1.81102969e+01,1.0,.250,sky130
7.00000000e-08,1.25860440e-06,7.00000000e-08,7.00001242e-08,7.00000000e-08,9.29152269e-16,7.00000000e-08,-6.04274841e-16,7.00000000e-08,5.29394423e-19,7.00000000e-08,2.88967358e-16,7.00000000e-08,4.33070128e-16,7.00000000e-08,-1.54838419e-19,7.00000000e-08,3.83391513e-08,7.00000000e-08,8.87908089e-01,7.00000000e-08,5.26997859e-02,7.00000000e-08,7.68739756e-01,7.00000000e-08,7.68739735e-01,7.00000000e-08,2.60829978e+07,7.00000000e-08,1.35457281e+09,7.00000000e-08,2.15586958e+08,7.00000000e-08,1.79800309e+01,1.0,.250,sky130
7.50000000e-08,1.33956484e-06,7.50000000e-08,7.49999412e-08,7.50000000e-08,9.36070031e-16,7.50000000e-08,-6.13465663e-16,7.50000000e-08,5.38359640e-19,7.50000000e-08,2.93151114e-16,7.50000000e-08,4.39342498e-16,7.50000000e-08,-1.58035747e-19,7.50000000e-08,4.07808994e-08,7.50000000e-08,8.87903001e-01,7.50000000e-08,5.31939504e-02,7.50000000e-08,7.72475839e-01,7.50000000e-08,7.72475817e-01,7.50000000e-08,2.45212836e+07,7.50000000e-08,1.43105194e+09,7.50000000e-08,2.27758990e+08,7.50000000e-08,1.78608785e+01,1.0,.250,sky130
8.00000000e-08,1.42009579e-06,8.00000000e-08,7.99998036e-08,8.00000000e-08,9.42609527e-16,8.00000000e-08,-6.22142358e-16,8.00000000e-08,5.46823155e-19,8.00000000e-08,2.97097140e-16,8.00000000e-08,4.45258489e-16,8.00000000e-08,-1.61047025e-19,8.00000000e-08,4.31963721e-08,8.00000000e-08,8.87898212e-01,8.00000000e-08,5.36816862e-02,8.00000000e-08,7.75993272e-01,8.00000000e-08,7.75993249e-01,8.00000000e-08,2.31500923e+07,8.00000000e-08,1.50655786e+09,8.00000000e-08,2.39776131e+08,8.00000000e-08,1.77512410e+01,1.0,.250,sky130
8.50000000e-08,1.50022904e-06,8.50000000e-08,8.49996972e-08,8.50000000e-08,9.48810974e-16,8.50000000e-08,-6.30360429e-16,8.50000000e-08,5.54838986e-19,8.50000000e-08,3.00831300e-16,8.50000000e-08,4.50856870e-16,8.50000000e-08,-1.63892525e-19,8.50000000e-08,4.55867349e-08,8.50000000e-08,8.87893686e-01,8.50000000e-08,5.41632696e-02,8.50000000e-08,7.79317204e-01,8.50000000e-08,7.79317179e-01,8.50000000e-08,2.19362058e+07,8.50000000e-08,1.58116746e+09,8.50000000e-08,2.51650617e+08,8.50000000e-08,1.76498163e+01,1.0,.250,sky130
9.00000000e-08,1.57999110e-06,9.00000000e-08,8.99996149e-08,9.00000000e-08,9.54708347e-16,9.00000000e-08,-6.38166666e-16,9.00000000e-08,5.62452687e-19,9.00000000e-08,3.04375374e-16,9.00000000e-08,4.56170290e-16,9.00000000e-08,-1.66589326e-19,9.00000000e-08,4.79530553e-08,9.00000000e-08,8.87889394e-01,9.00000000e-08,5.46389548e-02,9.00000000e-08,7.82468629e-01,9.00000000e-08,7.82468603e-01,9.00000000e-08,2.08537286e+07,9.00000000e-08,1.65494636e+09,9.00000000e-08,2.63392893e+08,9.00000000e-08,1.75555318e+01,1.0,.250,sky130
9.50000000e-08,1.65940421e-06,9.50000000e-08,9.49995482e-08,9.50000000e-08,9.60330617e-16,9.50000000e-08,-6.45600892e-16,9.50000000e-08,5.69703051e-19,9.50000000e-08,3.07747885e-16,9.50000000e-08,4.61226518e-16,9.50000000e-08,-1.69151953e-19,9.50000000e-08,5.02963125e-08,9.50000000e-08,8.87885314e-01,9.50000000e-08,5.51089766e-02,9.50000000e-08,7.85465260e-01,9.50000000e-08,7.85465232e-01,9.50000000e-08,1.98821733e+07,9.50000000e-08,1.72795096e+09,9.50000000e-08,2.75011937e+08,9.50000000e-08,1.74674958e+01,1.0,.250,sky130
1.00000000e-07,1.73848295e-06,1.00000000e-07,9.99992238e-08,1.00000000e-07,9.65702434e-16,1.00000000e-07,-6.52696942e-16,1.00000000e-07,5.76623044e-19,1.00000000e-07,3.10964565e-16,1.00000000e-07,4.66049135e-16,1.00000000e-07,-1.71592749e-19,1.00000000e-07,5.26172873e-08,1.00000000e-07,8.87881424e-01,1.00000000e-07,5.55735275e-02,1.00000000e-07,7.88322033e-01,1.00000000e-07,7.88322004e-01,1.00000000e-07,1.90051607e+07,1.00000000e-07,1.80022633e+09,1.00000000e-07,2.86514919e+08,1.00000000e-07,1.73849644e+01,1.0,.250,sky130
