isweep,gm,i_id,id,i_cgg,cgg,i_cgs,cgs,i_cgd,cgd,i_cds,cds,i_css,css,i_cdd,cdd,i_gds,gds,i_vth,vth,i_vdsat,vdsat,i_vgs,vgs,i_vds,vds,i_rds,rds,i_wt,wt,i_ft,ft,i_kgm,kgm,W,L,pdk
1.00000000e-09,3.25118753e-08,1.00000000e-09,9.99591583e-10,1.00000000e-09,2.95064370e-16,1.00000000e-09,-5.87944936e-17,1.00000000e-09,5.22828400e-19,1.00000000e-09,3.44460890e-17,1.00000000e-09,5.15554943e-17,1.00000000e-09,-2.71023326e-19,1.00000000e-09,2.11141584e-09,1.00000000e-09,7.48732998e-01,1.00000000e-09,3.54885533e-02,1.00000000e-09,4.10170678e-01,1.00000000e-09,4.10170678e-01,1.00000000e-09,4.73615846e+08,1.00000000e-09,1.10185704e+08,1.00000000e-09,1.75365994e+07,1.00000000e-09,3.25251591e+01,0.840,0.150,sky130
1.25000000e-09,4.05787764e-08,1.25000000e-09,1.25001290e-09,1.25000000e-09,2.97523017e-16,1.25000000e-09,-6.23560201e-17,1.25000000e-09,5.44277840e-19,1.25000000e-09,3.63810714e-17,1.25000000e-09,5.44538212e-17,1.25000000e-09,-2.81502494e-19,1.25000000e-09,2.60254271e-09,1.25000000e-09,7.48732843e-01,1.25000000e-09,3.54896597e-02,1.25000000e-09,4.16633612e-01,1.25000000e-09,4.16633612e-01,1.25000000e-09,3.84239612e+08,1.25000000e-09,1.36388697e+08,1.25000000e-09,2.17069352e+07,1.25000000e-09,3.24626862e+01,0.840,0.150,sky130
1.50000000e-09,4.86369450e-08,1.50000000e-09,1.50080066e-09,1.50000000e-09,2.99661679e-16,1.50000000e-09,-6.54157485e-17,1.50000000e-09,5.62138710e-19,1.50000000e-09,3.80347792e-17,1.50000000e-09,5.69309041e-17,1.50000000e-09,-2.90140950e-19,1.50000000e-09,3.08803507e-09,1.50000000e-09,7.48732716e-01,1.50000000e-09,3.54907564e-02,1.50000000e-09,4.21932679e-01,1.50000000e-09,4.21932679e-01,1.50000000e-09,3.23830519e+08,1.50000000e-09,1.62306188e+08,1.50000000e-09,2.58318322e+07,1.50000000e-09,3.24073318e+01,0.840,0.150,sky130
1.75000000e-09,5.66352370e-08,1.75000000e-09,1.75029422e-09,1.75000000e-09,3.01552383e-16,1.75000000e-09,-6.80948140e-17,1.75000000e-09,5.77365117e-19,1.75000000e-09,3.94765245e-17,1.75000000e-09,5.90905354e-17,1.75000000e-09,-2.97442537e-19,1.75000000e-09,3.56583540e-09,1.75000000e-09,7.48732609e-01,1.75000000e-09,3.54918382e-02,1.75000000e-09,4.26399270e-01,1.75000000e-09,4.26399269e-01,1.75000000e-09,2.80439193e+08,1.75000000e-09,1.87812268e+08,1.75000000e-09,2.98912509e+07,1.75000000e-09,3.23575524e+01,0.840,0.150,sky130
2.00000000e-09,6.46228319e-08,2.00000000e-09,1.99997411e-09,2.00000000e-09,3.03261637e-16,2.00000000e-09,-7.04980403e-17,2.00000000e-09,5.90707232e-19,2.00000000e-09,4.07650975e-17,2.00000000e-09,6.10207603e-17,2.00000000e-09,-3.03793001e-19,2.00000000e-09,4.03960022e-09,2.00000000e-09,7.48732517e-01,2.00000000e-09,3.54929131e-02,2.00000000e-09,4.30279859e-01,2.00000000e-09,4.30279858e-01,2.00000000e-09,2.47549249e+08,2.00000000e-09,2.13092670e+08,2.00000000e-09,3.39147518e+07,2.00000000e-09,3.23118342e+01,0.840,0.150,sky130
2.25000000e-09,7.26006716e-08,2.25000000e-09,2.24983139e-09,2.25000000e-09,3.04825602e-16,2.25000000e-09,-7.26828018e-17,2.25000000e-09,6.02584128e-19,2.25000000e-09,4.19327985e-17,2.25000000e-09,6.27699515e-17,2.25000000e-09,-3.09408546e-19,2.25000000e-09,4.50988587e-09,2.25000000e-09,7.48732435e-01,2.25000000e-09,3.54939820e-02,2.25000000e-09,4.33711664e-01,2.25000000e-09,4.33711663e-01,2.25000000e-09,2.21735101e+08,2.25000000e-09,2.38171175e+08,2.25000000e-09,3.79061197e+07,2.25000000e-09,3.22693834e+01,0.840,0.150,sky130
2.50000000e-09,8.05659642e-08,2.50000000e-09,2.49974688e-09,2.50000000e-09,3.06269572e-16,2.50000000e-09,-7.46888432e-17,2.50000000e-09,6.13283075e-19,2.50000000e-09,4.30019500e-17,2.50000000e-09,6.43715398e-17,2.50000000e-09,-3.14436712e-19,2.50000000e-09,4.97691226e-09,2.50000000e-09,7.48732361e-01,2.50000000e-09,3.54950453e-02,2.50000000e-09,4.36787349e-01,2.50000000e-09,4.36787348e-01,2.50000000e-09,2.00927794e+08,2.50000000e-09,2.63055724e+08,2.50000000e-09,4.18666188e+07,2.50000000e-09,3.22296488e+01,0.840,0.150,sky130
2.75000000e-09,8.85186814e-08,2.75000000e-09,2.74969277e-09,2.75000000e-09,3.07612839e-16,2.75000000e-09,-7.65460799e-17,2.75000000e-09,6.23016123e-19,2.75000000e-09,4.39892865e-17,2.75000000e-09,6.58505873e-17,2.75000000e-09,-3.18985711e-19,2.75000000e-09,5.44098255e-09,2.75000000e-09,7.48732294e-01,2.75000000e-09,3.54961034e-02,2.75000000e-09,4.39574224e-01,2.75000000e-09,4.39574223e-01,2.75000000e-09,1.83790334e+08,2.75000000e-09,2.87760035e+08,2.75000000e-09,4.57984320e+07,2.75000000e-09,3.21922079e+01,0.840,0.150,sky130
3.00000000e-09,9.64591490e-08,3.00000000e-09,2.99965622e-09,3.00000000e-09,3.08870247e-16,3.00000000e-09,-7.82773128e-17,3.00000000e-09,6.31942606e-19,3.00000000e-09,4.49075249e-17,3.00000000e-09,6.72261400e-17,3.00000000e-09,-3.23136451e-19,3.00000000e-09,5.90236209e-09,3.00000000e-09,7.48732233e-01,3.00000000e-09,3.54971568e-02,3.00000000e-09,4.42122223e-01,3.00000000e-09,4.42122222e-01,3.00000000e-09,1.69423696e+08,3.00000000e-09,3.12296668e+08,3.00000000e-09,4.97035584e+07,3.00000000e-09,3.21567346e+01,0.840,0.150,sky130
3.25000000e-09,1.04387806e-07,3.25000000e-09,3.24963102e-09,3.25000000e-09,3.10053469e-16,3.25000000e-09,-7.99003274e-17,3.25000000e-09,6.40185232e-19,3.25000000e-09,4.57665593e-17,3.25000000e-09,6.85130159e-17,3.25000000e-09,-3.26950966e-19,3.25000000e-09,6.36127917e-09,3.25000000e-09,7.48732177e-01,3.25000000e-09,3.54982059e-02,3.25000000e-09,4.44469372e-01,3.25000000e-09,4.44469371e-01,3.25000000e-09,1.57201087e+08,3.25000000e-09,3.36676787e+08,3.25000000e-09,5.35837748e+07,3.25000000e-09,3.21229718e+01,0.840,0.150,sky130
3.50000000e-09,1.12305044e-07,3.50000000e-09,3.49961196e-09,3.50000000e-09,3.11171854e-16,3.50000000e-09,-8.14292644e-17,3.50000000e-09,6.47840454e-19,3.50000000e-09,4.65742380e-17,3.50000000e-09,6.97229697e-17,3.50000000e-09,-3.30477826e-19,3.50000000e-09,6.81792609e-09,3.50000000e-09,7.48732125e-01,3.50000000e-09,3.54992510e-02,3.50000000e-09,4.46645271e-01,3.50000000e-09,4.46645270e-01,3.50000000e-09,1.46672168e+08,3.50000000e-09,3.60910033e+08,3.50000000e-09,5.74406158e+07,3.50000000e-09,3.20907133e+01,0.840,0.150,sky130
3.75000000e-09,1.20211314e-07,3.75000000e-09,3.74959767e-09,3.75000000e-09,3.12233025e-16,3.75000000e-09,-8.28755854e-17,3.75000000e-09,6.54985587e-19,3.75000000e-09,4.73369081e-17,3.75000000e-09,7.08655076e-17,3.75000000e-09,-3.33755815e-19,3.75000000e-09,7.27247258e-09,3.75000000e-09,7.48732077e-01,3.75000000e-09,3.55002925e-02,3.75000000e-09,4.48673434e-01,3.75000000e-09,4.48673433e-01,3.75000000e-09,1.37504815e+08,3.75000000e-09,3.85005123e+08,3.75000000e-09,6.12754684e+07,3.75000000e-09,3.20597901e+01,0.840,0.150,sky130
4.00000000e-09,1.28106996e-07,4.00000000e-09,3.99958622e-09,4.00000000e-09,3.13243280e-16,4.00000000e-09,-8.42487014e-17,4.00000000e-09,6.61683493e-19,4.00000000e-09,4.80597714e-17,4.00000000e-09,7.19484205e-17,4.00000000e-09,-3.36816360e-19,4.00000000e-09,7.72506374e-09,4.00000000e-09,7.48732031e-01,4.00000000e-09,3.55013306e-02,4.00000000e-09,4.50572829e-01,4.00000000e-09,4.50572828e-01,4.00000000e-09,1.29448770e+08,4.00000000e-09,4.08969655e+08,4.00000000e-09,6.50895421e+07,4.00000000e-09,3.20300624e+01,0.840,0.150,sky130
4.25000000e-09,1.35992493e-07,4.25000000e-09,4.24957783e-09,4.25000000e-09,3.14207893e-16,4.25000000e-09,-8.55564559e-17,4.25000000e-09,6.67986052e-19,4.25000000e-09,4.87471548e-17,4.25000000e-09,7.29781890e-17,4.25000000e-09,-3.39685313e-19,4.25000000e-09,8.17582949e-09,4.25000000e-09,7.48731988e-01,4.25000000e-09,3.55023654e-02,4.25000000e-09,4.52358996e-01,4.25000000e-09,4.52358995e-01,4.25000000e-09,1.22311748e+08,4.25000000e-09,4.32810558e+08,4.25000000e-09,6.88839397e+07,4.25000000e-09,3.20014125e+01,0.840,0.150,sky130
4.50000000e-09,1.43868126e-07,4.50000000e-09,4.49957126e-09,4.50000000e-09,3.15131320e-16,4.50000000e-09,-8.68054448e-17,4.50000000e-09,6.73936522e-19,4.50000000e-09,4.94026911e-17,4.50000000e-09,7.39602542e-17,4.50000000e-09,-3.42384164e-19,4.50000000e-09,8.62488138e-09,4.50000000e-09,7.48731948e-01,4.50000000e-09,3.55033973e-02,4.50000000e-09,4.54044807e-01,4.50000000e-09,4.54044806e-01,4.50000000e-09,1.15943624e+08,4.50000000e-09,4.56533885e+08,4.50000000e-09,7.26596245e+07,4.50000000e-09,3.19737409e+01,0.840,0.150,sky130
4.75000000e-09,1.51734206e-07,4.75000000e-09,4.74956603e-09,4.75000000e-09,3.16017371e-16,4.75000000e-09,-8.80012816e-17,4.75000000e-09,6.79571397e-19,4.75000000e-09,5.00294666e-17,4.75000000e-09,7.48992388e-17,4.75000000e-09,-3.44930993e-19,4.75000000e-09,9.07231937e-09,4.75000000e-09,7.48731910e-01,4.75000000e-09,3.55044264e-02,4.75000000e-09,4.55641056e-01,4.75000000e-09,4.55641055e-01,4.75000000e-09,1.10225397e+08,4.75000000e-09,4.80145145e+08,4.75000000e-09,7.64174732e+07,4.75000000e-09,3.19469622e+01,0.840,0.150,sky130
5.00000000e-09,1.59590984e-07,5.00000000e-09,4.99956055e-09,5.00000000e-09,3.16869323e-16,5.00000000e-09,-8.91487782e-17,5.00000000e-09,6.84921723e-19,5.00000000e-09,5.06301234e-17,5.00000000e-09,7.57991001e-17,5.00000000e-09,-3.47341138e-19,5.00000000e-09,9.51823051e-09,5.00000000e-09,7.48731874e-01,5.00000000e-09,3.55054528e-02,5.00000000e-09,4.57156873e-01,5.00000000e-09,4.57156872e-01,5.00000000e-09,1.05061545e+08,5.00000000e-09,5.03649211e+08,5.00000000e-09,8.01582615e+07,5.00000000e-09,3.19210024e+01,0.840,0.150,sky130
5.25000000e-09,1.67438787e-07,5.25000000e-09,5.24955644e-09,5.25000000e-09,3.17690032e-16,5.25000000e-09,-9.02521117e-17,5.25000000e-09,6.90014215e-19,5.25000000e-09,5.12069511e-17,5.25000000e-09,7.66632673e-17,5.25000000e-09,-3.49627761e-19,5.25000000e-09,9.96269834e-09,5.25000000e-09,7.48731839e-01,5.25000000e-09,3.55064767e-02,5.25000000e-09,4.58600075e-01,5.25000000e-09,4.58600073e-01,5.25000000e-09,1.00374413e+08,5.25000000e-09,5.27050803e+08,5.25000000e-09,8.38827405e+07,5.25000000e-09,3.18957970e+01,0.840,0.150,sky130
5.50000000e-09,1.75277864e-07,5.50000000e-09,5.49955356e-09,5.50000000e-09,3.18481992e-16,5.50000000e-09,-9.13149141e-17,5.50000000e-09,6.94871948e-19,5.50000000e-09,5.17619382e-17,5.50000000e-09,7.74947189e-17,5.50000000e-09,-3.51802205e-19,5.50000000e-09,1.04057954e-08,5.50000000e-09,7.48731806e-01,5.50000000e-09,3.55074982e-02,5.50000000e-09,4.59977379e-01,5.50000000e-09,4.59977377e-01,5.50000000e-09,9.61002945e+07,5.50000000e-09,5.50354082e+08,5.50000000e-09,8.75915726e+07,5.50000000e-09,3.18712896e+01,0.840,0.150,sky130
5.75000000e-09,1.83108413e-07,5.75000000e-09,5.74955064e-09,5.75000000e-09,3.19247390e-16,5.75000000e-09,-9.23403668e-17,5.75000000e-09,6.99514996e-19,5.75000000e-09,5.22968240e-17,5.75000000e-09,7.82960602e-17,5.75000000e-09,-3.53874314e-19,5.75000000e-09,1.08475852e-08,5.75000000e-09,7.48731775e-01,5.75000000e-09,3.55085175e-02,5.75000000e-09,4.61294605e-01,5.75000000e-09,4.61294603e-01,5.75000000e-09,9.21864155e+07,5.75000000e-09,5.73562757e+08,5.75000000e-09,9.12853479e+07,5.75000000e-09,3.18474303e+01,0.840,0.150,sky130
6.00000000e-09,1.90930658e-07,6.00000000e-09,5.99954779e-09,6.00000000e-09,3.19988170e-16,6.00000000e-09,-9.33312821e-17,6.00000000e-09,7.03960977e-19,6.00000000e-09,5.28131443e-17,6.00000000e-09,7.90695915e-17,6.00000000e-09,-3.55852707e-19,6.00000000e-09,1.12881282e-08,6.00000000e-09,7.48731745e-01,6.00000000e-09,3.55095345e-02,6.00000000e-09,4.62556838e-01,6.00000000e-09,4.62556836e-01,6.00000000e-09,8.85886463e+07,6.00000000e-09,5.96680365e+08,6.00000000e-09,9.49646295e+07,6.00000000e-09,3.18241748e+01,0.840,0.150,sky130
6.25000000e-09,1.98744802e-07,6.25000000e-09,6.24954496e-09,6.25000000e-09,3.20706056e-16,6.25000000e-09,-9.42901544e-17,6.25000000e-09,7.08225415e-19,6.25000000e-09,5.33122597e-17,6.25000000e-09,7.98173505e-17,6.25000000e-09,-3.57744965e-19,6.25000000e-09,1.17274792e-08,6.25000000e-09,7.48731716e-01,6.25000000e-09,3.55105495e-02,6.25000000e-09,4.63768541e-01,6.25000000e-09,4.63768539e-01,6.25000000e-09,8.52698168e+07,6.25000000e-09,6.19710160e+08,6.25000000e-09,9.86299353e+07,6.25000000e-09,3.18014836e+01,0.840,0.150,sky130
6.50000000e-09,2.06551039e-07,6.50000000e-09,6.49954220e-09,6.50000000e-09,3.21402595e-16,6.50000000e-09,-9.52192081e-17,6.50000000e-09,7.12322066e-19,6.50000000e-09,5.37953817e-17,6.50000000e-09,8.05411523e-17,6.50000000e-09,-3.59557788e-19,6.50000000e-09,1.21656885e-08,6.50000000e-09,7.48731688e-01,6.50000000e-09,3.55115625e-02,6.50000000e-09,4.64933656e-01,6.50000000e-09,4.64933654e-01,6.50000000e-09,8.21983895e+07,6.50000000e-09,6.42655169e+08,6.50000000e-09,1.02281747e+08,6.50000000e-09,3.17793211e+01,0.840,0.150,sky130
6.75000000e-09,2.14349592e-07,6.75000000e-09,6.74954085e-09,6.75000000e-09,3.22079174e-16,6.75000000e-09,-9.61204398e-17,6.75000000e-09,7.16263194e-19,6.75000000e-09,5.42635970e-17,6.75000000e-09,8.12426242e-17,6.75000000e-09,-3.61297138e-19,6.75000000e-09,1.26028049e-08,6.75000000e-09,7.48731661e-01,6.75000000e-09,3.55125737e-02,6.75000000e-09,4.66055682e-01,6.75000000e-09,4.66055680e-01,6.75000000e-09,7.93474158e+07,6.75000000e-09,6.65518322e+08,6.75000000e-09,1.05920531e+08,6.75000000e-09,3.17576553e+01,0.840,0.150,sky130
7.00000000e-09,2.22140562e-07,7.00000000e-09,6.99953872e-09,7.00000000e-09,3.22737039e-16,7.00000000e-09,-9.69956334e-17,7.00000000e-09,7.20059713e-19,7.00000000e-09,5.47178754e-17,7.00000000e-09,8.19232191e-17,7.00000000e-09,-3.62968312e-19,7.00000000e-09,1.30388675e-08,7.00000000e-09,7.48731635e-01,7.00000000e-09,3.55135829e-02,7.00000000e-09,4.67137727e-01,7.00000000e-09,4.67137724e-01,7.00000000e-09,7.66937775e+07,7.00000000e-09,6.88302039e+08,7.00000000e-09,1.09546672e+08,7.00000000e-09,3.17364574e+01,0.840,0.150,sky130
7.25000000e-09,2.29924166e-07,7.25000000e-09,7.24953757e-09,7.25000000e-09,3.23377325e-16,7.25000000e-09,-9.78464130e-17,7.25000000e-09,7.23721479e-19,7.25000000e-09,5.51590988e-17,7.25000000e-09,8.25842578e-17,7.25000000e-09,-3.64576082e-19,7.25000000e-09,1.34739190e-08,7.25000000e-09,7.48731610e-01,7.25000000e-09,3.55145904e-02,7.25000000e-09,4.68182584e-01,7.25000000e-09,4.68182582e-01,7.25000000e-09,7.42174570e+07,7.25000000e-09,7.11008930e+08,7.25000000e-09,1.13160586e+08,7.25000000e-09,3.17157010e+01,0.840,0.150,sky130
7.50000000e-09,2.37700498e-07,7.50000000e-09,7.49953560e-09,7.50000000e-09,3.24001054e-16,7.50000000e-09,-9.86742386e-17,7.50000000e-09,7.27257323e-19,7.50000000e-09,5.55880594e-17,7.50000000e-09,8.32269272e-17,7.50000000e-09,-3.66124720e-19,7.50000000e-09,1.39079931e-08,7.50000000e-09,7.48731586e-01,7.50000000e-09,3.55155963e-02,7.50000000e-09,4.69192754e-01,7.50000000e-09,4.69192751e-01,7.50000000e-09,7.19010996e+07,7.50000000e-09,7.33641125e+08,7.50000000e-09,1.16762611e+08,7.50000000e-09,3.16953623e+01,0.840,0.150,sky130
7.75000000e-09,2.45469727e-07,7.75000000e-09,7.74953362e-09,7.75000000e-09,3.24609165e-16,7.75000000e-09,-9.94804465e-17,7.75000000e-09,7.30675270e-19,7.75000000e-09,5.60054816e-17,7.75000000e-09,8.38523119e-17,7.75000000e-09,-3.67618097e-19,7.75000000e-09,1.43411258e-08,7.75000000e-09,7.48731563e-01,7.75000000e-09,3.55166004e-02,7.75000000e-09,4.70170499e-01,7.75000000e-09,4.70170496e-01,7.75000000e-09,6.97295328e+07,7.75000000e-09,7.56200851e+08,7.75000000e-09,1.20353103e+08,7.75000000e-09,3.16754193e+01,0.840,0.150,sky130
8.00000000e-09,2.53232042e-07,8.00000000e-09,7.99953329e-09,8.00000000e-09,3.25202518e-16,8.00000000e-09,-1.00266258e-16,8.00000000e-09,7.33982611e-19,8.00000000e-09,5.64120265e-17,8.00000000e-09,8.44614026e-17,8.00000000e-09,-3.69059725e-19,8.00000000e-09,1.47733518e-08,8.00000000e-09,7.48731540e-01,8.00000000e-09,3.55176030e-02,8.00000000e-09,4.71117871e-01,8.00000000e-09,4.71117868e-01,8.00000000e-09,6.76894461e+07,8.00000000e-09,7.78690287e+08,8.00000000e-09,1.23932408e+08,8.00000000e-09,3.16558520e+01,0.840,0.150,sky130
8.25000000e-09,2.60987465e-07,8.25000000e-09,8.24953119e-09,8.25000000e-09,3.25781887e-16,8.25000000e-09,-1.01032775e-16,8.25000000e-09,7.37185920e-19,8.25000000e-09,5.68082908e-17,8.25000000e-09,8.50550929e-17,8.25000000e-09,-3.70452768e-19,8.25000000e-09,1.52046953e-08,8.25000000e-09,7.48731518e-01,8.25000000e-09,3.55186041e-02,8.25000000e-09,4.72036714e-01,8.25000000e-09,4.72036711e-01,8.25000000e-09,6.57691573e+07,8.25000000e-09,8.01111036e+08,8.25000000e-09,1.27500781e+08,8.25000000e-09,3.16366420e+01,0.840,0.150,sky130
8.50000000e-09,2.68736209e-07,8.50000000e-09,8.49953019e-09,8.50000000e-09,3.26348002e-16,8.50000000e-09,-1.01781028e-16,8.50000000e-09,7.40291273e-19,8.50000000e-09,5.71948310e-17,8.50000000e-09,8.56342163e-17,8.50000000e-09,-3.71800141e-19,8.50000000e-09,1.56351895e-08,8.50000000e-09,7.48731497e-01,8.50000000e-09,3.55196037e-02,8.50000000e-09,4.72928731e-01,8.50000000e-09,4.72928728e-01,8.50000000e-09,6.39582910e+07,8.50000000e-09,8.23465160e+08,8.50000000e-09,1.31058551e+08,8.50000000e-09,3.16177722e+01,0.840,0.150,sky130
8.75000000e-09,2.76478330e-07,8.75000000e-09,8.74952828e-09,8.75000000e-09,3.26901520e-16,8.75000000e-09,-1.02511949e-16,8.75000000e-09,7.43304176e-19,8.75000000e-09,5.75721511e-17,8.75000000e-09,8.61995279e-17,8.75000000e-09,-3.73104485e-19,8.75000000e-09,1.60648573e-08,8.75000000e-09,7.48731476e-01,8.75000000e-09,3.55206019e-02,8.75000000e-09,4.73795460e-01,8.75000000e-09,4.73795457e-01,8.75000000e-09,6.22476742e+07,8.75000000e-09,8.45754188e+08,8.75000000e-09,1.34605960e+08,8.75000000e-09,3.15992270e+01,0.840,0.150,sky130
9.00000000e-09,2.84214030e-07,9.00000000e-09,8.99952840e-09,9.00000000e-09,3.27443063e-16,9.00000000e-09,-1.03226413e-16,9.00000000e-09,7.46229739e-19,9.00000000e-09,5.79407229e-17,9.00000000e-09,8.67517344e-17,9.00000000e-09,-3.74368245e-19,9.00000000e-09,1.64937286e-08,9.00000000e-09,7.48731456e-01,9.00000000e-09,3.55215986e-02,9.00000000e-09,4.74638326e-01,9.00000000e-09,4.74638323e-01,9.00000000e-09,6.06291050e+07,9.00000000e-09,8.67980002e+08,9.00000000e-09,1.38143308e+08,9.00000000e-09,3.15809916e+01,0.840,0.150,sky130
9.25000000e-09,2.91943293e-07,9.25000000e-09,9.24952650e-09,9.25000000e-09,3.27973189e-16,9.25000000e-09,-1.03925209e-16,9.25000000e-09,7.49072581e-19,9.25000000e-09,5.83009721e-17,9.25000000e-09,8.72914734e-17,9.25000000e-09,-3.75593630e-19,9.25000000e-09,1.69218199e-08,9.25000000e-09,7.48731436e-01,9.25000000e-09,3.55225940e-02,9.25000000e-09,4.75458614e-01,9.25000000e-09,4.75458610e-01,9.25000000e-09,5.90952985e+07,9.25000000e-09,8.90143775e+08,9.25000000e-09,1.41670782e+08,9.25000000e-09,3.15630527e+01,0.840,0.150,sky130
9.50000000e-09,2.99666309e-07,9.50000000e-09,9.49952549e-09,9.50000000e-09,3.28492431e-16,9.50000000e-09,-1.04609086e-16,9.50000000e-09,7.51837042e-19,9.50000000e-09,5.86533023e-17,9.50000000e-09,8.78193495e-17,9.50000000e-09,-3.76782710e-19,9.50000000e-09,1.73491585e-08,9.50000000e-09,7.48731417e-01,9.50000000e-09,3.55235881e-02,9.50000000e-09,4.76257528e-01,9.50000000e-09,4.76257525e-01,9.50000000e-09,5.76396833e+07,9.50000000e-09,9.12247227e+08,9.50000000e-09,1.45188655e+08,9.50000000e-09,3.15453977e+01,0.840,0.150,sky130
9.75000000e-09,3.07383152e-07,9.75000000e-09,9.74952448e-09,9.75000000e-09,3.29001277e-16,9.75000000e-09,-1.05278730e-16,9.75000000e-09,7.54527088e-19,9.75000000e-09,5.89980827e-17,9.75000000e-09,8.83359158e-17,9.75000000e-09,-3.77937377e-19,9.75000000e-09,1.77757637e-08,9.75000000e-09,7.48731398e-01,9.75000000e-09,3.55245809e-02,9.75000000e-09,4.77036170e-01,9.75000000e-09,4.77036167e-01,9.75000000e-09,5.62563734e+07,9.75000000e-09,9.34291667e+08,9.75000000e-09,1.48697137e+08,9.75000000e-09,3.15280147e+01,0.840,0.150,sky130
1.00000000e-08,3.15093859e-07,1.00000000e-08,9.99952170e-09,1.00000000e-08,3.29500179e-16,1.00000000e-08,-1.05934775e-16,1.00000000e-08,7.57146384e-19,1.00000000e-08,5.93356553e-17,1.00000000e-08,8.88416844e-17,1.00000000e-08,-3.79059373e-19,1.00000000e-08,1.82016524e-08,1.00000000e-08,7.48731380e-01,1.00000000e-08,3.55255725e-02,1.00000000e-08,4.77795553e-01,1.00000000e-08,4.77795550e-01,1.00000000e-08,5.49400669e+07,1.00000000e-08,9.56278264e+08,1.00000000e-08,1.52196413e+08,1.00000000e-08,3.15108931e+01,0.840,0.150,sky130
