isweep,gm,i_id,id,i_cgg,cgg,i_cgs,cgs,i_cgd,cgd,i_cds,cds,i_css,css,i_cdd,cdd,i_gds,gds,i_vth,vth,i_vdsat,vdsat,i_vgs,vgs,i_vds,vds,i_rds,rds,i_wt,wt,i_ft,ft,i_kgm,kgm,W,L,pdk
1.00000000e-09,2.77760679e-08,1.00000000e-09,9.99608393e-10,1.00000000e-09,2.39028304e-15,1.00000000e-09,-1.09780106e-15,1.00000000e-09,-1.31201263e-18,1.00000000e-09,6.09401401e-16,1.00000000e-09,9.11770235e-16,1.00000000e-09,1.46434164e-18,1.00000000e-09,2.82594618e-10,1.00000000e-09,6.37948051e-01,1.00000000e-09,4.49179929e-02,1.00000000e-09,3.90769471e-01,1.00000000e-09,3.90769471e-01,1.00000000e-09,3.53863781e+09,1.00000000e-09,1.16204095e+07,1.00000000e-09,1.84944562e+06,1.00000000e-09,2.77869494e+01,1.0,1.000,sky130
1.50000000e-09,4.13349901e-08,1.50000000e-09,1.50544845e-09,1.50000000e-09,2.48497153e-15,1.50000000e-09,-1.22761222e-15,1.50000000e-09,-1.34650633e-18,1.50000000e-09,6.72437921e-16,1.50000000e-09,1.00617117e-15,1.50000000e-09,1.50366770e-18,1.50000000e-09,4.19411637e-10,1.50000000e-09,6.37948041e-01,1.50000000e-09,4.49972091e-02,1.50000000e-09,4.05442808e-01,1.50000000e-09,4.05442808e-01,1.50000000e-09,2.38429245e+09,1.50000000e-09,1.66339894e+07,1.50000000e-09,2.64738163e+06,1.50000000e-09,2.74569283e+01,1.0,1.000,sky130
2.00000000e-09,5.47358970e-08,2.00000000e-09,2.01307901e-09,2.00000000e-09,2.55717881e-15,2.00000000e-09,-1.32569624e-15,2.00000000e-09,-1.37395828e-18,2.00000000e-09,7.19680541e-16,2.00000000e-09,1.07692464e-15,2.00000000e-09,1.53489189e-18,2.00000000e-09,5.55052603e-10,2.00000000e-09,6.37948033e-01,2.00000000e-09,4.50761739e-02,2.00000000e-09,4.15969801e-01,2.00000000e-09,4.15969800e-01,2.00000000e-09,1.80163104e+09,2.00000000e-09,2.14047984e+07,2.00000000e-09,3.40667948e+06,2.00000000e-09,2.71901384e+01,1.0,1.000,sky130
2.50000000e-09,6.75749996e-08,2.50000000e-09,2.50552902e-09,2.50000000e-09,2.61426494e-15,2.50000000e-09,-1.40277665e-15,2.50000000e-09,-1.39624539e-18,2.50000000e-09,7.56598363e-16,2.50000000e-09,1.13221769e-15,2.50000000e-09,1.56020815e-18,2.50000000e-09,6.85411764e-10,2.50000000e-09,6.37948027e-01,2.50000000e-09,4.51523400e-02,2.50000000e-09,4.23969275e-01,2.50000000e-09,4.23969274e-01,2.50000000e-09,1.45897700e+09,2.50000000e-09,2.58485659e+07,2.50000000e-09,4.11392703e+06,2.50000000e-09,2.69703520e+01,1.0,1.000,sky130
3.00000000e-09,8.03698361e-08,3.00000000e-09,3.00151735e-09,3.00000000e-09,2.66310169e-15,3.00000000e-09,-1.46843298e-15,3.00000000e-09,-1.41567896e-18,3.00000000e-09,7.87911513e-16,3.00000000e-09,1.17911813e-15,3.00000000e-09,1.58226405e-18,3.00000000e-09,8.15693995e-10,3.00000000e-09,6.37948022e-01,3.00000000e-09,4.52286610e-02,3.00000000e-09,4.30622639e-01,3.00000000e-09,4.30622638e-01,3.00000000e-09,1.22594994e+09,3.00000000e-09,3.01790339e+07,3.00000000e-09,4.80314242e+06,3.00000000e-09,2.67764023e+01,1.0,1.000,sky130
3.50000000e-09,9.31252352e-08,3.50000000e-09,3.50066432e-09,3.50000000e-09,2.70589992e-15,3.50000000e-09,-1.52577539e-15,3.50000000e-09,-1.43296969e-18,3.50000000e-09,8.15165584e-16,3.50000000e-09,1.21994015e-15,3.50000000e-09,1.60187572e-18,3.50000000e-09,9.45914363e-10,3.50000000e-09,6.37948018e-01,3.50000000e-09,4.53051001e-02,3.50000000e-09,4.36328494e-01,3.50000000e-09,4.36328493e-01,3.50000000e-09,1.05717815e+09,3.50000000e-09,3.44156243e+07,3.50000000e-09,5.47741673e+06,3.50000000e-09,2.66021608e+01,1.0,1.000,sky130
4.00000000e-09,1.05784738e-07,4.00000000e-09,4.00028565e-09,4.00000000e-09,2.74389550e-15,4.00000000e-09,-1.57654193e-15,4.00000000e-09,-1.44851485e-18,4.00000000e-09,8.39224833e-16,4.00000000e-09,1.25597777e-15,4.00000000e-09,1.61949911e-18,4.00000000e-09,1.07545934e-09,4.00000000e-09,6.37948015e-01,4.00000000e-09,4.53812641e-02,4.00000000e-09,4.41307855e-01,4.00000000e-09,4.41307854e-01,4.00000000e-09,9.29835242e+08,4.00000000e-09,3.85527577e+07,4.00000000e-09,6.13586196e+06,4.00000000e-09,2.64442961e+01,1.0,1.000,sky130
4.50000000e-09,1.18350039e-07,4.50000000e-09,4.50003236e-09,4.50000000e-09,2.77808608e-15,4.50000000e-09,-1.62211871e-15,4.50000000e-09,-1.46265537e-18,4.50000000e-09,8.60771393e-16,4.50000000e-09,1.28825241e-15,4.50000000e-09,1.63552401e-18,4.50000000e-09,1.20430916e-09,4.50000000e-09,6.37948012e-01,4.50000000e-09,4.54571164e-02,4.50000000e-09,4.45726625e-01,4.50000000e-09,4.45726624e-01,4.50000000e-09,8.30351571e+08,4.50000000e-09,4.26012857e+07,4.50000000e-09,6.78020521e+06,4.50000000e-09,2.62998195e+01,1.0,1.000,sky130
5.00000000e-09,1.30829205e-07,5.00000000e-09,4.99987912e-09,5.00000000e-09,2.80919599e-15,5.00000000e-09,-1.66350679e-15,5.00000000e-09,-1.47564464e-18,5.00000000e-09,8.80295753e-16,5.00000000e-09,1.31749855e-15,5.00000000e-09,1.65023972e-18,5.00000000e-09,1.33251276e-09,5.00000000e-09,6.37948009e-01,5.00000000e-09,4.55326667e-02,5.00000000e-09,4.49701239e-01,5.00000000e-09,4.49701237e-01,5.00000000e-09,7.50461855e+08,5.00000000e-09,4.65717612e+07,5.00000000e-09,7.41212600e+06,5.00000000e-09,2.61664735e+01,1.0,1.000,sky130
5.50000000e-09,1.43228402e-07,5.50000000e-09,5.49978138e-09,5.50000000e-09,2.83775521e-15,5.50000000e-09,-1.70143613e-15,5.50000000e-09,-1.48767081e-18,5.50000000e-09,8.98154514e-16,5.50000000e-09,1.34425019e-15,5.50000000e-09,1.66386082e-18,5.50000000e-09,1.46010326e-09,5.50000000e-09,6.37948006e-01,5.50000000e-09,4.56079198e-02,5.50000000e-09,4.53314890e-01,5.50000000e-09,4.53314889e-01,5.50000000e-09,6.84883068e+08,5.50000000e-09,5.04724304e+07,5.50000000e-09,8.03293679e+06,5.50000000e-09,2.60425628e+01,1.0,1.000,sky130
6.00000000e-09,1.55553288e-07,6.00000000e-09,5.99971757e-09,6.00000000e-09,2.86416580e-15,6.00000000e-09,-1.73645874e-15,6.00000000e-09,-1.49887843e-18,6.00000000e-09,9.14616612e-16,6.00000000e-09,1.36891008e-15,6.00000000e-09,1.67655203e-18,6.00000000e-09,1.58711178e-09,6.00000000e-09,6.37948004e-01,6.00000000e-09,4.56828820e-02,6.00000000e-09,4.56629350e-01,6.00000000e-09,4.56629349e-01,6.00000000e-09,6.30075345e+08,6.00000000e-09,5.43101547e+07,6.00000000e-09,8.64372958e+06,6.00000000e-09,2.59267684e+01,1.0,1.000,sky130
6.50000000e-09,1.67808814e-07,6.50000000e-09,6.49967213e-09,6.50000000e-09,2.88873994e-15,6.50000000e-09,-1.76900204e-15,6.50000000e-09,-1.50938094e-18,6.50000000e-09,9.29889791e-16,6.50000000e-09,1.39178931e-15,6.50000000e-09,1.68844256e-18,6.50000000e-09,1.71356511e-09,6.50000000e-09,6.37948002e-01,6.50000000e-09,4.57575596e-02,6.50000000e-09,4.59691694e-01,6.50000000e-09,4.59691692e-01,6.50000000e-09,5.83578643e+08,6.50000000e-09,5.80906616e+07,6.50000000e-09,9.24541593e+06,6.50000000e-09,2.58180429e+01,1.0,1.000,sky130
7.00000000e-09,1.79999501e-07,7.00000000e-09,6.99963986e-09,7.00000000e-09,2.91172534e-15,7.00000000e-09,-1.79940443e-15,7.00000000e-09,-1.51926920e-18,7.00000000e-09,9.44138171e-16,7.00000000e-09,1.41313367e-15,7.00000000e-09,1.69963580e-18,7.00000000e-09,1.83948817e-09,7.00000000e-09,6.37947999e-01,7.00000000e-09,4.58319593e-02,7.00000000e-09,4.62538664e-01,7.00000000e-09,4.62538662e-01,7.00000000e-09,5.43629482e+08,7.00000000e-09,6.18188462e+07,7.00000000e-09,9.83877495e+06,7.00000000e-09,2.57155375e+01,1.0,1.000,sky130
7.50000000e-09,1.92129338e-07,7.50000000e-09,7.49961669e-09,7.50000000e-09,2.93332184e-15,7.50000000e-09,-1.82793826e-15,7.50000000e-09,-1.52861707e-18,7.50000000e-09,9.57493584e-16,7.50000000e-09,1.43314058e-15,7.50000000e-09,1.71021582e-18,7.50000000e-09,1.96490261e-09,7.50000000e-09,6.37947998e-01,7.50000000e-09,4.59060871e-02,7.50000000e-09,4.65199460e-01,7.50000000e-09,4.65199458e-01,7.50000000e-09,5.08931075e+08,7.50000000e-09,6.54988944e+07,7.50000000e-09,1.04244728e+07,7.50000000e-09,2.56185543e+01,1.0,1.000,sky130
8.00000000e-09,2.04201829e-07,8.00000000e-09,7.99959773e-09,8.00000000e-09,2.95369299e-15,8.00000000e-09,-1.85482605e-15,8.00000000e-09,-1.53748545e-18,8.00000000e-09,9.70063553e-16,8.00000000e-09,1.45197108e-15,8.00000000e-09,1.72025184e-18,8.00000000e-09,2.08982709e-09,8.00000000e-09,6.37947996e-01,8.00000000e-09,4.59799484e-02,8.00000000e-09,4.67697670e-01,8.00000000e-09,4.67697668e-01,8.00000000e-09,4.78508489e+08,8.00000000e-09,6.91344125e+07,8.00000000e-09,1.10030835e+07,8.00000000e-09,2.55265122e+01,1.0,1.000,sky130
8.50000000e-09,2.16220222e-07,8.50000000e-09,8.49958338e-09,8.50000000e-09,2.97297467e-15,8.50000000e-09,-1.88025235e-15,8.50000000e-09,-1.54592527e-18,8.50000000e-09,9.81937108e-16,8.50000000e-09,1.46975850e-15,8.50000000e-09,1.72980176e-18,8.50000000e-09,2.21427926e-09,8.50000000e-09,6.37947994e-01,8.50000000e-09,4.60535488e-02,8.50000000e-09,4.70052654e-01,8.50000000e-09,4.70052651e-01,8.50000000e-09,4.51614220e+08,8.50000000e-09,7.27285788e+07,8.50000000e-09,1.15751128e+07,8.50000000e-09,2.54389201e+01,1.0,1.000,sky130
9.00000000e-09,2.28187382e-07,9.00000000e-09,8.99957185e-09,9.00000000e-09,2.99128086e-15,9.00000000e-09,-1.90437168e-15,9.00000000e-09,-1.55397946e-18,9.00000000e-09,9.93188688e-16,9.00000000e-09,1.48661433e-15,9.00000000e-09,1.73891439e-18,9.00000000e-09,2.33827439e-09,9.00000000e-09,6.37947993e-01,9.00000000e-09,4.61268931e-02,9.00000000e-09,4.72280469e-01,9.00000000e-09,4.72280466e-01,9.00000000e-09,4.27665805e+08,9.00000000e-09,7.62841715e+07,9.00000000e-09,1.21410030e+07,9.00000000e-09,2.53553597e+01,1.0,1.000,sky130
9.50000000e-09,2.40105904e-07,9.50000000e-09,9.49956183e-09,9.50000000e-09,3.00870820e-15,9.50000000e-09,-1.92731491e-15,9.50000000e-09,-1.56168465e-18,9.50000000e-09,1.00388124e-15,9.50000000e-09,1.50263283e-15,9.50000000e-09,1.74763131e-18,9.50000000e-09,2.46182628e-09,9.50000000e-09,6.37947991e-01,9.50000000e-09,4.61999859e-02,9.50000000e-09,4.74394595e-01,9.50000000e-09,4.74394592e-01,9.50000000e-09,4.06202504e+08,9.50000000e-09,7.98036526e+07,9.50000000e-09,1.27011458e+07,9.50000000e-09,2.52754715e+01,1.0,1.000,sky130
1.00000000e-08,2.51977445e-07,1.00000000e-08,9.99952253e-09,1.00000000e-08,3.02533843e-15,1.00000000e-08,-1.94919259e-15,1.00000000e-08,-1.56907189e-18,1.00000000e-08,1.01406789e-15,1.00000000e-08,1.51789357e-15,1.00000000e-08,1.75598781e-18,1.00000000e-08,2.58494018e-09,1.00000000e-08,6.37947990e-01,1.00000000e-08,4.62728271e-02,1.00000000e-08,4.76406342e-01,1.00000000e-08,4.76406339e-01,1.00000000e-08,3.86856148e+08,1.00000000e-08,8.32890108e+07,1.00000000e-08,1.32558578e+07,1.00000000e-08,2.51989477e+01,1.0,1.000,sky130
1.50000000e-08,3.69749288e-07,1.50000000e-08,1.50513272e-08,1.50000000e-08,3.16110654e-15,1.50000000e-08,-2.12725194e-15,1.50000000e-08,-1.63067463e-18,1.50000000e-08,1.09665090e-15,1.50000000e-08,1.64161693e-15,1.50000000e-08,1.82564933e-18,1.50000000e-08,3.80700878e-09,1.50000000e-08,6.37947978e-01,1.50000000e-08,4.69957951e-02,1.50000000e-08,4.92672379e-01,1.50000000e-08,4.92672375e-01,1.50000000e-08,2.62673416e+08,1.50000000e-08,1.16968310e+08,1.50000000e-08,1.86160847e+07,1.50000000e-08,2.45658926e+01,1.0,1.000,sky130
2.00000000e-08,4.84763200e-07,2.00000000e-08,2.01172984e-08,2.00000000e-08,3.26045050e-15,2.00000000e-08,-2.25698223e-15,2.00000000e-08,-1.67728572e-18,2.00000000e-08,1.15647320e-15,2.00000000e-08,1.73124612e-15,2.00000000e-08,1.87833503e-18,2.00000000e-08,4.99752143e-09,2.00000000e-08,6.37947970e-01,2.00000000e-08,4.76990262e-02,2.00000000e-08,5.04474048e-01,2.00000000e-08,5.04474042e-01,2.00000000e-08,2.00099192e+08,2.00000000e-08,1.48679822e+08,2.00000000e-08,2.36631286e+07,2.00000000e-08,2.40968340e+01,1.0,1.000,sky130
2.50000000e-08,5.94575760e-07,2.50000000e-08,2.50510548e-08,2.50000000e-08,3.33691481e-15,2.50000000e-08,-2.35654969e-15,2.50000000e-08,-1.71411258e-18,2.50000000e-08,1.20219924e-15,2.50000000e-08,1.79975847e-15,2.50000000e-08,1.91995060e-18,2.50000000e-08,6.12804939e-09,2.50000000e-08,6.37947964e-01,2.50000000e-08,4.83651466e-02,2.50000000e-08,5.13551680e-01,2.50000000e-08,5.13551672e-01,2.50000000e-08,1.63184063e+08,2.50000000e-08,1.78181282e+08,2.50000000e-08,2.83584318e+07,2.50000000e-08,2.37345599e+01,1.0,1.000,sky130
3.00000000e-08,7.03370769e-07,3.00000000e-08,3.00170936e-08,3.00000000e-08,3.40067220e-15,3.00000000e-08,-2.43939722e-15,3.00000000e-08,-1.74549375e-18,3.00000000e-08,1.24012676e-15,3.00000000e-08,1.85658809e-15,3.00000000e-08,1.95540619e-18,3.00000000e-08,7.24041296e-09,3.00000000e-08,6.37947958e-01,3.00000000e-08,4.90186121e-02,3.00000000e-08,5.21142082e-01,3.00000000e-08,5.21142073e-01,3.00000000e-08,1.38113669e+08,3.00000000e-08,2.06832863e+08,3.00000000e-08,3.29184726e+07,3.00000000e-08,2.34323408e+01,1.0,1.000,sky130
3.50000000e-08,8.11287746e-07,3.50000000e-08,3.50095142e-08,3.50000000e-08,3.45531251e-15,3.50000000e-08,-2.51028043e-15,3.50000000e-08,-1.77290369e-18,3.50000000e-08,1.27249237e-15,3.50000000e-08,1.90508534e-15,3.50000000e-08,1.98637099e-18,3.50000000e-08,8.33532513e-09,3.50000000e-08,6.37947954e-01,3.50000000e-08,4.96597290e-02,3.50000000e-08,5.27677221e-01,3.50000000e-08,5.27677211e-01,3.50000000e-08,1.19971325e+08,3.50000000e-08,2.34794319e+08,3.50000000e-08,3.73686764e+07,3.50000000e-08,2.31733506e+01,1.0,1.000,sky130
4.00000000e-08,9.18041777e-07,4.00000000e-08,4.00060427e-08,4.00000000e-08,3.50292284e-15,4.00000000e-08,-2.57196035e-15,4.00000000e-08,-1.79719560e-18,4.00000000e-08,1.30059313e-15,4.00000000e-08,1.94719313e-15,4.00000000e-08,2.01381069e-18,4.00000000e-08,9.40970514e-09,4.00000000e-08,6.37947950e-01,4.00000000e-08,5.02866748e-02,4.00000000e-08,5.33403731e-01,4.00000000e-08,5.33403720e-01,4.00000000e-08,1.06273256e+08,4.00000000e-08,2.62078789e+08,4.00000000e-08,4.17111348e+07,4.00000000e-08,2.29475778e+01,1.0,1.000,sky130
4.50000000e-08,1.02372219e-06,4.50000000e-08,4.50038080e-08,4.50000000e-08,3.54506302e-15,4.50000000e-08,-2.62649177e-15,4.50000000e-08,-1.81902864e-18,4.50000000e-08,1.32538905e-15,4.50000000e-08,1.98434964e-15,4.50000000e-08,2.03847100e-18,4.50000000e-08,1.04645856e-08,4.50000000e-08,6.37947947e-01,4.50000000e-08,5.09000909e-02,4.50000000e-08,5.38503812e-01,4.50000000e-08,5.38503799e-01,4.50000000e-08,9.55604015e+07,4.50000000e-08,2.88774044e+08,4.50000000e-08,4.59598166e+07,4.50000000e-08,2.27474570e+01,1.0,1.000,sky130
5.00000000e-08,1.12843544e-06,5.00000000e-08,5.00024576e-08,5.00000000e-08,3.58283786e-15,5.00000000e-08,-2.67532692e-15,5.00000000e-08,-1.83887627e-18,5.00000000e-08,1.34755680e-15,5.00000000e-08,2.01756853e-15,5.00000000e-08,2.06088739e-18,5.00000000e-08,1.15013150e-08,5.00000000e-08,6.37947944e-01,5.00000000e-08,5.15008243e-02,5.00000000e-08,5.43105419e-01,5.00000000e-08,5.43105405e-01,5.00000000e-08,8.69465794e+07,5.00000000e-08,3.14955764e+08,5.00000000e-08,5.01267667e+07,5.00000000e-08,2.25675995e+01,1.0,1.000,sky130
5.50000000e-08,1.23226159e-06,5.50000000e-08,5.50016100e-08,5.50000000e-08,3.61704697e-15,5.50000000e-08,-2.71951514e-15,5.50000000e-08,-1.85708448e-18,5.50000000e-08,1.36758432e-15,5.50000000e-08,2.04758081e-15,5.50000000e-08,2.08145112e-18,5.50000000e-08,1.25210508e-08,5.50000000e-08,6.37947941e-01,5.50000000e-08,5.20896202e-02,5.50000000e-08,5.47300522e-01,5.50000000e-08,5.47300506e-01,5.50000000e-08,7.98655015e+07,5.50000000e-08,3.40681666e+08,5.50000000e-08,5.42211712e+07,5.50000000e-08,2.24041004e+01,1.0,1.000,sky130
6.00000000e-08,1.33526587e-06,6.00000000e-08,6.00010502e-08,6.00000000e-08,3.64828924e-15,6.00000000e-08,-2.75984120e-15,6.00000000e-08,-1.87391483e-18,6.00000000e-08,1.38583586e-15,6.00000000e-08,2.07493219e-15,6.00000000e-08,2.10045794e-18,6.00000000e-08,1.35248370e-08,6.00000000e-08,6.37947939e-01,6.00000000e-08,5.26671617e-02,6.00000000e-08,5.51157642e-01,6.00000000e-08,5.51157624e-01,6.00000000e-08,7.39380447e+07,6.00000000e-08,3.65997808e+08,6.00000000e-08,5.82503603e+07,6.00000000e-08,2.22540416e+01,1.0,1.000,sky130
6.50000000e-08,1.43750219e-06,6.50000000e-08,6.50006659e-08,6.50000000e-08,3.67702487e-15,6.50000000e-08,-2.79690742e-15,6.50000000e-08,-1.88957011e-18,6.50000000e-08,1.40259052e-15,6.50000000e-08,2.10004079e-15,6.50000000e-08,2.11813707e-18,6.50000000e-08,1.45136169e-08,6.50000000e-08,6.37947936e-01,6.50000000e-08,5.32340737e-02,6.50000000e-08,5.54729224e-01,6.50000000e-08,5.54729205e-01,6.50000000e-08,6.89008126e+07,6.50000000e-08,3.90941654e+08,6.50000000e-08,6.22202968e+07,6.50000000e-08,2.21151917e+01,1.0,1.000,sky130
7.00000000e-08,1.53901543e-06,7.00000000e-08,7.00003930e-08,7.00000000e-08,3.70361508e-15,7.00000000e-08,-2.83118602e-15,7.00000000e-08,-1.90421075e-18,7.00000000e-08,1.41806682e-15,7.00000000e-08,2.12323398e-15,7.00000000e-08,2.13466988e-18,7.00000000e-08,1.54882421e-08,7.00000000e-08,6.37947934e-01,7.00000000e-08,5.37909264e-02,7.00000000e-08,5.58056304e-01,7.00000000e-08,5.58056284e-01,7.00000000e-08,6.45651063e+07,7.00000000e-08,4.15544108e+08,7.00000000e-08,6.61358989e+07,7.00000000e-08,2.19858112e+01,1.0,1.000,sky130
7.50000000e-08,1.63984338e-06,7.50000000e-08,7.50001944e-08,7.50000000e-08,3.72834860e-15,7.50000000e-08,-2.86305408e-15,7.50000000e-08,-1.91796599e-18,7.50000000e-08,1.43243898e-15,7.50000000e-08,2.14477280e-15,7.50000000e-08,2.15020244e-18,7.50000000e-08,1.64494836e-08,7.50000000e-08,6.37947932e-01,7.50000000e-08,5.43382404e-02,7.50000000e-08,5.61171607e-01,7.50000000e-08,5.61171585e-01,7.50000000e-08,6.07921821e+07,7.50000000e-08,4.39831022e+08,7.50000000e-08,7.00012812e+07,7.50000000e-08,2.18645217e+01,1.0,1.000,sky130
8.00000000e-08,1.74001813e-06,8.00000000e-08,8.00000446e-08,8.00000000e-08,3.75145983e-15,8.00000000e-08,-2.89281743e-15,8.00000000e-08,-1.93094150e-18,8.00000000e-08,1.44584815e-15,8.00000000e-08,2.16486871e-15,8.00000000e-08,2.16485417e-18,8.00000000e-08,1.73980410e-08,8.00000000e-08,6.37947931e-01,8.00000000e-08,5.48764921e-02,8.00000000e-08,5.64101648e-01,8.00000000e-08,5.64101625e-01,8.00000000e-08,5.74777356e+07,8.00000000e-08,4.63824272e+08,8.00000000e-08,7.38199257e+07,8.00000000e-08,2.17502144e+01,1.0,1.000,sky130
8.50000000e-08,1.83956736e-06,8.50000000e-08,8.49999302e-08,8.50000000e-08,3.77314167e-15,8.50000000e-08,-2.92072758e-15,8.50000000e-08,-1.94322483e-18,8.50000000e-08,1.45841027e-15,8.50000000e-08,2.18369543e-15,8.50000000e-08,2.17872403e-18,8.50000000e-08,1.83345532e-08,8.50000000e-08,6.37947929e-01,8.50000000e-08,5.54061193e-02,8.50000000e-08,5.66868226e-01,8.50000000e-08,5.66868202e-01,8.50000000e-08,5.45418256e+07,8.50000000e-08,4.87542618e+08,8.50000000e-08,7.75948176e+07,8.50000000e-08,2.16419868e+01,1.0,1.000,sky130
9.00000000e-08,1.93851517e-06,9.00000000e-08,8.99998426e-08,9.00000000e-08,3.79355476e-15,9.00000000e-08,-2.94699380e-15,9.00000000e-08,-1.95488939e-18,9.00000000e-08,1.47022172e-15,9.00000000e-08,2.20139735e-15,9.00000000e-08,2.19189496e-18,9.00000000e-08,1.92596046e-08,9.00000000e-08,6.37947927e-01,9.00000000e-08,5.59275248e-02,9.00000000e-08,5.69489478e-01,9.00000000e-08,5.69489452e-01,9.00000000e-08,5.19221458e+07,9.00000000e-08,5.11002289e+08,9.00000000e-08,8.13285403e+07,9.00000000e-08,2.15390951e+01,1.0,1.000,sky130
9.50000000e-08,2.03688260e-06,9.50000000e-08,9.49997715e-08,9.50000000e-08,3.81283431e-15,9.50000000e-08,-2.97179209e-15,9.50000000e-08,-1.96599733e-18,9.50000000e-08,1.48136346e-15,9.50000000e-08,2.21809577e-15,9.50000000e-08,2.20443718e-18,9.50000000e-08,2.01737313e-08,9.50000000e-08,6.37947926e-01,9.50000000e-08,5.64410798e-02,9.50000000e-08,5.71980655e-01,9.50000000e-08,5.71980628e-01,9.50000000e-08,4.95694120e+07,9.50000000e-08,5.34217443e+08,9.50000000e-08,8.50233467e+07,9.50000000e-08,2.14409210e+01,1.0,1.000,sky130
1.00000000e-07,2.13468278e-06,1.00000000e-07,9.99994252e-08,1.00000000e-07,3.83109413e-15,1.00000000e-07,-2.99527055e-15,1.00000000e-07,-1.97660118e-18,1.00000000e-07,1.49190358e-15,1.00000000e-07,2.23389270e-15,1.00000000e-07,2.21641005e-18,1.00000000e-07,2.10773761e-08,1.00000000e-07,6.37947925e-01,1.00000000e-07,5.69470995e-02,1.00000000e-07,5.74354582e-01,1.00000000e-07,5.74354553e-01,1.00000000e-07,4.74442357e+07,1.00000000e-07,5.57199250e+08,1.00000000e-07,8.86810149e+07,1.00000000e-07,2.13469505e+01,1.0,1.000,sky130
