isweep,gm,i_id,id,i_cgg,cgg,i_cgs,cgs,i_cgd,cgd,i_cds,cds,i_css,css,i_cdd,cdd,i_gds,gds,i_vth,vth,i_vdsat,vdsat,i_vgs,vgs,i_vds,vds,i_rds,rds,i_wt,wt,i_ft,ft,i_kgm,kgm,W,L,pdk
1.00000000e-09,2.80156949e-08,1.00000000e-09,9.99635411e-10,1.00000000e-09,2.45626367e-15,1.00000000e-09,-1.11282456e-15,1.00000000e-09,-1.61544504e-18,1.00000000e-09,6.13796491e-16,1.00000000e-09,9.18132052e-16,1.00000000e-09,1.79262467e-18,1.00000000e-09,2.92056905e-10,1.00000000e-09,6.15226457e-01,1.00000000e-09,4.51145839e-02,1.00000000e-09,3.63013023e-01,1.00000000e-09,3.63013022e-01,1.00000000e-09,3.42399027e+09,1.00000000e-09,1.14058174e+07,1.00000000e-09,1.81529222e+06,1.00000000e-09,2.80259128e+01,1.0,1.000,sky130
1.50000000e-09,4.17339124e-08,1.50000000e-09,1.50552647e-09,1.50000000e-09,2.55465403e-15,1.50000000e-09,-1.24718093e-15,1.50000000e-09,-1.64887757e-18,1.50000000e-09,6.78558643e-16,1.50000000e-09,1.01510056e-15,1.50000000e-09,1.83086425e-18,1.50000000e-09,4.32740304e-10,1.50000000e-09,6.15226446e-01,1.50000000e-09,4.51805294e-02,1.50000000e-09,3.77551673e-01,1.50000000e-09,3.77551673e-01,1.50000000e-09,2.31085478e+09,1.50000000e-09,1.63364244e+07,1.50000000e-09,2.60002270e+06,1.50000000e-09,2.77204774e+01,1.0,1.000,sky130
2.00000000e-09,5.53090859e-08,2.00000000e-09,2.01324907e-09,2.00000000e-09,2.62986438e-15,2.00000000e-09,-1.34890474e-15,2.00000000e-09,-1.67644803e-18,2.00000000e-09,7.27191987e-16,2.00000000e-09,1.08792540e-15,2.00000000e-09,1.86225490e-18,2.00000000e-09,5.72137348e-10,2.00000000e-09,6.15226438e-01,2.00000000e-09,4.52463028e-02,2.00000000e-09,3.87973537e-01,2.00000000e-09,3.87973537e-01,2.00000000e-09,1.74783206e+09,2.00000000e-09,2.10311552e+07,2.00000000e-09,3.34721231e+06,2.00000000e-09,2.74725501e+01,1.0,1.000,sky130
2.50000000e-09,6.83226467e-08,2.50000000e-09,2.50562900e-09,2.50000000e-09,2.68940274e-15,2.50000000e-09,-1.42893203e-15,2.50000000e-09,-1.69925769e-18,2.50000000e-09,7.65237964e-16,2.50000000e-09,1.14489967e-15,2.50000000e-09,1.88816230e-18,2.50000000e-09,7.06022128e-10,2.50000000e-09,6.15226432e-01,2.50000000e-09,4.53097555e-02,2.50000000e-09,3.95885146e-01,2.50000000e-09,3.95885145e-01,2.50000000e-09,1.41638620e+09,2.50000000e-09,2.54043940e+07,2.50000000e-09,4.04323488e+06,2.50000000e-09,2.72676628e+01,1.0,1.000,sky130
3.00000000e-09,8.13012840e-08,3.00000000e-09,3.00156499e-09,3.00000000e-09,2.74040409e-15,3.00000000e-09,-1.49717700e-15,3.00000000e-09,-1.71939316e-18,3.00000000e-09,7.97545656e-16,3.00000000e-09,1.19328287e-15,3.00000000e-09,1.91099745e-18,3.00000000e-09,8.39815299e-10,3.00000000e-09,6.15226427e-01,3.00000000e-09,4.53733703e-02,3.00000000e-09,4.02462103e-01,3.00000000e-09,4.02462102e-01,3.00000000e-09,1.19073801e+09,3.00000000e-09,2.96676261e+07,3.00000000e-09,4.72174935e+06,3.00000000e-09,2.70862980e+01,1.0,1.000,sky130
3.50000000e-09,9.42490495e-08,3.50000000e-09,3.50070335e-09,3.50000000e-09,2.78514973e-15,3.50000000e-09,-1.55684031e-15,3.50000000e-09,-1.73746781e-18,3.50000000e-09,8.25694202e-16,3.50000000e-09,1.23543891e-15,3.50000000e-09,1.93147325e-18,3.50000000e-09,9.73553050e-10,3.50000000e-09,6.15226423e-01,3.50000000e-09,4.54371200e-02,3.50000000e-09,4.08100179e-01,3.50000000e-09,4.08100178e-01,3.50000000e-09,1.02716539e+09,3.50000000e-09,3.38398501e+07,3.50000000e-09,5.38577942e+06,3.50000000e-09,2.69228895e+01,1.0,1.000,sky130
4.00000000e-09,1.07106406e-07,4.00000000e-09,4.00032107e-09,4.00000000e-09,2.82490954e-15,4.00000000e-09,-1.60970355e-15,4.00000000e-09,-1.75382590e-18,4.00000000e-09,8.50563302e-16,4.00000000e-09,1.27268466e-15,4.00000000e-09,1.94998935e-18,4.00000000e-09,1.10660417e-09,4.00000000e-09,6.15226419e-01,4.00000000e-09,4.55006716e-02,4.00000000e-09,4.13018277e-01,4.00000000e-09,4.13018275e-01,4.00000000e-09,9.03665488e+08,4.00000000e-09,3.79149861e+07,4.00000000e-09,6.03435746e+06,4.00000000e-09,2.67744524e+01,1.0,1.000,sky130
4.50000000e-09,1.19873975e-07,4.50000000e-09,4.50006545e-09,4.50000000e-09,2.86071522e-15,4.50000000e-09,-1.65719548e-15,4.50000000e-09,-1.76878349e-18,4.50000000e-09,8.72850987e-16,4.50000000e-09,1.30606514e-15,4.50000000e-09,1.96690940e-18,4.50000000e-09,1.23895389e-09,4.50000000e-09,6.15226415e-01,4.50000000e-09,4.55639937e-02,4.50000000e-09,4.17380975e-01,4.50000000e-09,4.17380973e-01,4.50000000e-09,8.07132537e+08,4.50000000e-09,4.19034981e+07,4.50000000e-09,6.66914886e+06,4.50000000e-09,2.66382737e+01,1.0,1.000,sky130
5.00000000e-09,1.32559135e-07,5.00000000e-09,4.99991085e-09,5.00000000e-09,2.89331699e-15,5.00000000e-09,-1.70034939e-15,5.00000000e-09,-1.78258133e-18,5.00000000e-09,8.93059824e-16,5.00000000e-09,1.33633277e-15,5.00000000e-09,1.98250949e-18,5.00000000e-09,1.37065711e-09,5.00000000e-09,6.15226412e-01,5.00000000e-09,4.56270937e-02,5.00000000e-09,4.21303768e-01,5.00000000e-09,4.21303767e-01,5.00000000e-09,7.29577073e+08,5.00000000e-09,4.58156281e+07,5.00000000e-09,7.29178368e+06,5.00000000e-09,2.65122997e+01,1.0,1.000,sky130
5.50000000e-09,1.45167516e-07,5.50000000e-09,5.49981376e-09,5.50000000e-09,2.92326433e-15,5.50000000e-09,-1.73991930e-15,5.50000000e-09,-1.79540089e-18,5.50000000e-09,9.11555476e-16,5.50000000e-09,1.36403504e-15,5.50000000e-09,1.99699735e-18,5.50000000e-09,1.50175150e-09,5.50000000e-09,6.15226410e-01,5.50000000e-09,4.56899753e-02,5.50000000e-09,4.24869171e-01,5.50000000e-09,4.24869169e-01,5.50000000e-09,6.65889129e+08,5.50000000e-09,4.96593875e+07,5.50000000e-09,7.90353699e+06,5.50000000e-09,2.63949876e+01,1.0,1.000,sky130
6.00000000e-09,1.57704202e-07,6.00000000e-09,5.99974812e-09,6.00000000e-09,2.95097408e-15,6.00000000e-09,-1.77647538e-15,6.00000000e-09,-1.80738324e-18,6.00000000e-09,9.28613695e-16,6.00000000e-09,1.38958482e-15,6.00000000e-09,2.01053416e-18,6.00000000e-09,1.63227045e-09,6.00000000e-09,6.15226407e-01,6.00000000e-09,4.57526427e-02,6.00000000e-09,4.28138397e-01,6.00000000e-09,4.28138395e-01,6.00000000e-09,6.12643574e+08,6.00000000e-09,5.34414052e+07,6.00000000e-09,8.50546381e+06,6.00000000e-09,2.62851371e+01,1.0,1.000,sky130
6.50000000e-09,1.70173889e-07,6.50000000e-09,6.49970342e-09,6.50000000e-09,2.97677060e-15,6.50000000e-09,-1.81046001e-15,6.50000000e-09,-1.81864038e-18,6.50000000e-09,9.44447899e-16,6.50000000e-09,1.41330165e-15,6.50000000e-09,2.02324776e-18,6.50000000e-09,1.76224471e-09,6.50000000e-09,6.15226405e-01,6.50000000e-09,4.58151011e-02,6.50000000e-09,4.31158146e-01,6.50000000e-09,4.31158144e-01,6.50000000e-09,5.67458081e+08,6.50000000e-09,5.71672835e+07,6.50000000e-09,9.09845576e+06,6.50000000e-09,2.61817929e+01,1.0,1.000,sky130
7.00000000e-09,1.82580656e-07,7.00000000e-09,6.99966958e-09,7.00000000e-09,3.00091097e-15,7.00000000e-09,-1.84222296e-15,7.00000000e-09,-1.82926259e-18,7.00000000e-09,9.59226479e-16,7.00000000e-09,1.43543768e-15,7.00000000e-09,2.03524108e-18,7.00000000e-09,1.89170007e-09,7.00000000e-09,6.15226403e-01,7.00000000e-09,4.58773552e-02,7.00000000e-09,4.33964802e-01,7.00000000e-09,4.33964800e-01,7.00000000e-09,5.28625028e+08,7.00000000e-09,6.08417437e+07,7.00000000e-09,9.68326426e+06,7.00000000e-09,2.60841822e+01,1.0,1.000,sky130
7.50000000e-09,1.94928297e-07,7.50000000e-09,7.49964559e-09,7.50000000e-09,3.02360301e-15,7.50000000e-09,-1.87204632e-15,7.50000000e-09,-1.83932396e-18,7.50000000e-09,9.73084975e-16,7.50000000e-09,1.45619584e-15,7.50000000e-09,2.04659847e-18,7.50000000e-09,2.02066069e-09,7.50000000e-09,6.15226401e-01,7.50000000e-09,4.59394099e-02,7.50000000e-09,4.36587318e-01,7.50000000e-09,4.36587316e-01,7.50000000e-09,4.94887640e+08,7.50000000e-09,6.44688790e+07,7.50000000e-09,1.02605408e+07,7.50000000e-09,2.59916678e+01,1.0,1.000,sky130
8.00000000e-09,2.07220063e-07,8.00000000e-09,7.99962587e-09,8.00000000e-09,3.04501673e-15,8.00000000e-09,-1.90016045e-15,8.00000000e-09,-1.84888584e-18,8.00000000e-09,9.86133875e-16,8.00000000e-09,1.47574158e-15,8.00000000e-09,2.05738978e-18,8.00000000e-09,2.14914638e-09,8.00000000e-09,6.15226399e-01,8.00000000e-09,4.60012690e-02,8.00000000e-09,4.39049058e-01,8.00000000e-09,4.39049056e-01,8.00000000e-09,4.65301019e+08,8.00000000e-09,6.80521920e+07,8.00000000e-09,1.08308427e+07,8.00000000e-09,2.59037193e+01,1.0,1.000,sky130
8.50000000e-09,2.19459030e-07,8.50000000e-09,8.49961197e-09,8.50000000e-09,3.06529354e-15,8.50000000e-09,-1.92675656e-15,8.50000000e-09,-1.85799986e-18,8.50000000e-09,9.98464743e-16,8.50000000e-09,1.49421202e-15,8.50000000e-09,2.06767372e-18,8.50000000e-09,2.27717622e-09,8.50000000e-09,6.15226397e-01,8.50000000e-09,4.60629369e-02,8.50000000e-09,4.41369202e-01,8.50000000e-09,4.41369200e-01,8.50000000e-09,4.39140367e+08,8.50000000e-09,7.15947844e+07,8.50000000e-09,1.13946638e+07,8.50000000e-09,2.58198881e+01,1.0,1.000,sky130
9.00000000e-09,2.31647834e-07,9.00000000e-09,8.99959991e-09,9.00000000e-09,3.08455194e-15,9.00000000e-09,-1.95199465e-15,9.00000000e-09,-1.86670970e-18,9.00000000e-09,1.01015409e-15,9.00000000e-09,1.51172170e-15,9.00000000e-09,2.07749994e-18,9.00000000e-09,2.40476578e-09,9.00000000e-09,6.15226396e-01,9.00000000e-09,4.61244169e-02,9.00000000e-09,4.43563642e-01,9.00000000e-09,4.43563640e-01,9.00000000e-09,4.15840915e+08,9.00000000e-09,7.50993462e+07,9.00000000e-09,1.19524322e+07,9.00000000e-09,2.57397925e+01,1.0,1.000,sky130
9.50000000e-09,2.43788976e-07,9.50000000e-09,9.49959072e-09,9.50000000e-09,3.10289262e-15,9.50000000e-09,-1.97601046e-15,9.50000000e-09,-1.87505283e-18,9.50000000e-09,1.02126671e-15,9.50000000e-09,1.52836769e-15,9.50000000e-09,2.08691101e-18,9.50000000e-09,2.53193015e-09,9.50000000e-09,6.15226394e-01,9.50000000e-09,4.61857127e-02,9.50000000e-09,4.45645736e-01,9.50000000e-09,4.45645734e-01,9.50000000e-09,3.94955603e+08,9.50000000e-09,7.85682926e+07,9.50000000e-09,1.25045321e+07,9.50000000e-09,2.56631031e+01,1.0,1.000,sky130
1.00000000e-08,2.55883904e-07,1.00000000e-08,9.99955115e-09,1.00000000e-08,3.12040059e-15,1.00000000e-08,-1.99891847e-15,1.00000000e-08,-1.88306105e-18,1.00000000e-08,1.03185724e-15,1.00000000e-08,1.54423176e-15,1.00000000e-08,2.09594304e-18,1.00000000e-08,2.65867432e-09,1.00000000e-08,6.15226393e-01,1.00000000e-08,4.62468233e-02,1.00000000e-08,4.47626671e-01,1.00000000e-08,4.47626668e-01,1.00000000e-08,3.76127303e+08,1.00000000e-08,8.20035431e+07,1.00000000e-08,1.30512692e+07,1.00000000e-08,2.55895390e+01,1.0,1.000,sky130
1.50000000e-08,3.75951121e-07,1.50000000e-08,1.50519240e-08,1.50000000e-08,3.26358134e-15,1.50000000e-08,-2.18566774e-15,1.50000000e-08,-1.95016150e-18,1.50000000e-08,1.11786112e-15,1.50000000e-08,1.67306678e-15,1.50000000e-08,2.17158049e-18,1.50000000e-08,3.91865070e-09,1.50000000e-08,6.15226381e-01,1.50000000e-08,4.68548022e-02,1.50000000e-08,4.63633883e-01,1.50000000e-08,4.63633879e-01,1.50000000e-08,2.55189879e+08,1.50000000e-08,1.15195879e+08,1.50000000e-08,1.83339935e+07,1.50000000e-08,2.49769479e+01,1.0,1.000,sky130
2.00000000e-08,4.93280071e-07,2.00000000e-08,2.01186549e-08,2.00000000e-08,3.36862665e-15,2.00000000e-08,-2.32207168e-15,2.00000000e-08,-2.00124181e-18,2.00000000e-08,1.18032654e-15,2.00000000e-08,1.76664694e-15,2.00000000e-08,2.22911990e-18,2.00000000e-08,5.14920960e-09,2.00000000e-08,6.15226372e-01,2.00000000e-08,4.74484825e-02,2.00000000e-08,4.75236478e-01,2.00000000e-08,4.75236472e-01,2.00000000e-08,1.94204563e+08,2.00000000e-08,1.46433583e+08,2.00000000e-08,2.33056286e+07,2.00000000e-08,2.45185413e+01,1.0,1.000,sky130
2.50000000e-08,6.05301943e-07,2.50000000e-08,2.50516432e-08,2.50000000e-08,3.44962570e-15,2.50000000e-08,-2.42694144e-15,2.50000000e-08,-2.04174068e-18,2.50000000e-08,1.22816040e-15,2.50000000e-08,1.83831083e-15,2.50000000e-08,2.27472120e-18,2.50000000e-08,6.32016039e-09,2.50000000e-08,6.15226365e-01,2.50000000e-08,4.80125998e-02,2.50000000e-08,4.84152719e-01,2.50000000e-08,4.84152712e-01,2.50000000e-08,1.58223833e+08,2.50000000e-08,1.75468876e+08,2.50000000e-08,2.79267389e+07,2.50000000e-08,2.41621652e+01,1.0,1.000,sky130
3.00000000e-08,7.16314607e-07,3.00000000e-08,3.00172435e-08,3.00000000e-08,3.51729045e-15,3.00000000e-08,-2.51435804e-15,3.00000000e-08,-2.07634669e-18,3.00000000e-08,1.26791149e-15,3.00000000e-08,1.89786751e-15,3.00000000e-08,2.31367650e-18,3.00000000e-08,7.47488189e-09,3.00000000e-08,6.15226360e-01,3.00000000e-08,4.85677592e-02,3.00000000e-08,4.91605591e-01,3.00000000e-08,4.91605583e-01,3.00000000e-08,1.33781378e+08,3.00000000e-08,2.03655233e+08,3.00000000e-08,3.24127371e+07,3.00000000e-08,2.38634373e+01,1.0,1.000,sky130
3.50000000e-08,8.26458047e-07,3.50000000e-08,3.50096035e-08,3.50000000e-08,3.57537461e-15,3.50000000e-08,-2.58926912e-15,3.50000000e-08,-2.10663874e-18,3.50000000e-08,1.30188996e-15,3.50000000e-08,1.94877705e-15,3.50000000e-08,2.34776877e-18,3.50000000e-08,8.61387723e-09,3.50000000e-08,6.15226355e-01,3.50000000e-08,4.91140293e-02,3.50000000e-08,4.98020698e-01,3.50000000e-08,4.98020688e-01,3.50000000e-08,1.16091741e+08,3.50000000e-08,2.31152855e+08,3.50000000e-08,3.67891194e+07,3.50000000e-08,2.36066097e+01,1.0,1.000,sky130
4.00000000e-08,9.35434663e-07,4.00000000e-08,4.00061169e-08,4.00000000e-08,3.62605623e-15,4.00000000e-08,-2.65454167e-15,4.00000000e-08,-2.13353011e-18,4.00000000e-08,1.33143300e-15,4.00000000e-08,1.99304229e-15,4.00000000e-08,2.37802901e-18,4.00000000e-08,9.73362315e-09,4.00000000e-08,6.15226351e-01,4.00000000e-08,4.96496400e-02,4.00000000e-08,5.03640546e-01,4.00000000e-08,5.03640535e-01,4.00000000e-08,1.02736667e+08,4.00000000e-08,2.57975774e+08,4.00000000e-08,4.10581196e+07,4.00000000e-08,2.33822909e+01,1.0,1.000,sky130
4.50000000e-08,1.04333687e-06,4.50000000e-08,4.50038651e-08,4.50000000e-08,3.67097038e-15,4.50000000e-08,-2.71231838e-15,4.50000000e-08,-2.15773291e-18,4.50000000e-08,1.35753461e-15,4.50000000e-08,2.03215212e-15,4.50000000e-08,2.40526049e-18,4.50000000e-08,1.08349558e-08,4.50000000e-08,6.15226348e-01,4.50000000e-08,5.01749688e-02,4.50000000e-08,5.08644467e-01,4.50000000e-08,5.08644454e-01,4.50000000e-08,9.22938701e+07,4.50000000e-08,2.84212828e+08,4.50000000e-08,4.52338764e+07,4.50000000e-08,2.31832726e+01,1.0,1.000,sky130
5.00000000e-08,1.15027647e-06,5.00000000e-08,5.00025059e-08,5.00000000e-08,3.71127686e-15,5.00000000e-08,-2.76411577e-15,5.00000000e-08,-2.17976050e-18,5.00000000e-08,1.38089641e-15,5.00000000e-08,2.06715749e-15,5.00000000e-08,2.43004206e-18,5.00000000e-08,1.19190807e-08,5.00000000e-08,6.15226345e-01,5.00000000e-08,5.06905979e-02,5.00000000e-08,5.13158383e-01,5.00000000e-08,5.13158368e-01,5.00000000e-08,8.38990877e+07,5.00000000e-08,3.09940893e+08,5.00000000e-08,4.93286252e+07,5.00000000e-08,2.30043764e+01,1.0,1.000,sky130
5.50000000e-08,1.25633808e-06,5.50000000e-08,5.50016560e-08,5.50000000e-08,3.74781568e-15,5.50000000e-08,-2.81103031e-15,5.50000000e-08,-2.19998880e-18,5.50000000e-08,1.40202469e-15,5.50000000e-08,2.09881679e-15,5.50000000e-08,2.45279748e-18,5.50000000e-08,1.29870264e-08,5.50000000e-08,6.15226342e-01,5.50000000e-08,5.11970405e-02,5.50000000e-08,5.17272756e-01,5.50000000e-08,5.17272740e-01,5.50000000e-08,7.69999202e+07,5.50000000e-08,3.35218748e+08,5.50000000e-08,5.33517208e+07,5.50000000e-08,2.28418228e+01,1.0,1.000,sky130
6.00000000e-08,1.36159088e-06,6.00000000e-08,6.00010926e-08,6.00000000e-08,3.78121640e-15,6.00000000e-08,-2.85388261e-15,6.00000000e-08,-2.21870254e-18,6.00000000e-08,1.42129767e-15,6.00000000e-08,2.12769659e-15,6.00000000e-08,2.47384763e-18,6.00000000e-08,1.40397236e-08,6.00000000e-08,6.15226339e-01,6.00000000e-08,5.16947723e-02,6.00000000e-08,5.21054960e-01,6.00000000e-08,5.21054942e-01,6.00000000e-08,7.12264732e+07,6.00000000e-08,3.60093349e+08,6.00000000e-08,5.73106364e+07,6.00000000e-08,2.26927681e+01,1.0,1.000,sky130
6.50000000e-08,1.46609243e-06,6.50000000e-08,6.50007062e-08,6.50000000e-08,3.81196329e-15,6.50000000e-08,-2.89330302e-15,6.50000000e-08,-2.23612283e-18,6.50000000e-08,1.43900541e-15,6.50000000e-08,2.15423142e-15,6.50000000e-08,2.49344165e-18,6.50000000e-08,1.50780192e-08,6.50000000e-08,6.15226337e-01,6.50000000e-08,5.21842343e-02,6.50000000e-08,5.24556550e-01,6.50000000e-08,5.24556531e-01,6.50000000e-08,6.63217089e+07,6.50000000e-08,3.84602976e+08,6.50000000e-08,6.12114648e+07,6.50000000e-08,2.25550231e+01,1.0,1.000,sky130
7.00000000e-08,1.56989061e-06,7.00000000e-08,7.00004305e-08,7.00000000e-08,3.84043669e-15,7.00000000e-08,-2.92978609e-15,7.00000000e-08,-2.25242488e-18,7.00000000e-08,1.45537517e-15,7.00000000e-08,2.17876170e-15,7.00000000e-08,2.51177694e-18,7.00000000e-08,1.61026792e-08,7.00000000e-08,6.15226335e-01,7.00000000e-08,5.26658316e-02,7.00000000e-08,5.27817858e-01,7.00000000e-08,5.27817838e-01,7.00000000e-08,6.21014668e+07,7.00000000e-08,4.08779194e+08,7.00000000e-08,6.50592293e+07,7.00000000e-08,2.24268708e+01,1.0,1.000,sky130
7.50000000e-08,1.67302583e-06,7.50000000e-08,7.50002304e-08,7.50000000e-08,3.86694085e-15,7.50000000e-08,-2.96372701e-15,7.50000000e-08,-2.26775002e-18,7.50000000e-08,1.47058830e-15,7.50000000e-08,2.20155912e-15,7.50000000e-08,2.52901268e-18,7.50000000e-08,1.71144007e-08,7.50000000e-08,6.15226333e-01,7.50000000e-08,5.31399374e-02,7.50000000e-08,5.30871042e-01,7.50000000e-08,5.30871020e-01,7.50000000e-08,5.84303254e+07,7.50000000e-08,4.32648415e+08,7.50000000e-08,6.88581339e+07,7.50000000e-08,2.23069426e+01,1.0,1.000,sky130
8.00000000e-08,1.77553229e-06,8.00000000e-08,8.00000790e-08,8.00000000e-08,3.89172295e-15,8.00000000e-08,-2.99544651e-15,8.00000000e-08,-2.28221393e-18,8.00000000e-08,1.48479181e-15,8.00000000e-08,2.22284389e-15,8.00000000e-08,2.54527917e-18,8.00000000e-08,1.81138177e-08,8.00000000e-08,6.15226331e-01,8.00000000e-08,5.36068950e-02,8.00000000e-08,5.33742154e-01,8.00000000e-08,5.33742131e-01,8.00000000e-08,5.52064738e+07,8.00000000e-08,4.56232962e+08,8.00000000e-08,7.26117311e+07,8.00000000e-08,2.21941317e+01,1.0,1.000,sky130
8.50000000e-08,1.87743946e-06,8.50000000e-08,8.49999647e-08,8.50000000e-08,3.91498656e-15,8.50000000e-08,-3.02520856e-15,8.50000000e-08,-2.29591260e-18,8.50000000e-08,1.49810656e-15,8.50000000e-08,2.24279708e-15,8.50000000e-08,2.56068448e-18,8.50000000e-08,1.91015117e-08,8.50000000e-08,6.15226329e-01,8.50000000e-08,5.40670223e-02,8.50000000e-08,5.36452612e-01,8.50000000e-08,5.36452587e-01,8.50000000e-08,5.23518775e+07,8.50000000e-08,4.79551957e+08,8.50000000e-08,7.63230644e+07,8.50000000e-08,2.20875323e+01,1.0,1.000,sky130
9.00000000e-08,1.97877281e-06,9.00000000e-08,8.99998762e-08,9.00000000e-08,3.93690132e-15,9.00000000e-08,-3.05323293e-15,9.00000000e-08,-2.30892654e-18,9.00000000e-08,1.51063305e-15,9.00000000e-08,2.26156926e-15,9.00000000e-08,2.57531931e-18,9.00000000e-08,2.00780161e-08,9.00000000e-08,6.15226328e-01,9.00000000e-08,5.45206131e-02,9.00000000e-08,5.39020230e-01,9.00000000e-08,5.39020204e-01,9.00000000e-08,4.98057177e+07,9.00000000e-08,5.02621897e+08,9.00000000e-08,7.99947594e+07,9.00000000e-08,2.19863948e+01,1.0,1.000,sky130
9.50000000e-08,2.07955457e-06,9.50000000e-08,9.49998059e-08,9.50000000e-08,3.95761008e-15,9.50000000e-08,-3.07970456e-15,9.50000000e-08,-2.32132403e-18,9.50000000e-08,1.52245580e-15,9.50000000e-08,2.27928704e-15,9.50000000e-08,2.58926050e-18,9.50000000e-08,2.10438222e-08,9.50000000e-08,6.15226326e-01,9.50000000e-08,5.49679401e-02,9.50000000e-08,5.41459994e-01,9.50000000e-08,5.41459967e-01,9.50000000e-08,4.75198844e+07,9.50000000e-08,5.25457163e+08,9.50000000e-08,8.36291049e+07,9.50000000e-08,2.18900928e+01,1.0,1.000,sky130
1.00000000e-07,2.17979850e-06,1.00000000e-07,9.99994556e-08,1.00000000e-07,3.97723318e-15,1.00000000e-07,-3.10477913e-15,1.00000000e-07,-2.33316277e-18,1.00000000e-07,1.53364590e-15,1.00000000e-07,2.29605692e-15,1.00000000e-07,2.60257303e-18,1.00000000e-07,2.19993290e-08,1.00000000e-07,6.15226325e-01,1.00000000e-07,5.54092314e-02,1.00000000e-07,5.43784499e-01,1.00000000e-07,5.43784470e-01,1.00000000e-07,4.54559319e+07,1.00000000e-07,5.48069072e+08,1.00000000e-07,8.72279019e+07,1.00000000e-07,2.17981036e+01,1.0,1.000,sky130
