isweep,gm,i_id,id,i_cgg,cgg,i_cgs,cgs,i_cgd,cgd,i_cds,cds,i_css,css,i_cdd,cdd,i_gds,gds,i_vth,vth,i_vdsat,vdsat,i_vgs,vgs,i_vds,vds,i_rds,rds,i_wt,wt,i_ft,ft,i_kgm,kgm,W,L,pdk
1.00000000e-09,2.44269118e-08,1.00000000e-09,9.99484539e-10,1.00000000e-09,2.42769677e-15,1.00000000e-09,-1.05461765e-15,1.00000000e-09,-3.05263529e-18,1.00000000e-09,5.89901706e-16,1.00000000e-09,8.82237155e-16,1.00000000e-09,3.37427768e-18,1.00000000e-09,2.90906781e-10,1.00000000e-09,5.74590779e-01,1.00000000e-09,5.22216071e-02,1.00000000e-09,3.02421402e-01,1.00000000e-09,3.02421402e-01,1.00000000e-09,3.43752729e+09,1.00000000e-09,1.00617639e+07,1.00000000e-09,1.60137946e+06,1.00000000e-09,2.44395094e+01,1.0,1.000,sky130
1.50000000e-09,3.64800652e-08,1.50000000e-09,1.50549652e-09,1.50000000e-09,2.51898841e-15,1.50000000e-09,-1.18341792e-15,1.50000000e-09,-3.00337329e-18,1.50000000e-09,6.52308620e-16,1.50000000e-09,9.75631646e-16,1.50000000e-09,3.32311558e-18,1.50000000e-09,4.26239386e-10,1.50000000e-09,5.74590766e-01,1.50000000e-09,5.22941055e-02,1.50000000e-09,3.19056414e-01,1.50000000e-09,3.19056414e-01,1.50000000e-09,2.34609947e+09,1.50000000e-09,1.44820298e+07,1.50000000e-09,2.30488662e+06,1.50000000e-09,2.42312518e+01,1.0,1.000,sky130
2.00000000e-09,4.84474980e-08,2.00000000e-09,2.01344995e-09,2.00000000e-09,2.58905736e-15,2.00000000e-09,-1.28101326e-15,2.00000000e-09,-2.98027392e-18,2.00000000e-09,6.99185530e-16,2.00000000e-09,1.04579821e-15,2.00000000e-09,3.29970143e-18,2.00000000e-09,5.59663143e-10,2.00000000e-09,5.74590757e-01,2.00000000e-09,5.23664133e-02,2.00000000e-09,3.30957521e-01,2.00000000e-09,3.30957521e-01,2.00000000e-09,1.78678909e+09,2.00000000e-09,1.87124081e+07,2.00000000e-09,2.97817225e+06,2.00000000e-09,2.40619331e+01,1.0,1.000,sky130
2.50000000e-09,5.99403413e-08,2.50000000e-09,2.50566366e-09,2.50000000e-09,2.64461804e-15,2.50000000e-09,-1.35776259e-15,2.50000000e-09,-2.96868391e-18,2.50000000e-09,7.35829825e-16,2.50000000e-09,1.10065490e-15,2.50000000e-09,3.28839085e-18,2.50000000e-09,6.87264341e-10,2.50000000e-09,5.74590750e-01,2.50000000e-09,5.24361053e-02,2.50000000e-09,3.39969218e-01,2.50000000e-09,3.39969217e-01,2.50000000e-09,1.45504421e+09,2.50000000e-09,2.26650278e+07,2.50000000e-09,3.60725121e+06,2.50000000e-09,2.39219422e+01,1.0,1.000,sky130
3.00000000e-09,7.14283727e-08,3.00000000e-09,3.00146071e-09,3.00000000e-09,2.69229901e-15,3.00000000e-09,-1.42323698e-15,3.00000000e-09,-2.96257054e-18,3.00000000e-09,7.66950741e-16,3.00000000e-09,1.14724704e-15,3.00000000e-09,3.28282155e-18,3.00000000e-09,8.14462552e-10,3.00000000e-09,5.74590744e-01,3.00000000e-09,5.25059741e-02,3.00000000e-09,3.47450388e-01,3.00000000e-09,3.47450387e-01,3.00000000e-09,1.22780353e+09,3.00000000e-09,2.65306240e+07,3.00000000e-09,4.22247995e+06,3.00000000e-09,2.37978703e+01,1.0,1.000,sky130
3.50000000e-09,8.29143910e-08,3.50000000e-09,3.50057475e-09,3.50000000e-09,2.73419649e-15,3.50000000e-09,-1.48050307e-15,3.50000000e-09,-2.95968053e-18,3.50000000e-09,7.94071348e-16,3.50000000e-09,1.18785288e-15,3.50000000e-09,3.28060821e-18,3.50000000e-09,9.41384344e-10,3.50000000e-09,5.74590739e-01,3.50000000e-09,5.25760041e-02,3.50000000e-09,3.53856563e-01,3.50000000e-09,3.53856562e-01,3.50000000e-09,1.06226538e+09,3.50000000e-09,3.03249570e+07,3.50000000e-09,4.82636681e+06,3.50000000e-09,2.36859364e+01,1.0,1.000,sky130
4.00000000e-09,9.43409793e-08,4.00000000e-09,4.00018517e-09,4.00000000e-09,2.77146491e-15,4.00000000e-09,-1.53125065e-15,4.00000000e-09,-2.95881798e-18,4.00000000e-09,8.18031994e-16,4.00000000e-09,1.22372945e-15,4.00000000e-09,3.28048527e-18,4.00000000e-09,1.06745500e-09,4.00000000e-09,5.74590735e-01,4.00000000e-09,5.26458174e-02,4.00000000e-09,3.59437956e-01,4.00000000e-09,3.59437955e-01,4.00000000e-09,9.36807642e+08,4.00000000e-09,3.40401132e+07,4.00000000e-09,5.41765227e+06,4.00000000e-09,2.35841531e+01,1.0,1.000,sky130
4.50000000e-09,1.05706270e-07,4.50000000e-09,4.49992245e-09,4.50000000e-09,2.80505483e-15,4.50000000e-09,-1.57684611e-15,4.50000000e-09,-2.95927366e-18,4.50000000e-09,8.39504329e-16,4.50000000e-09,1.25588169e-15,4.50000000e-09,3.28170761e-18,4.50000000e-09,1.19269340e-09,4.50000000e-09,5.74590731e-01,4.50000000e-09,5.27153780e-02,4.50000000e-09,3.64383401e-01,4.50000000e-09,3.64383400e-01,4.50000000e-09,8.38438448e+08,4.50000000e-09,3.76842081e+07,4.50000000e-09,5.99762800e+06,4.50000000e-09,2.34906870e+01,1.0,1.000,sky130
5.00000000e-09,1.17015183e-07,5.00000000e-09,4.99976292e-09,5.00000000e-09,2.83566030e-15,5.00000000e-09,-1.61827973e-15,5.00000000e-09,-2.96061479e-18,5.00000000e-09,8.58972783e-16,5.00000000e-09,1.28503447e-15,5.00000000e-09,3.28382291e-18,5.00000000e-09,1.31717983e-09,5.00000000e-09,5.74590728e-01,5.00000000e-09,5.27846953e-02,5.00000000e-09,3.68825495e-01,5.00000000e-09,3.68825494e-01,5.00000000e-09,7.59197780e+08,5.00000000e-09,4.12655858e+07,5.00000000e-09,6.56762196e+06,5.00000000e-09,2.34041464e+01,1.0,1.000,sky130
5.50000000e-09,1.28271271e-07,5.50000000e-09,5.49966125e-09,5.50000000e-09,2.86379031e-15,5.50000000e-09,-1.65627413e-15,5.50000000e-09,-2.96256478e-18,5.50000000e-09,8.76789736e-16,5.50000000e-09,1.31171513e-15,5.50000000e-09,3.28654340e-18,5.50000000e-09,1.44097092e-09,5.50000000e-09,5.74590725e-01,5.50000000e-09,5.28537735e-02,5.50000000e-09,3.72858897e-01,5.50000000e-09,3.72858895e-01,5.50000000e-09,6.93976531e+08,5.50000000e-09,4.47907344e+07,5.50000000e-09,7.12866679e+06,5.50000000e-09,2.33234858e+01,1.0,1.000,sky130
6.00000000e-09,1.39477920e-07,6.00000000e-09,5.99959449e-09,6.00000000e-09,2.88983181e-15,6.00000000e-09,-1.69137624e-15,6.00000000e-09,-2.96493991e-18,6.00000000e-09,8.93221113e-16,6.00000000e-09,1.33632163e-15,6.00000000e-09,3.28967893e-18,6.00000000e-09,1.56411591e-09,6.00000000e-09,5.74590722e-01,6.00000000e-09,5.29226182e-02,6.00000000e-09,3.76553836e-01,6.00000000e-09,3.76553834e-01,6.00000000e-09,6.39338809e+08,6.00000000e-09,4.82650651e+07,6.00000000e-09,7.68162368e+06,6.00000000e-09,2.32478913e+01,1.0,1.000,sky130
6.50000000e-09,1.50638160e-07,6.50000000e-09,6.49954726e-09,6.50000000e-09,2.91408586e-15,6.50000000e-09,-1.72401000e-15,6.50000000e-09,-2.96761434e-18,6.50000000e-09,9.08472505e-16,6.50000000e-09,1.35916166e-15,6.50000000e-09,3.29309997e-18,6.50000000e-09,1.68665633e-09,6.50000000e-09,5.74590720e-01,6.50000000e-09,5.29912351e-02,6.50000000e-09,3.79963808e-01,6.50000000e-09,3.79963806e-01,6.50000000e-09,5.92889010e+08,6.50000000e-09,5.16931096e+07,6.50000000e-09,8.22721391e+06,6.50000000e-09,2.31767158e+01,1.0,1.000,sky130
7.00000000e-09,1.61754798e-07,7.00000000e-09,6.99951344e-09,7.00000000e-09,2.93679174e-15,7.00000000e-09,-1.75451120e-15,7.00000000e-09,-2.97049968e-18,7.00000000e-09,9.22706389e-16,7.00000000e-09,1.38047842e-15,7.00000000e-09,3.29671617e-18,7.00000000e-09,1.80862871e-09,7.00000000e-09,5.74590717e-01,7.00000000e-09,5.30596297e-02,7.00000000e-09,3.83130535e-01,7.00000000e-09,3.83130533e-01,7.00000000e-09,5.52905079e+08,7.00000000e-09,5.50787431e+07,7.00000000e-09,8.76605423e+06,7.00000000e-09,2.31094346e+01,1.0,1.000,sky130
7.50000000e-09,1.72830335e-07,7.50000000e-09,7.49948863e-09,7.50000000e-09,2.95814275e-15,7.50000000e-09,-1.78315031e-15,7.50000000e-09,-2.97353260e-18,7.50000000e-09,9.36053357e-16,7.50000000e-09,1.40046735e-15,7.50000000e-09,3.30046318e-18,7.50000000e-09,1.93006437e-09,7.50000000e-09,5.74590715e-01,7.50000000e-09,5.31278074e-02,7.50000000e-09,3.86087157e-01,7.50000000e-09,3.86087155e-01,7.50000000e-09,5.18117434e+08,7.50000000e-09,5.84252855e+07,7.50000000e-09,9.29867299e+06,7.50000000e-09,2.30456160e+01,1.0,1.000,sky130
8.00000000e-09,1.83866987e-07,8.00000000e-09,7.99946871e-09,8.00000000e-09,2.97829736e-15,8.00000000e-09,-1.81014848e-15,8.00000000e-09,-2.97666689e-18,8.00000000e-09,9.48619988e-16,8.00000000e-09,1.41928800e-15,8.00000000e-09,3.30429445e-18,8.00000000e-09,2.05099024e-09,8.00000000e-09,5.74590713e-01,8.00000000e-09,5.31957728e-02,8.00000000e-09,3.88860436e-01,8.00000000e-09,3.88860433e-01,8.00000000e-09,4.87569360e+08,8.00000000e-09,6.17356043e+07,8.00000000e-09,9.82552660e+06,8.00000000e-09,2.29848999e+01,1.0,1.000,sky130
8.50000000e-09,1.94866793e-07,8.50000000e-09,8.49945238e-09,8.50000000e-09,2.99738728e-15,8.50000000e-09,-1.83568909e-15,8.50000000e-09,-2.97986843e-18,8.50000000e-09,9.60494511e-16,8.50000000e-09,1.43707242e-15,8.50000000e-09,3.30817590e-18,8.50000000e-09,2.17143035e-09,8.50000000e-09,5.74590711e-01,8.50000000e-09,5.32635304e-02,8.50000000e-09,3.91472308e-01,8.50000000e-09,3.91472305e-01,8.50000000e-09,4.60525938e+08,8.50000000e-09,6.50122171e+07,8.50000000e-09,1.03470157e+07,8.50000000e-09,2.29269821e+01,1.0,1.000,sky130
9.00000000e-09,2.05831635e-07,9.00000000e-09,8.99944072e-09,9.00000000e-09,3.01552328e-15,9.00000000e-09,-1.85992599e-15,9.00000000e-09,-2.98311172e-18,9.00000000e-09,9.71750819e-16,9.00000000e-09,1.45393123e-15,9.00000000e-09,3.31208232e-18,9.00000000e-09,2.29140638e-09,9.00000000e-09,5.74590709e-01,9.00000000e-09,5.33310847e-02,9.00000000e-09,3.93940984e-01,9.00000000e-09,3.93940982e-01,9.00000000e-09,4.36413204e+08,9.00000000e-09,6.82573524e+07,9.00000000e-09,1.08634950e+07,9.00000000e-09,2.28716030e+01,1.0,1.000,sky130
9.50000000e-09,2.16763130e-07,9.50000000e-09,9.49943055e-09,9.50000000e-09,3.03279920e-15,9.50000000e-09,-1.88298927e-15,9.50000000e-09,-2.98637752e-18,9.50000000e-09,9.82451316e-16,9.50000000e-09,1.46995785e-15,9.50000000e-09,3.31599489e-18,9.50000000e-09,2.41093657e-09,9.50000000e-09,5.74590707e-01,9.50000000e-09,5.33984391e-02,9.50000000e-09,3.96281721e-01,9.50000000e-09,3.96281718e-01,9.50000000e-09,4.14776570e+08,9.50000000e-09,7.14729583e+07,9.50000000e-09,1.13752746e+07,9.50000000e-09,2.28185394e+01,1.0,1.000,sky130
1.00000000e-08,2.27662099e-07,1.00000000e-08,9.99938912e-09,1.00000000e-08,3.04929444e-15,1.00000000e-08,-1.90498889e-15,1.00000000e-08,-2.98965100e-18,1.00000000e-08,9.92648682e-16,1.00000000e-08,1.48523114e-15,1.00000000e-08,3.31989927e-18,1.00000000e-08,2.53003014e-09,1.00000000e-08,5.74590705e-01,1.00000000e-08,5.34655930e-02,1.00000000e-08,3.98507313e-01,1.00000000e-08,3.98507310e-01,1.00000000e-08,3.95252208e+08,1.00000000e-08,7.46605823e+07,1.00000000e-08,1.18826007e+07,1.00000000e-08,2.27676007e+01,1.0,1.000,sky130
1.50000000e-08,3.36337990e-07,1.50000000e-08,1.50543382e-08,1.50000000e-08,3.18438042e-15,1.50000000e-08,-2.08442241e-15,1.50000000e-08,-3.02162862e-18,1.50000000e-08,1.07548479e-15,1.50000000e-08,1.60930821e-15,1.50000000e-08,3.35749468e-18,1.50000000e-08,3.71291475e-09,1.50000000e-08,5.74590692e-01,1.50000000e-08,5.41342051e-02,1.50000000e-08,4.16446965e-01,1.50000000e-08,4.16446960e-01,1.50000000e-08,2.69330181e+08,1.50000000e-08,1.05621171e+08,1.50000000e-08,1.68101315e+07,1.50000000e-08,2.23415992e+01,1.0,1.000,sky130
2.00000000e-08,4.43168568e-07,2.00000000e-08,2.01253616e-08,2.00000000e-08,3.28364717e-15,2.00000000e-08,-2.21553507e-15,2.00000000e-08,-3.05027716e-18,2.00000000e-08,1.13565714e-15,2.00000000e-08,1.69944636e-15,2.00000000e-08,3.39073149e-18,2.00000000e-08,4.86684875e-09,2.00000000e-08,5.74590682e-01,2.00000000e-08,5.47876222e-02,2.00000000e-08,4.29392386e-01,2.00000000e-08,4.29392380e-01,2.00000000e-08,2.05471764e+08,2.00000000e-08,1.34962298e+08,2.00000000e-08,2.14799169e+07,2.00000000e-08,2.20204027e+01,1.0,1.000,sky130
2.50000000e-08,5.45424542e-07,2.50000000e-08,2.50548323e-08,2.50000000e-08,3.36015944e-15,2.50000000e-08,-2.31621628e-15,2.50000000e-08,-3.07494371e-18,2.50000000e-08,1.18167216e-15,2.50000000e-08,1.76838127e-15,2.50000000e-08,3.41917301e-18,2.50000000e-08,5.96246902e-09,2.50000000e-08,5.74590675e-01,2.50000000e-08,5.54078297e-02,2.50000000e-08,4.39290067e-01,2.50000000e-08,4.39290060e-01,2.50000000e-08,1.67715756e+08,2.50000000e-08,1.62321030e+08,2.50000000e-08,2.58341943e+07,2.50000000e-08,2.17692354e+01,1.0,1.000,sky130
3.00000000e-08,6.47098174e-07,3.00000000e-08,3.00179499e-08,3.00000000e-08,3.42416351e-15,3.00000000e-08,-2.40020826e-15,3.00000000e-08,-3.09716105e-18,3.00000000e-08,1.21993776e-15,3.00000000e-08,1.82570967e-15,3.00000000e-08,3.44469801e-18,3.00000000e-08,7.04290176e-09,3.00000000e-08,5.74590669e-01,3.00000000e-08,5.60186032e-02,3.00000000e-08,4.47542663e-01,3.00000000e-08,4.47542654e-01,3.00000000e-08,1.41986930e+08,3.00000000e-08,1.88979928e+08,3.00000000e-08,3.00770897e+07,3.00000000e-08,2.15570409e+01,1.0,1.000,sky130
3.50000000e-08,7.48270466e-07,3.50000000e-08,3.50099084e-08,3.50000000e-08,3.47918480e-15,3.50000000e-08,-2.47225637e-15,3.50000000e-08,-3.11734712e-18,3.50000000e-08,1.25267617e-15,3.50000000e-08,1.87475940e-15,3.50000000e-08,3.46783255e-18,3.50000000e-08,8.10907826e-09,3.50000000e-08,5.74590664e-01,3.50000000e-08,5.66201100e-02,3.50000000e-08,4.54632409e-01,3.50000000e-08,4.54632398e-01,3.50000000e-08,1.23318578e+08,3.50000000e-08,2.15070630e+08,3.50000000e-08,3.42295538e+07,3.50000000e-08,2.13731055e+01,1.0,1.000,sky130
4.00000000e-08,8.48579814e-07,4.00000000e-08,4.00062845e-08,4.00000000e-08,3.52724256e-15,4.00000000e-08,-2.53507482e-15,4.00000000e-08,-3.13576674e-18,4.00000000e-08,1.28115744e-15,4.00000000e-08,1.91743248e-15,4.00000000e-08,3.48890506e-18,4.00000000e-08,9.15745057e-09,4.00000000e-08,5.74590660e-01,4.00000000e-08,5.72101486e-02,4.00000000e-08,4.60830829e-01,4.00000000e-08,4.60830817e-01,4.00000000e-08,1.09200699e+08,4.00000000e-08,2.40578809e+08,4.00000000e-08,3.82893067e+07,4.00000000e-08,2.12111628e+01,1.0,1.000,sky130
4.50000000e-08,9.48067035e-07,4.50000000e-08,4.50039190e-08,4.50000000e-08,3.56987170e-15,4.50000000e-08,-2.59071471e-15,4.50000000e-08,-3.15270233e-18,4.50000000e-08,1.30633566e-15,4.50000000e-08,1.95515778e-15,4.50000000e-08,3.50825351e-18,4.50000000e-08,1.01888416e-08,4.50000000e-08,5.74590656e-01,4.50000000e-08,5.77890814e-02,4.50000000e-08,4.66340069e-01,4.50000000e-08,4.66340056e-01,4.50000000e-08,9.81465838e+07,4.50000000e-08,2.65574540e+08,4.50000000e-08,4.22675008e+07,4.50000000e-08,2.10663217e+01,1.0,1.000,sky130
5.00000000e-08,1.04680514e-06,5.00000000e-08,5.00024879e-08,5.00000000e-08,3.60816349e-15,5.00000000e-08,-2.64063003e-15,5.00000000e-08,-3.16838237e-18,5.00000000e-08,1.32888520e-15,5.00000000e-08,1.98894540e-15,5.00000000e-08,3.52614827e-18,5.00000000e-08,1.12044394e-08,5.00000000e-08,5.74590652e-01,5.00000000e-08,5.83575298e-02,5.00000000e-08,4.71302058e-01,5.00000000e-08,4.71302044e-01,5.00000000e-08,8.92503375e+07,5.00000000e-08,2.90121315e+08,5.00000000e-08,4.61742414e+07,5.00000000e-08,2.09350610e+01,1.0,1.000,sky130
5.50000000e-08,1.14484796e-06,5.50000000e-08,5.50015911e-08,5.50000000e-08,3.64290807e-15,5.50000000e-08,-2.68587137e-15,5.50000000e-08,-3.18298641e-18,5.50000000e-08,1.34929234e-15,5.50000000e-08,2.01952365e-15,5.50000000e-08,3.54280049e-18,5.50000000e-08,1.22052360e-08,5.50000000e-08,5.74590649e-01,5.50000000e-08,5.89160378e-02,5.50000000e-08,4.75818569e-01,5.50000000e-08,4.75818553e-01,5.50000000e-08,8.19320493e+07,5.50000000e-08,3.14267595e+08,5.50000000e-08,5.00172412e+07,5.50000000e-08,2.08148153e+01,1.0,1.000,sky130
6.00000000e-08,1.24224005e-06,6.00000000e-08,6.00009980e-08,6.00000000e-08,3.67469777e-15,6.00000000e-08,-2.72722479e-15,6.00000000e-08,-3.19665839e-18,6.00000000e-08,1.36792023e-15,6.00000000e-08,2.04743650e-15,6.00000000e-08,3.55837859e-18,6.00000000e-08,1.31921195e-08,6.00000000e-08,5.74590646e-01,6.00000000e-08,5.94651113e-02,6.00000000e-08,4.79965294e-01,6.00000000e-08,4.79965277e-01,6.00000000e-08,7.58028303e+07,6.00000000e-08,3.38052305e+08,6.00000000e-08,5.38026953e+07,6.00000000e-08,2.07036564e+01,1.0,1.000,sky130
6.50000000e-08,1.33901886e-06,6.50000000e-08,6.50005918e-08,6.50000000e-08,3.70398816e-15,6.50000000e-08,-2.76529393e-15,6.50000000e-08,-3.20951526e-18,6.50000000e-08,1.38504728e-15,6.50000000e-08,2.07310095e-15,6.50000000e-08,3.57301891e-18,6.50000000e-08,1.41658901e-08,6.50000000e-08,5.74590644e-01,6.50000000e-08,6.00052199e-02,6.50000000e-08,4.83800078e-01,6.50000000e-08,4.83800059e-01,6.50000000e-08,7.05921049e+07,6.50000000e-08,3.61507328e+08,6.50000000e-08,5.75356782e+07,6.50000000e-08,2.06001027e+01,1.0,1.000,sky130
7.00000000e-08,1.43521578e-06,7.00000000e-08,7.00003033e-08,7.00000000e-08,3.73113714e-15,7.00000000e-08,-2.80055227e-15,7.00000000e-08,-3.22165317e-18,7.00000000e-08,1.40089153e-15,7.00000000e-08,2.09684362e-15,7.00000000e-08,3.58683322e-18,7.00000000e-08,1.51272668e-08,7.00000000e-08,5.74590641e-01,7.00000000e-08,6.05367958e-02,7.00000000e-08,4.87368113e-01,7.00000000e-08,4.87368092e-01,7.00000000e-08,6.61057951e+07,7.00000000e-08,3.84659080e+08,7.00000000e-08,6.12203939e+07,7.00000000e-08,2.05029937e+01,1.0,1.000,sky130
7.50000000e-08,1.53085737e-06,7.50000000e-08,7.50000929e-08,7.50000000e-08,3.75643095e-15,7.50000000e-08,-2.83337806e-15,7.50000000e-08,-3.23315211e-18,7.50000000e-08,1.41562694e-15,7.50000000e-08,2.11892508e-15,7.50000000e-08,3.59991427e-18,7.50000000e-08,1.60768994e-08,7.50000000e-08,5.74590639e-01,7.50000000e-08,6.10602374e-02,7.50000000e-08,4.90705386e-01,7.50000000e-08,4.90705365e-01,7.50000000e-08,6.22010486e+07,7.50000000e-08,4.07529750e+08,7.50000000e-08,6.48603742e+07,7.50000000e-08,2.04114063e+01,1.0,1.000,sky130
8.00000000e-08,1.62596632e-06,8.00000000e-08,7.99999346e-08,8.00000000e-08,3.78010219e-15,8.00000000e-08,-2.86407824e-15,8.00000000e-08,-3.24407929e-18,8.00000000e-08,1.42939448e-15,8.00000000e-08,2.13955652e-15,8.00000000e-08,3.61233985e-18,8.00000000e-08,1.70153770e-08,8.00000000e-08,5.74590637e-01,8.00000000e-08,6.15759124e-02,8.00000000e-08,4.93841027e-01,8.00000000e-08,4.93841003e-01,8.00000000e-08,5.87703697e+07,8.00000000e-08,4.30138191e+08,8.00000000e-08,6.84586193e+07,8.00000000e-08,2.03245956e+01,1.0,1.000,sky130
8.50000000e-08,1.72056226e-06,8.50000000e-08,8.49998150e-08,8.50000000e-08,3.80234239e-15,8.50000000e-08,-2.89290534e-15,8.50000000e-08,-3.25449174e-18,8.50000000e-08,1.44231002e-15,8.50000000e-08,2.15891150e-15,8.50000000e-08,3.62417586e-18,8.50000000e-08,1.79432373e-08,8.50000000e-08,5.74590635e-01,8.50000000e-08,6.20841608e-02,8.50000000e-08,4.96798947e-01,8.50000000e-08,4.96798922e-01,8.50000000e-08,5.57313034e+07,8.50000000e-08,4.52500613e+08,8.50000000e-08,7.20177093e+07,8.50000000e-08,2.02419530e+01,1.0,1.000,sky130
9.00000000e-08,1.81466225e-06,9.00000000e-08,8.99997225e-08,9.00000000e-08,3.82331116e-15,9.00000000e-08,-2.92006958e-15,9.00000000e-08,-3.26443828e-18,9.00000000e-08,1.45446990e-15,9.00000000e-08,2.17713433e-15,9.00000000e-08,3.63547861e-18,9.00000000e-08,1.88609714e-08,9.00000000e-08,5.74590633e-01,9.00000000e-08,6.25852976e-02,9.00000000e-08,4.99599020e-01,9.00000000e-08,4.99598994e-01,9.00000000e-08,5.30195385e+07,9.00000000e-08,4.74631065e+08,9.00000000e-08,7.55398801e+07,9.00000000e-08,2.01629761e+01,1.0,1.000,sky130
9.50000000e-08,1.90828128e-06,9.50000000e-08,9.49996479e-08,9.50000000e-08,3.84314293e-15,9.50000000e-08,-2.94574785e-15,9.50000000e-08,-3.27396099e-18,9.50000000e-08,1.46595509e-15,9.50000000e-08,2.19434633e-15,9.50000000e-08,3.64629661e-18,9.50000000e-08,1.97690307e-08,9.50000000e-08,5.74590632e-01,9.50000000e-08,6.30796151e-02,9.50000000e-08,5.02257946e-01,9.50000000e-08,5.02257918e-01,9.50000000e-08,5.05841694e+07,9.50000000e-08,4.96541844e+08,9.50000000e-08,7.90270889e+07,9.50000000e-08,2.00872458e+01,1.0,1.000,sky130
1.00000000e-07,2.00142706e-06,1.00000000e-07,9.99992827e-08,1.00000000e-07,3.86195086e-15,1.00000000e-07,-2.97008893e-15,1.00000000e-07,-3.28309591e-18,1.00000000e-07,1.47683369e-15,1.00000000e-07,2.21064949e-15,1.00000000e-07,3.65667134e-18,1.00000000e-07,2.06677774e-08,1.00000000e-07,5.74590630e-01,1.00000000e-07,6.35673566e-02,1.00000000e-07,5.04789742e-01,1.00000000e-07,5.04789713e-01,1.00000000e-07,4.83844963e+07,1.00000000e-07,5.18242498e+08,1.00000000e-07,8.24808552e+07,1.00000000e-07,2.00144141e+01,1.0,1.000,sky130
