! FILE: \\descartes\10gec\Vendors\Tyco\Tyco Aug 31 04\Test 1\Test1_FM_13SI_20_T_D13_L6.s4p
!
! This data is being provided to the industry for analysis for the IEEE 802.3ap Backplane 
! Ethernet Task Force.
! 
! Disclaimer:  While Tyco Electronics has made every reasonable effort to ensure the accuracy
! of  the information provided herein, Tyco Electronics does not guarantee that it is error-free, 
! nor does Tyco Electronics make any other representation, warranty, or guarantee that the 
! information is accurate, correct, reliable or current.  Tyco Electronics reserves the right to
! make any adjustments to the information contained herein at any time without notice.  Tyco 
! Electronics expressly disclaims all implied warranties regarding the information contained 
! herein, including but not limited to any implied warranties of merchantability or fitness for a 
! particular purpose.
!
! Note 1 This data is representative of the implementation that was measured only.  
! Backplane channel behavior is highly sensitive to implementation, which includes board 
! materials, trace geometry information, connector pin out, layer connection, use of stub removal 
! techniques, such as backdrilling or blind/buried vias, etc.
!
! Note 2 - Crosstalk measurements are representative of the specific ATCA test cases only.  Crosstalk may
! vary depending on the pinout that is being considered by the user.  Assumptions regarding crosstalk 
! behavior of the Z-PACK HM-Zd should be reviewed with Tyco Electronics prior to any simulations 
! to permit assessment of the validity of the assumption. 
!
! Note 3 The backplanes and line cards were designed independently of each other.  
! Furthermore, the SMA line cards were designed for another pinout.  Hence, there is no 
! optimization to limit the overall total skew of the system.  
!
! This file, "Case4 FM 13SI 20 T D13 L6.s4p", should be used in conjunction with the following files 
!	Case4 FM 13SI 20 N1 D13 L6.s4p - NEXT Aggressor N1
!	Case4 FM 13SI 20 N2 D13 L6.s4p - NEXT Aggressor N2
!	Case4 FM 13SI 20 F D13 L6.s4p - FEXT Aggressor
!
! Tyco Electronics Test Case#4, Forward Channel Response
!	Test Backplane - Kaparel Full Mesh ATCA Backplane
!		Length - 20.5" (520.7mm)
!		Trace Width - 0.00475" (0.12065mm)
!		Material - 4000-13SI 
! 		Use of stub removal techniques - No. Bottom stripline layer connection
!		
!	SMA Line Card
!		Length - 6" (152.4mm)
!		Trace Width - 0.006" (0.1524mm)
! 		Material - 4000-13 
!		Use of stub removal techniques - Launch structure counterbored where necessary. 
!		Bottom and near-bottom connections at connector on line cards.!
!
! The backplane used for this testing was from 
! Kaparel Corporation
! Contact Mike Peters
! 519.725.0101
! Email mpeters@kaparel.com
!
! The line cards used for this testing were from 
! Tyco Electronics
! Contact John Dmbrosia
! Email john.dambrosia@tycoelectronics.com
!
! This data was taken by the University of New Hampshire InterOperability Laboratory (UNH-
! IOL) during the week of August 30, 2004.  The test setup consisted of the following
! 		- Agilent 8720ES with N4418A test set
!	- Also known as the Agilent N1951A 20GHz Physical Layer Test 
!	   System (S/N US0020201)
!	- Calibrations are SOLT (short open load thru)to 26GHz cal set into 50ohm
!	   loads at the end of SMA cables. 
! 	- No de-embedding of the SMA or line cards were attempted / included. 
!	- Equipment Settings done in accordance with the latest guidelines from the 
!	   IEEE 802.3ap Channel Ad Hoc at the time of testing, except where noted - 
!		- Step Size - 10 MHz
! 		- IF BW 300 Hz
!		- Launch Power - -5 dBm
!		- Averaging was not supported with equipment / software 
!
!	Port 1 -----> |      	| -----> Port 2
!		        |  DUT	|
!	Port 3 -----> |		| -----> Port 4
!		
! For further information regarding this testing, please contact
! UNH IOL
! Contact Bob Noseworthy
! 603-862-4342 {Office}
! 603-862-0205 {10GEC Lab}
! 10 Gigabit Ethernet Consortium Manager
! Email - ren@iol.unh.edu
! 
! For further information regarding the Z-PACK HM-Zd connector, please contact:
! Tyco Electronics
! Contact Bob Hnatuck
! 717-592-4168
! Email rhnatuck@tycoelectronics.com
!
! Tyco Electronics would like to express its gratitude to the following individuals for making the 
! availability of this data possible
! UNH-IOL- Bob Noseworthy and Jeff Lapak
! Kaparel Corporation Jacques Lourde and Robert Jardon
!
# MHZ S DB R 50.00
!
! FREQ                  S11                         S12                         S13                         S14
!                       S21                         S22                         S23                         S24
!                       S31                         S32                         S33                         S34
!                       S41                         S42                         S43                         S44
!                  DB        ANG               DB        ANG               DB        ANG               DB        ANG               
  50.000         -16.30   -34.044263          -1.09  -105.539999         -18.00   -14.498694         -38.48    58.830663    
                  -1.07  -105.839309         -16.39   -34.173502         -39.64    55.813127         -18.01   -13.195063    
                 -18.00   -14.423347         -40.36    59.910810         -16.70   -35.922072          -1.10  -105.775616    
                 -40.26    59.473197         -17.99   -13.133609          -1.08  -105.881524         -16.82   -34.471433    

  60.000         -16.71   -49.599884          -1.14  -126.359543         -17.90   -34.315964         -39.35    20.796251    
                  -1.13  -126.396374         -16.66   -49.462298         -39.42    21.117766         -17.86   -32.401909    
                 -17.93   -34.255815         -39.91    24.763525         -17.23   -50.695279          -1.15  -126.194339    
                 -39.86    23.788005         -17.85   -32.481580          -1.12  -126.389014         -17.06   -49.968719    

  70.000         -17.29   -66.080554          -1.19  -146.869407         -18.36   -53.817918         -40.52   -17.925032    
                  -1.18  -146.845330         -17.35   -66.187362         -40.08   -22.704302         -18.29   -51.328831    
                 -18.31   -53.792958         -39.74   -22.970382         -17.78   -66.467391          -1.18  -146.874480    
                 -40.77   -18.027396         -18.24   -51.814850          -1.17  -146.982597         -17.84   -65.949790    

  80.000         -18.36   -79.298054          -1.22  -167.393380         -19.43   -72.701779         -41.89   -67.748683    
                  -1.22  -167.430473         -18.56   -82.410184         -40.94   -67.759449         -19.31   -70.311739    
                 -19.38   -72.492776         -40.96   -65.840395         -18.90   -81.892584          -1.22  -167.462417    
                 -41.37   -64.268081         -19.32   -70.169586          -1.23  -167.640209         -18.97   -81.972334    

  90.000         -19.92   -92.142855          -1.25   171.831368         -21.24   -90.913376         -42.37  -110.234834    
                  -1.27   171.855843         -20.26   -98.881282         -41.84  -110.420566         -21.12   -87.829790    
                 -21.23   -91.173110         -41.75  -112.066940         -20.39   -93.612550          -1.25   171.840228    
                 -42.34  -110.963059         -21.09   -88.573787          -1.24   171.727670         -20.66   -97.770711    

 100.000         -22.24  -101.368487          -1.29   151.305423         -24.17  -108.103592         -42.53  -158.764341    
                  -1.30   151.283405         -22.88  -114.218606         -42.01  -158.963027         -24.01  -104.191153    
                 -24.16  -108.622138         -41.75  -157.973425         -22.39  -102.820467          -1.30   151.140642    
                 -42.66  -158.331165         -24.03  -104.303199          -1.29   151.119118         -23.18  -113.040446    

 110.000         -24.66  -103.175825          -1.33   130.544175         -29.23  -120.022799         -42.52   152.890947    
                  -1.32   130.498229         -26.38  -127.435002         -41.80   153.612498         -28.89  -113.426188    
                 -29.40  -119.705262         -42.13   154.016755         -24.41  -107.400265          -1.32   130.353044    
                 -42.38   153.913259         -28.79  -113.382998          -1.33   130.334057         -26.65  -126.359998    

 120.000         -26.79   -99.266705          -1.37   109.700668         -38.26   -84.358775         -41.12   111.297174    
                  -1.38   109.717789         -32.13  -130.025571         -41.34   111.939527         -36.21   -82.156118    
                 -38.23   -85.212491         -41.66   110.556441         -26.27  -102.694582          -1.37   109.574881    
                 -41.41   110.305545         -36.26   -82.219586          -1.38   109.536409         -32.24  -132.831481    

 130.000         -27.25   -85.639146          -1.43    88.939381         -31.52   -24.999226         -40.58    72.101900    
                  -1.45    88.933638         -37.88   -80.626931         -40.96    72.242853         -30.93   -29.609308    
                 -31.46   -25.265327         -41.04    74.504914         -26.99   -96.694285          -1.44    88.902420    
                 -40.79    71.545481         -30.99   -29.268492          -1.45    88.821765         -39.29   -97.522410    

 140.000         -26.65   -79.901201          -1.51    68.312612         -26.03   -32.462526         -39.80    36.586473    
                  -1.51    68.264446         -32.05   -48.147659         -40.53    38.394779         -25.90   -34.792187    
                 -26.07   -32.333261         -40.49    38.533847         -26.65   -91.918509          -1.50    68.208618    
                 -39.98    36.933389         -25.92   -34.640438          -1.50    68.158116         -34.58   -44.338411    

 150.000         -25.46   -80.562473          -1.58    47.650012         -23.16   -48.165296         -39.50     4.772321    
                  -1.58    47.666511         -27.75   -55.059356         -40.20     6.053856         -23.08   -49.668004    
                 -23.18   -48.366867         -40.15     5.098401         -25.83   -94.204425          -1.56    47.567224    
                 -39.51     5.263906         -23.09   -49.605495          -1.59    47.496936         -29.72   -48.310942    

 160.000         -24.13   -86.482373          -1.66    27.095670         -21.53   -66.152498         -38.93   -25.325176    
                  -1.64    27.041651         -25.60   -70.747332         -40.00   -24.688884         -21.44   -67.196871    
                 -21.49   -65.955423         -39.92   -25.570331         -24.97   -99.403092          -1.65    27.005017    
                 -38.90   -26.260578         -21.44   -67.151427          -1.66    26.988767         -27.07   -61.022796    

 170.000         -23.63   -97.065389          -1.76     6.734045         -20.75   -85.209874         -40.11   -53.814586    
                  -1.74     6.724539         -24.71   -88.387367         -41.32   -50.868351         -20.73   -85.906132    
                 -20.75   -85.072485         -41.39   -50.820893         -24.34  -108.841217          -1.73     6.544650    
                 -40.17   -53.931249         -20.76   -85.940735          -1.73     6.563494         -25.67   -77.304747    

 180.000         -23.15  -106.120238          -1.78   -13.729909         -20.49  -102.981105         -39.56   -72.266502    
                  -1.78   -13.762982         -23.82  -104.793424         -40.55   -69.645083         -20.44  -103.786787    
                 -20.46  -102.794550         -40.55   -70.188736         -23.85  -118.031118          -1.78   -13.925745    
                 -39.63   -73.152740         -20.43  -103.918138          -1.78   -13.930946         -24.54   -94.174263    

 190.000         -22.61  -117.930021          -1.85   -34.297147         -20.62  -120.889461         -39.22   -95.579508    
                  -1.83   -34.173047         -23.25  -123.667985         -40.28   -91.435880         -20.59  -122.596866    
                 -20.60  -120.840716         -40.44   -91.506982         -23.21  -129.834366          -1.83   -34.339177    
                 -39.22   -95.995548         -20.60  -122.651477          -1.84   -34.392458         -23.68  -113.227129    

 200.000         -22.12  -131.278754          -1.89   -54.655337         -21.17  -139.180723         -39.11  -118.918530    
                  -1.89   -54.668636         -22.91  -144.399455         -40.16  -111.670426         -21.22  -141.658427    
                 -21.20  -139.335301         -40.15  -111.492329         -22.67  -143.419032          -1.89   -54.828456    
                 -39.17  -118.375629         -21.21  -141.364190          -1.88   -54.819068         -23.13  -133.716986    

 210.000         -21.70  -146.722880          -1.94   -75.065880         -22.25  -157.290912         -39.13  -138.697808    
                  -1.94   -75.112015         -22.66  -166.497682         -40.06  -130.691078         -22.33  -160.159631    
                 -22.25  -157.214152         -39.97  -131.969768         -22.02  -159.431496          -1.93   -75.314894    
                 -39.19  -138.486831         -22.32  -160.301291          -1.94   -75.309621         -22.68  -156.123009    

 220.000         -21.53  -163.716735          -1.99   -95.616796         -23.85  -174.421730         -39.16  -156.994825    
                  -1.98   -95.599165         -22.42   170.546609         -39.79  -148.204440         -23.96  -178.304067    
                 -23.83  -174.364836         -39.68  -148.881425         -21.75  -176.659484          -1.99   -95.746856    
                 -39.18  -157.047089         -23.94  -178.550546          -2.00   -95.777851         -22.36  -179.144112    

 230.000         -21.62   177.904852          -2.05  -116.042337         -26.15   170.185955         -38.79  -173.777555    
                  -2.04  -116.046297         -22.32   147.264455         -39.06  -165.735770         -26.32   164.440750    
                 -26.14   170.370225         -38.93  -165.619779         -21.45   163.828867          -2.04  -116.160343    
                 -38.73  -173.596814         -26.33   164.372065          -2.05  -116.242249         -22.10   157.405598    

 240.000         -21.88   158.467886          -2.11  -136.519405         -29.44   158.506133         -37.88   169.829339    
                  -2.08  -136.445193         -22.32   124.071031         -38.00   176.632461         -29.86   150.213180    
                 -29.36   158.557936         -38.16   176.459223         -21.55   144.477549          -2.10  -136.688662    
                 -37.95   169.984480         -29.87   149.970612          -2.10  -136.640609         -21.93   134.416591    

 250.000         -22.60   138.037052          -2.13  -156.973907         -34.12   160.370635         -36.88   151.004599    
                  -2.14  -156.885374         -22.68   102.327761         -36.73   155.950927         -35.83   149.382121    
                 -34.21   160.833744         -36.80   155.736488         -21.84   123.517244          -2.15  -157.130500    
                 -36.84   150.541105         -35.76   149.228588          -2.15  -157.124172         -22.01   112.250717    

 260.000         -23.64   118.344926          -2.21  -177.445683         -36.01  -162.493509         -36.09   125.171594    
                  -2.22  -177.417069         -23.52    83.500756         -36.08   129.305302         -38.15  -155.656773    
                 -36.04  -162.188042         -36.12   128.878739         -22.51   102.563267          -2.20  -177.526097    
                 -36.11   125.376986         -38.17  -155.289375          -2.22  -177.537165         -22.38    92.579239    

 270.000         -24.93    92.014587          -2.26   162.512336         -33.16  -143.866006         -36.04   112.950300    
                  -2.26   162.448650         -24.06    66.294484         -36.06   115.578467         -33.45  -140.857647    
                 -33.18  -143.487815         -36.20   115.858501         -23.48    79.350567          -2.24   162.182210    
                 -36.06   113.210348         -33.46  -140.569004          -2.25   162.225986         -22.84    73.471340    

 280.000         -27.99    64.994626          -2.27   141.906189         -29.05  -144.097080         -34.31    91.901829    
                  -2.28   141.939123         -25.91    49.546360         -34.48    93.975775         -29.12  -144.954073    
                 -29.02  -143.987753         -34.53    93.325911         -25.48    54.102737          -2.29   141.782959    
                 -34.34    91.497830         -29.13  -145.155392          -2.29   141.771266         -24.22    56.330637    

 290.000         -33.33    31.117277          -2.32   121.439066         -26.13  -156.665644         -33.29    67.497657    
                  -2.32   121.438094         -28.97    40.984687         -33.34    69.193412         -26.24  -159.560789    
                 -26.09  -156.548362         -33.38    69.443994         -28.85    26.671631          -2.33   121.297498    
                 -33.24    67.395440         -26.19  -159.766858          -2.33   121.291426         -26.51    44.243013    

 300.000         -40.84   -60.751349          -2.35   101.029616         -24.13  -173.272873         -32.46    41.802401    
                  -2.38   101.003342         -33.08    54.615008         -32.66    43.224800         -24.22  -177.207307    
                 -24.10  -173.283277         -32.67    43.380677         -35.11   -16.238042          -2.38   100.882656    
                 -32.44    41.937283         -24.20  -177.289433          -2.37   100.801642         -29.97    44.290751    

 310.000         -32.61  -147.616770          -2.43    80.471429         -22.74   168.610445         -31.94    16.296651    
                  -2.42    80.508496         -31.72    89.944475         -32.26    17.065291         -22.85   164.044528    
                 -22.72   168.718677         -32.23    17.394454         -38.48  -128.844429          -2.44    80.268217    
                 -31.94    16.093775         -22.86   163.800380          -2.43    80.331913         -31.89    71.343949    

 320.000         -27.11   178.420782          -2.50    60.108305         -21.84   149.742579         -31.72    -9.394711    
                  -2.48    60.043988         -27.04    96.625113         -32.11    -8.958569         -21.93   144.942014    
                 -21.85   150.019801         -32.11    -8.696567         -30.22   174.147493          -2.49    59.911077    
                 -31.72    -9.775848         -21.97   144.819931          -2.50    59.867148         -28.42    92.298930    

 330.000         -23.98   153.060563          -2.56    39.640210         -21.37   130.680827         -31.77   -35.091259    
                  -2.56    39.652170         -23.62    87.256806         -32.29   -34.220667         -21.46   125.861729    
                 -21.36   130.978160         -32.30   -34.337945         -25.60   144.093917          -2.56    39.486674    
                 -31.74   -35.031999         -21.48   125.706120          -2.56    39.494231         -24.61    89.506408    

 340.000         -21.85   129.763587          -2.63    19.277089         -21.27   111.998098         -31.97   -59.142673    
