! peters_01_0605 B1 channel thru response
#        HZ        S              RI          R       50
5.00000000e+007  4.466187196303e-002 -4.549575997564e-003  6.883682492594e-001 -6.668905224252e-001  2.975683490355e-002  2.903465862591e-002 -5.942271835460e-003 -3.615984158358e-003 
                 6.878131339973e-001 -6.669819115275e-001  4.115868389556e-002  1.613102134868e-004 -5.608679383914e-003 -3.839521398360e-003  3.018515818221e-002  2.864433616817e-002 
                 2.965168193898e-002  2.894625368142e-002 -5.515447339109e-003 -3.849534601678e-003  4.298701896404e-002 -8.305403336705e-003  6.885960872383e-001 -6.697397152634e-001 
                -5.904477774396e-003 -3.393116887416e-003  3.042176555847e-002  2.878863727768e-002  6.886394640237e-001 -6.705067070493e-001  3.869133776997e-002 -4.313136048151e-003 
6.00000000e+007  4.632786631458e-002 -9.062849371938e-003  5.780767276967e-001 -7.590852629945e-001  3.946643642540e-002  2.863966768104e-002 -7.351304680015e-003 -3.000319899875e-003 
                 5.777887053163e-001 -7.588558645078e-001  4.145729795835e-002 -3.045358269977e-003 -7.232970406539e-003 -3.605948293879e-003  3.996986938666e-002  2.803041744629e-002 
                 3.936772052860e-002  2.855776261163e-002 -7.209613149055e-003 -3.455648020411e-003  4.060718893877e-002 -1.374695775402e-002  5.766412250563e-001 -7.620444102588e-001 
                -7.362552640094e-003 -3.059664625713e-003  4.010342934076e-002  2.808726537260e-002  5.770482881894e-001 -7.627734611493e-001  4.073990149457e-002 -6.970986315604e-003 
7.00000000e+007  4.779133103879e-002 -1.385089316760e-002  4.559854711214e-001 -8.327404146709e-001  4.909824301052e-002  2.562497262983e-002 -8.871538963858e-003 -2.398311158449e-003 
                 4.561113737890e-001 -8.324126273606e-001  4.105150113984e-002 -5.497724817228e-003 -8.631881071148e-003 -2.928114439969e-003  4.968799905063e-002  2.475919981229e-002 
                 4.904058567778e-002  2.565542189051e-002 -8.752647503724e-003 -2.882253749333e-003  3.933573802142e-002 -1.591411962095e-002  4.543322107182e-001 -8.354129347813e-001 
                -8.932859155858e-003 -2.338970564502e-003  4.978571477550e-002  2.478506809134e-002  4.539547000010e-001 -8.363953269573e-001  4.213675862416e-002 -9.615714879797e-003 
8.00000000e+007  4.781467822477e-002 -1.965544085646e-002  3.256735175328e-001 -8.868465935515e-001  5.814053585460e-002  2.038308589346e-002 -1.024303507156e-002 -1.155463769567e-003 
                 3.256563796561e-001 -8.867463572552e-001  4.133279025091e-002 -7.623735965698e-003 -1.010624422510e-002 -1.849027761433e-003  5.875455801918e-002  1.911574502788e-002 
                 5.819710741276e-002  2.031525460799e-002 -1.007665767507e-002 -1.735394796416e-003  4.073321787323e-002 -1.845760985860e-002  3.229729321848e-001 -8.902360435412e-001 
                -1.035592597767e-002 -1.240845334876e-003  5.888224579753e-002  1.917255212118e-002  3.223114290244e-001 -8.905044695235e-001  4.270039506733e-002 -1.280134153492e-002 
9.00000000e+007  4.692443090891e-002 -2.659101368649e-002  1.895805960578e-001 -9.211639476762e-001  6.605459144078e-002  1.277711980814e-002 -1.134846864786e-002  3.543661221561e-004 
                 1.895244418204e-001 -9.212929111730e-001  4.336364975030e-002 -1.067802235122e-002 -1.117434131865e-002 -3.858200284960e-004  6.660472432846e-002  1.118892940055e-002 
                 6.593674142779e-002  1.264877270272e-002 -1.132718414983e-002 -3.930079334346e-004  4.419668509549e-002 -2.494017904045e-002  1.850649196718e-001 -9.234831324084e-001 
                -1.128330039166e-002  4.914959528383e-004  6.662268867046e-002  1.108755497477e-002  1.847314274021e-001 -9.234825937796e-001  4.195967510094e-002 -1.654013510898e-002 
1.00000000e+008  4.469157111513e-002 -3.350456994592e-002  5.118919911225e-002 -9.341415153729e-001  7.237134704861e-002  3.353464979597e-003 -1.216772036754e-002  2.222328071521e-003 
                 5.105862982236e-002 -9.338742520713e-001  4.522015851561e-002 -1.713855725617e-002 -1.228015750802e-002  1.151211352538e-003  7.268380285068e-002  1.331622755562e-003 
                 7.221938522536e-002  3.327463549237e-003 -1.227751181349e-002  1.080892533766e-003  4.109819104355e-002 -3.323377813231e-002  4.737299426912e-002 -9.350116768977e-001 
                -1.219257054630e-002  2.323567832794e-003  7.272111181075e-002  1.258459776427e-003  4.736289390408e-002 -9.349230744639e-001  4.106633844200e-002 -1.865521031689e-002 
1.10000000e+008  4.246891152293e-002 -4.008971386850e-002 -8.617576923469e-002 -9.281680895166e-001  7.659554347123e-002 -7.593257624183e-003 -1.275063242763e-002  4.383225033630e-003 
                -8.636613276141e-002 -9.279083541346e-001  4.616621887056e-002 -2.341349890971e-002 -1.306726843270e-002  3.087203379701e-003  7.668953767438e-002 -9.986309643206e-003 
                 7.644157502676e-002 -7.645844389505e-003 -1.303911262773e-002  3.023204736917e-003  4.008903696111e-002 -3.880946179130e-002 -9.022158084601e-002 -9.289148637769e-001 
                -1.273346508524e-002  4.383942965296e-003  7.668282870103e-002 -1.006078438337e-002 -9.004748526030e-002 -9.291547968247e-001  4.084211546345e-002 -2.129425285071e-002 
1.20000000e+008  3.988422043506e-002 -4.647794084603e-002 -2.209558447645e-001 -9.015390948292e-001  7.864411540517e-002 -1.942259408881e-002 -1.288517237351e-002  6.803408991450e-003 
                -2.214293505270e-001 -9.017081449833e-001  4.589701712230e-002 -3.058836633877e-002 -1.347014262256e-002  5.247017603154e-003  7.839123250500e-002 -2.235701132411e-002 
                 7.846413788881e-002 -1.941308747640e-002 -1.353095363524e-002  5.322113651643e-003  3.656809156792e-002 -4.727566501997e-002 -2.259546266477e-001 -9.022199032124e-001 
                -1.290525416175e-002  6.782452065495e-003  7.840056801373e-002 -2.236438506027e-002 -2.254205307951e-001 -9.025472720473e-001  4.054786514030e-002 -2.446734142820e-002 
1.30000000e+008  3.642402920534e-002 -5.227218780048e-002 -3.499351105244e-001 -8.557870091596e-001  7.832574689888e-002 -3.179208072355e-002 -1.267284658409e-002  9.306540090496e-003 
                -3.504281266226e-001 -8.556187462140e-001  4.412197471450e-002 -3.629643283152e-002 -1.355140050063e-002  7.715722939001e-003  7.745749083692e-002 -3.514299876574e-002 
                 7.819057576155e-002 -3.182984610514e-002 -1.352963486709e-002  7.656833311699e-003  2.935353323497e-002 -5.338294041755e-002 -3.554594658806e-001 -8.553127166954e-001 
                -1.264045052323e-002  9.247553977658e-003  7.733923942690e-002 -3.511802622398e-002 -3.549076655435e-001 -8.563256019876e-001  4.012382017947e-002 -2.778852826627e-002 
1.40000000e+008  3.232637184478e-002 -5.660352938955e-002 -4.701815060093e-001 -7.922734661737e-001  7.557060613118e-002 -4.416740257210e-002 -1.202271886334e-002  1.191827471294e-002 
                -4.703850757540e-001 -7.915978113846e-001  4.230128777886e-002 -3.965639092568e-002 -1.330496791976e-002  1.013757158564e-002  7.397560224036e-002 -4.785868491900e-002 
                 7.542084217805e-002 -4.416199458984e-002 -1.332442208516e-002  1.021422033718e-002  2.150032246994e-002 -5.568546486911e-002 -4.755474688560e-001 -7.906401162101e-001 
                -1.196886913141e-002  1.196952382993e-002  7.392414577068e-002 -4.783696662702e-002 -4.758343250969e-001 -7.920393167947e-001  3.923054143496e-002 -3.139146627222e-002 
1.50000000e+008  2.747275771732e-002 -5.998069949914e-002 -5.794343065666e-001 -7.117582983167e-001  7.042317225356e-002 -5.614999050530e-002 -1.085520884042e-002  1.477746043916e-002 
                -5.791865705487e-001 -7.114158194312e-001  4.169485167075e-002 -4.232404857943e-002 -1.265907478254e-002  1.288206298114e-002  6.798952884095e-002 -5.998878402656e-002 
                 7.028365509703e-002 -5.612923251036e-002 -1.274189193394e-002  1.288889312330e-002  1.624181595572e-002 -5.496138767772e-002 -5.847342097033e-001 -7.098196008872e-001 
                -1.078108755004e-002  1.475985891662e-002  6.792185875489e-002 -5.993549305946e-002 -5.856824039338e-001 -7.102990011948e-001  3.780849230039e-002 -3.491947879008e-002 
1.60000000e+008  2.229628143095e-002 -6.275801968953e-002 -6.752183161681e-001 -6.167521054095e-001  6.294398863563e-002 -6.725768345429e-002 -9.050562355584e-003  1.753169190488e-002 
                -6.752810563093e-001 -6.163571198305e-001  4.171677951050e-002 -4.607822648792e-002 -1.140959092840e-002  1.578773814853e-002  5.948632133647e-002 -7.110791977589e-002 
                 6.278437989632e-002 -6.710436988032e-002 -1.147829822283e-002  1.580217171492e-002  1.454144410248e-002 -5.482120476982e-002 -6.812870200738e-001 -6.134110027444e-001 
                -8.949166151428e-003  1.752754475659e-002  5.953555656297e-002 -7.110974665077e-002 -6.820539430555e-001 -6.136994532036e-001  3.555093375009e-002 -3.893521908885e-002 
1.70000000e+008  1.649100996823e-002 -6.572159973120e-002 -7.557953520866e-001 -5.081739562053e-001  5.349722502787e-002 -7.691586569309e-002 -6.533617600138e-003  2.007872172363e-002 
                -7.556017774053e-001 -5.080980360974e-001  4.041071618248e-002 -5.206064956970e-002 -9.429284230639e-003  1.853655329067e-002  4.898836370634e-002 -8.047736605018e-002 
                 5.330102947549e-002 -7.681229258949e-002 -9.439020473920e-003  1.866168431554e-002  1.368119587021e-002 -5.826840042906e-002 -7.611274118550e-001 -5.038865766936e-001 
                -6.529920119380e-003  2.009149121480e-002  4.900172984817e-002 -8.044112724774e-002 -7.619921599644e-001 -5.042016391850e-001  3.255857516671e-002 -4.318460457286e-002 
1.80000000e+008  9.435473469800e-003 -6.943887793881e-002 -8.181003045563e-001 -3.903864310216e-001  4.220852082639e-002 -8.495322295622e-002 -3.262704423811e-003  2.234909742792e-002 
                -8.181656202319e-001 -3.905978181090e-001  3.598095857160e-002 -6.024283791679e-002 -6.597862941971e-003  2.102716454016e-002  3.674675266889e-002 -8.807892561386e-002 
                 4.208392050017e-002 -8.476276812572e-002 -6.584430728319e-003  2.120316193364e-002  9.564886749036e-003 -6.480291634238e-002 -8.230502230197e-001 -3.851073407094e-001 
                -3.267601369040e-003  2.232109455858e-002  3.668229729748e-002 -8.807329171763e-002 -8.239666912838e-001 -3.846437927223e-001  2.867439018121e-002 -4.834840526569e-002 
1.90000000e+008  3.620662959718e-004 -7.278509946409e-002 -8.618891517517e-001 -2.657600848823e-001  2.891740921265e-002 -9.074592006492e-002  1.155930097963e-003  2.343851348974e-002 
                -8.620960614073e-001 -2.655606709341e-001  2.677602658352e-002 -6.751738360896e-002 -2.688916609956e-003  2.264994941418e-002  2.248720559345e-002 -9.283531647276e-002 
                 2.867938931704e-002 -9.060537469931e-002 -2.644636892212e-003  2.273469682464e-002  1.735088693038e-004 -6.918578243160e-002 -8.665246051567e-001 -2.594653985160e-001 
                 1.186503855254e-003  2.339793564829e-002  2.236240515032e-002 -9.280991321994e-002 -8.668088498140e-001 -2.585701987722e-001  2.311622121337e-002 -5.381855298886e-002 
2.00000000e+008 -6.938314792574e-003 -7.398537617556e-002 -8.883302774761e-001 -1.380106672987e-001  1.577381624946e-002 -9.309410272369e-002  4.345058002862e-003  2.299203496761e-002 
                -8.879819654271e-001 -1.382330619108e-001  1.785047913455e-002 -7.151178106205e-002  3.339507050281e-004  2.281155568844e-002  9.045611457540e-003 -9.447595131757e-002 
                 1.563080076821e-002 -9.292860067463e-002  3.344041470992e-004  2.279254700261e-002 -7.595183877716e-003 -6.860384618127e-002 -8.913279722281e-001 -1.306475098412e-001 
                 4.308805578270e-003  2.290219663021e-002  8.991066842860e-003 -9.439476892830e-002 -8.911702528396e-001 -1.305720095536e-001  1.710235412704e-002 -5.979010643337e-002 
2.10000000e+008 -1.404438366570e-002 -7.700068005187e-002 -8.969427455750e-001 -7.367081463931e-003  2.971840430227e-003 -9.421614157594e-002  7.236602718311e-003  2.316811526856e-002 
                -8.966032462915e-001 -7.894414710629e-003  8.943902631946e-003 -7.610022326978e-002  3.183572821844e-003  2.332070395781e-002 -4.478158898770e-003 -9.481630754716e-002 
                 2.909550654343e-003 -9.402399308682e-002  3.209132078082e-003  2.331114395103e-002 -1.529678118710e-002 -6.912162412237e-002 -8.989629991748e-001 -3.851861660798e-005 
                 7.301527904538e-003  2.309005801767e-002 -4.467743715030e-003 -9.477775559221e-002 -8.989784649247e-001 -9.808377432833e-004  9.606331844794e-003 -6.514250377049e-002 
2.20000000e+008 -2.133504790347e-002 -7.858744400320e-002 -8.864877770511e-001  1.235430053220e-001 -1.024637479511e-002 -9.364409758526e-002  1.104764491312e-002  2.309238711943e-002 
                -8.859307368885e-001  1.234394611018e-001 -8.459204149286e-004 -7.858944747644e-002  6.530414702084e-003  2.365513229341e-002 -1.823741335513e-002 -9.315456340467e-002 
                -1.031492146511e-002 -9.346352955120e-002  6.467498240497e-003  2.372424006178e-002 -2.345820911047e-002 -6.647961668308e-002 -8.872205854443e-001  1.313715342069e-001 
                 1.105240020404e-002  2.305241147320e-002 -1.829294990672e-002 -9.315997909355e-002 -8.877591072507e-001  1.307435264879e-001  1.785910021040e-003 -6.955307542731e-002 
2.30000000e+008 -2.802964375865e-002 -7.876102507435e-002 -8.565511117877e-001  2.512780229134e-001 -2.341414564375e-002 -9.094120316322e-002  1.496931239567e-002  2.212232373420e-002 
                -8.559595305041e-001  2.509890398805e-001 -9.486053098574e-003 -7.908008223068e-002  1.012606142190e-002  2.354593470389e-002 -3.183707744583e-002 -8.906052380100e-002 
                -2.354203166679e-002 -9.077078726661e-002  1.013854974605e-002  2.360478572338e-002 -2.852848759385e-002 -6.229970173771e-002 -8.559881655428e-001  2.588979202442e-001 
                 1.495471556325e-002  2.210684469621e-002 -3.187190765449e-002 -8.907461775087e-002 -8.569390878590e-001  2.588590411562e-001 -6.261391949355e-003 -7.266372863992e-002 
2.40000000e+008 -3.431997267965e-002 -7.742876152482e-002 -8.080580207315e-001  3.728244381643e-001 -3.614453330135e-002 -8.622471077613e-002  1.892280828810e-002  2.042176798154e-002 
                -8.076078415003e-001  3.723822363811e-001 -1.771566538177e-002 -7.865664834635e-002  1.402824179821e-002  2.281294354201e-002 -4.454718696685e-002 -8.275704416145e-002 
                -3.615069366010e-002 -8.599328716181e-002  1.402359224962e-002  2.286860591327e-002 -3.149001538833e-002 -5.986500726503e-002 -8.063976291859e-001  3.802939584417e-001 
                 1.896347708454e-002  2.044406422080e-002 -4.452872707624e-002 -8.274880921179e-002 -8.076056590109e-001  3.807191606021e-001 -1.458382124084e-002 -7.390888792300e-002 
2.50000000e+008 -4.064123883771e-002 -7.439021124944e-002 -7.428323604907e-001  4.846994992857e-001 -4.791818642044e-002 -7.944677621638e-002  2.270953234889e-002  1.800165496544e-002 
                -7.424247004048e-001  4.847349514868e-001 -2.667827585229e-002 -7.718235009735e-002  1.788199967376e-002  2.126855558489e-002 -5.600432515141e-002 -7.458423737181e-002 
                -4.794577330573e-002 -7.922681898900e-002  1.787427040639e-002  2.127113333697e-002 -3.522240025350e-002 -5.955598529436e-002 -7.403577244710e-001  4.926603883530e-001 
                 2.270448239269e-002  1.793874508654e-002 -5.602584620172e-002 -7.454430600912e-002 -7.409228345986e-001  4.936214150333e-001 -2.309385021235e-002 -7.299808338833e-002 
2.60000000e+008 -4.733439033326e-002 -6.981070488671e-002 -6.617802565819e-001  5.862932900472e-001 -5.859907120133e-002 -7.100265188950e-002  2.615610904749e-002  1.475530143697e-002 
                -6.615328367594e-001  5.862513455251e-001 -3.745365291911e-002 -7.363512512392e-002  2.153293927345e-002  1.896972153844e-002 -6.601886806736e-002 -6.466155858858e-002 
                -5.853380371150e-002 -7.074005450990e-002  2.156059672449e-002  1.900942410711e-002 -4.190566243274e-002 -5.975799214392e-002 -6.579909088871e-001  5.943299639476e-001 
                 2.617329283015e-002  1.465533184297e-002 -6.606797948981e-002 -6.463568994862e-002 -6.585364684405e-001  5.949254327375e-001 -3.160526532779e-002 -6.963968537809e-002 
2.70000000e+008 -5.430697693042e-002 -6.371780047741e-002 -5.670503056169e-001  6.740906764144e-001 -6.773317211002e-002 -6.102461763022e-002  2.901819653551e-002  1.082345189054e-002 
                -5.667651171641e-001  6.742377263265e-001 -4.931721235480e-002 -6.666236306607e-002  2.477439636618e-002  1.604442397505e-002 -7.427196617369e-002 -5.331062573910e-002 
                -6.766789901185e-002 -6.075175131074e-002  2.493321508400e-002  1.606579305777e-002 -5.129057984009e-002 -5.717025499040e-002 -5.620058118076e-001  6.815131865184e-001 
                 2.903095840101e-002  1.075180070121e-002 -7.429750392103e-002 -5.323554932660e-002 -5.623988186890e-001  6.822908071645e-001 -3.986072698969e-002 -6.381953046563e-002 
2.80000000e+008 -6.129846037162e-002 -5.623678266997e-002 -4.613521147657e-001  7.471182886646e-001 -7.525485598911e-002 -4.991511861208e-002  3.133052037404e-002  6.427346426935e-003 
                -4.610427858316e-001  7.475489017962e-001 -6.039795338104e-002 -5.592420939434e-002  2.770079959483e-002  1.252786118246e-002 -8.066238335356e-002 -4.108519734313e-002 
                -7.508289693690e-002 -4.968037387705e-002  2.783739691899e-002  1.255096126895e-002 -6.055483746392e-002 -4.986712027698e-002 -4.553576242290e-001  7.540889207099e-001 
                 3.124485232075e-002  6.352059465621e-003 -8.065756059025e-002 -4.104618034153e-002 -4.551537443724e-001  7.549033593678e-001 -4.753275397231e-002 -5.583970684744e-002 
2.90000000e+008 -6.776687084112e-002 -4.821376816225e-002 -3.468189971705e-001  8.038521702936e-001 -8.112077448402e-002 -3.799052149040e-002  3.287423204397e-002  1.677425562872e-003 
                -3.461225425092e-001  8.043493456502e-001 -6.860936631170e-002 -4.287814933399e-002  2.996439532324e-002  8.566926981849e-003 -8.519490612752e-002 -2.812096417129e-002 
                -8.094097434344e-002 -3.780136983409e-002  3.003013926514e-002  8.445043559156e-003 -6.549173295878e-002 -3.944094718761e-002 -3.383490079035e-001  8.105863879160e-001 
                 3.277641478915e-002  1.611362643796e-003 -8.517905341513e-002 -2.810518235669e-002 -3.385402536450e-001  8.102410133972e-001 -5.445334384131e-002 -4.618681363225e-002 
3.00000000e+008 -7.293855082525e-002 -3.978173610480e-002 -2.252070371172e-001  8.433958200921e-001 -8.521860943879e-002 -2.539159007070e-002  3.368150476853e-002 -3.291990359532e-003 
                -2.247976236009e-001  8.431759334844e-001 -7.271881126409e-002 -3.017262647396e-002  3.159797824120e-002  4.364650623861e-003 -8.770933925326e-002 -1.485252745347e-002 
                -8.506566810108e-002 -2.521116497737e-002  3.164306532844e-002  4.256007591656e-003 -6.744076683206e-002 -3.108521463822e-002 -2.167445540119e-001  8.474300165720e-001 
                 3.360206450360e-002 -3.282362730713e-003 -8.764731855746e-002 -1.478744554297e-002 -2.170930227249e-001  8.474037835555e-001 -5.979892693665e-002 -3.472478707242e-002 
3.10000000e+008 -7.659745974734e-002 -3.124242846282e-002 -1.000798581992e-001  8.644268635251e-001 -8.752077576617e-002 -1.238693902010e-002  3.376529961564e-002 -8.323143508667e-003 
                -9.952072505494e-002  8.642699610918e-001 -7.501560049810e-002 -1.843254434174e-002  3.273094205149e-002 -6.159076135130e-005 -8.840771524439e-002 -1.473867452164e-003 
