#        HZ        S              RI          R       50
! peters_01_0605 T20 channel thru response
!
! FREQ                  S11                         S12                         S13                         S14
!                       S21                         S22                         S23                         S24
!                       S31                         S32                         S33                         S34
!                       S41                         S42                         S43                         S44
5.00000000e+007  6.279266901548e-002 -5.256007502766e-002 -1.995363973143e-001 -9.018006169275e-001  7.405252014369e-002 -1.653914717779e-002  4.694410796534e-004  2.855671737566e-003 
                -1.993592781969e-001 -9.017752677900e-001  6.847049395661e-002 -3.537762509466e-002  6.592975593456e-004  2.600733690373e-003  7.478976460177e-002 -1.488182269791e-002 
                 7.438370524663e-002 -1.650568516548e-002  6.663957537997e-004  2.723661634513e-003  5.641343731365e-002 -5.693035832892e-002 -2.070369894915e-001 -8.986367167361e-001 
                 3.380698172980e-004  2.715033111885e-003  7.497765935351e-002 -1.488546535615e-002 -2.063544808970e-001 -9.002700655374e-001  6.856095801756e-002 -3.019606086420e-002 
6.00000000e+007  4.829977376755e-002 -6.288238652440e-002 -4.923832497425e-001 -7.721510464035e-001  6.298956599590e-002 -3.938489680891e-002  1.125377257145e-003  1.921732299021e-003 
                -4.925547500023e-001 -7.726263821707e-001  6.163450406360e-002 -4.486265928179e-002  1.299644022342e-003  1.492436402394e-003  6.462146347807e-002 -3.736630924981e-002 
                 6.308085276969e-002 -3.947655302643e-002  1.386741613180e-003  1.653454474207e-003  4.393874455850e-002 -6.448913049207e-002 -4.992743919180e-001 -7.660808533046e-001 
                 1.280875740087e-003  1.936760526874e-003  6.482369657086e-002 -3.743006383763e-002 -4.995203164654e-001 -7.674804458241e-001  6.284893613667e-002 -4.132139739274e-002 
7.00000000e+007  3.157686717379e-002 -6.837800778386e-002 -7.213666066540e-001 -5.528935299363e-001  4.197779375807e-002 -5.179273168317e-002  1.187703895043e-003  9.912459118197e-004 
                -7.214954519834e-001 -5.535028208341e-001  5.140609691747e-002 -5.500085322713e-002  1.310146156865e-003  4.906302555415e-004  4.460892523749e-002 -5.021671385262e-002 
                 4.196279318744e-002 -5.195408207165e-002  1.502676809000e-003  4.038544387449e-004  3.076160613238e-002 -7.230212351070e-002 -7.271653121981e-001 -5.445325013622e-001 
                 1.315141571700e-003  9.425108203021e-004  4.469233413240e-002 -5.019606509277e-002 -7.277477603699e-001 -5.450993559349e-001  5.234492279718e-002 -5.108868557085e-002 
8.00000000e+007  1.459650220177e-002 -6.809924698169e-002 -8.609416577743e-001 -2.713227974165e-001  1.887768577765e-002 -5.019663953573e-002  7.210570745250e-004  3.052305608510e-004 
                -8.616076708719e-001 -2.714618041174e-001  3.533287562377e-002 -6.303593474484e-002  4.882509317898e-004 -2.259535961351e-004  2.231361564705e-002 -4.951004133260e-002 
                 1.874762319270e-002 -5.022294583778e-002  3.337449248555e-004 -3.776643021696e-004  1.232275246410e-002 -7.622131127650e-002 -8.641919163943e-001 -2.593555264106e-001 
                 6.120151397590e-004  3.335363079272e-004  2.241006757619e-002 -4.948841427274e-002 -8.645325741816e-001 -2.597370902047e-001  3.774411517667e-002 -5.747331424696e-002 
9.00000000e+007  7.776129050693e-004 -6.269917809804e-002 -8.960039452506e-001  3.929068999553e-002  2.297934523397e-003 -3.647969573511e-002 -2.586434326510e-004  3.168352485860e-004 
                -8.964457431777e-001  3.930498425900e-002  1.563689966327e-002 -6.379042569164e-002 -7.272448820697e-004  3.314938164463e-005  6.132839675428e-003 -3.685927608507e-002 
                 2.249800553611e-003 -3.643560651984e-002 -6.979362812444e-004  1.063999404265e-004 -5.563692146961e-003 -6.758538248537e-002 -8.938161710454e-001  5.304822050525e-002 
                -2.846760245332e-004  3.222724950348e-004  6.060014804674e-003 -3.696759042144e-002 -8.942488383710e-001  5.306666332183e-002  2.179498359144e-002 -5.975854391841e-002 
1.00000000e+008 -6.141458694105e-003 -5.594994442454e-002 -8.222593941075e-001  3.401958105825e-001 -1.972804845532e-003 -1.685997230251e-002 -7.741533250974e-004  1.373905247548e-003 
                -8.225167319630e-001  3.402382073502e-001  1.074971400375e-003 -5.671481342197e-002 -1.199177443607e-003  1.381019354949e-003  1.707798138580e-003 -1.844510779361e-002 
                -2.077265892836e-003 -1.673658242923e-002 -1.182252322115e-003  1.428144056758e-003 -1.023508903500e-002 -5.710197103818e-002 -8.148401079203e-001  3.519684431499e-001 
                -7.816749327830e-004  1.525378739677e-003  1.704290623527e-003 -1.845246201650e-002 -8.155069956335e-001  3.517810129866e-001  5.030316177357e-003 -5.801131234644e-002 
1.10000000e+008 -9.023705293950e-003 -4.985290675345e-002 -6.535535880513e-001  5.963464062013e-001  7.046587851796e-003  2.762311476310e-004 -2.367308779395e-004  2.848178802574e-003 
                -6.537214851215e-001  5.964472523120e-001 -7.683094984419e-003 -4.575542445941e-002 -4.219414837153e-004  2.919668711399e-003  9.980480024398e-003 -2.438256443156e-003 
                 7.042839477379e-003  2.696592217349e-004 -4.562097880277e-004  2.931716498795e-003 -1.139209768291e-002 -4.736629813890e-002 -6.420922231098e-001  6.059076188842e-001 
                -1.955622668425e-004  2.789152451873e-003  1.005234167519e-002 -2.439008578361e-003 -6.431393940182e-001  6.059019272670e-001 -8.105027172988e-003 -4.737975473264e-002 
1.20000000e+008 -7.071071082520e-003 -4.636085161800e-002 -4.079267393715e-001  7.783806442421e-001  2.506975734963e-002  7.396101028966e-003  1.573733165795e-003  3.714366692032e-003 
                -4.082417126123e-001  7.786107083186e-001 -7.293743398769e-003 -3.416921170049e-002  1.446839841761e-003  3.757037459527e-003  2.694922802852e-002  4.222368134898e-003 
                 2.514811910083e-002  7.374208750133e-003  1.478734676866e-003  3.875467424123e-003 -4.757712575503e-003 -4.459391864424e-002 -3.932190675406e-001  7.841415072826e-001 
                 1.579723419400e-003  3.736806513348e-003  2.698730035086e-002  4.211913552354e-003 -3.941843900782e-001  7.849325740595e-001 -1.154881007822e-002 -3.271541871621e-002 
1.30000000e+008 -4.412959541417e-003 -4.630117610910e-002 -1.175542837470e-001  8.642669963603e-001  4.450476467143e-002  1.342217024340e-003  3.903045024484e-003  3.285824635742e-003 
                -1.175733706800e-001  8.647306531377e-001 -1.579603466992e-003 -2.540994950580e-002  3.784517126700e-003  3.292064112030e-003  4.535613876786e-002 -1.853621339502e-003 
                 4.456973834474e-002  1.344069894506e-003  3.837063125924e-003  3.306232231358e-003 -2.644559366888e-003 -5.037463093418e-002 -1.000053025138e-001  8.651079439181e-001 
                 3.958861317372e-003  3.351475207997e-003  4.547835035707e-002 -1.875350047189e-003 -1.010449392437e-001  8.661902448938e-001 -5.029167784600e-003 -1.881547361600e-002 
1.40000000e+008 -3.316155088278e-003 -4.763571261596e-002  1.816614002168e-001  8.467862389531e-001  5.737698117388e-002 -1.618485364072e-002  6.075098017991e-003  1.416272597986e-003 
                 1.819318601719e-001  8.468079519085e-001  7.851590083354e-003 -1.903635987165e-002  5.707651228343e-003  1.470358274570e-003  5.741238972544e-002 -1.892780520858e-002 
                 5.744329153981e-002 -1.626276907762e-002  5.768457609736e-003  1.490859082770e-003 -7.948123984848e-003 -5.484305225935e-002  1.995661439387e-001  8.409682529813e-001 
                 6.068288956909e-003  1.396924527475e-003  5.757299708290e-002 -1.906009766220e-002  1.993689242028e-001  8.428822762772e-001  9.275324258038e-003 -1.084177955449e-002 
1.50000000e+008 -3.473885538964e-003 -4.921354503856e-002  4.548543353666e-001  7.297998197877e-001  5.831368731114e-002 -3.945987800511e-002  6.873268272331e-003 -1.775946017358e-003 
                 4.548759361219e-001  7.297616110609e-001  2.066940459088e-002 -1.772245024985e-002  6.580423291678e-003 -1.411002942004e-003  5.798467122253e-002 -4.155241026962e-002 
                 5.841151757730e-002 -3.945622555842e-002  6.624899192285e-003 -1.418215671912e-003 -1.274064413108e-002 -5.342996510503e-002  4.707885771674e-001  7.179657398746e-001 
                 6.919727931377e-003 -1.792001494341e-003  5.820668117982e-002 -4.165632238966e-002  4.716403145970e-001  7.191028955413e-001  2.589650359696e-002 -1.191961263852e-002 
1.60000000e+008 -4.899237757654e-003 -5.145528945982e-002  6.708968205467e-001  5.287700887960e-001  4.624032141697e-002 -6.056249238807e-002  5.711069757556e-003 -5.225587356875e-003 
                 6.710900439223e-001  5.288641812161e-001  3.232866023883e-002 -2.550622998724e-002  5.693333726768e-003 -4.678473263325e-003  4.587343753599e-002 -6.208246606436e-002 
                 4.627561759061e-002 -6.058209283780e-002  5.787630512943e-003 -4.730640342030e-003 -1.247244993605e-002 -5.315738136508e-002  6.830223133548e-001  5.109641880488e-001 
                 5.758944435308e-003 -5.253245091469e-003  4.602264335311e-002 -6.216863195207e-002  6.840132830636e-001  5.120216795884e-001  3.833647970669e-002 -2.275869532065e-002 
1.70000000e+008 -9.101299562086e-003 -5.499295797901e-002  8.047306780293e-001  2.682068266088e-001  2.434122116674e-002 -7.258323558586e-002  2.585695801124e-003 -7.515642435883e-003 
                 8.048401462997e-001  2.688329193110e-001  3.477271637417e-002 -4.183300849762e-002  2.919830458730e-003 -6.991818010523e-003  2.445868599723e-002 -7.356033631849e-002 
                 2.439141769841e-002 -7.265394045516e-002  2.896203855413e-003 -7.062201655850e-003 -1.411280969268e-002 -5.970367160886e-002  8.100126934770e-001  2.465057522396e-001 
                 2.568763916611e-003 -7.450611581657e-003  2.455029444438e-002 -7.373852837353e-002  8.115912531401e-001  2.470856020217e-001  4.086525157960e-002 -4.001194918191e-002 
1.80000000e+008 -1.689866971521e-002 -5.803996435092e-002  8.430278941680e-001 -1.846083840687e-002  3.121488229683e-004 -7.146731831482e-002 -3.009282608697e-004 -7.469940975792e-003 
                 8.436815281798e-001 -1.843899935559e-002  2.357202833547e-002 -5.882490853500e-002 -8.433154437486e-005 -6.969489808488e-003  1.348216824926e-003 -7.250346589918e-002 
                 2.691585820641e-004 -7.149549335208e-002 -1.563222084326e-004 -6.992252810586e-003 -2.513414636280e-002 -6.590814919730e-002  8.407433855697e-001 -4.246238153685e-002 
                -3.119168482471e-004 -7.461483222509e-003  1.323541234843e-003 -7.264894465579e-002  8.418797665503e-001 -4.295706342700e-002  3.149804899093e-002 -5.768805282522e-002 
1.90000000e+008 -2.791727421510e-002 -5.877695722304e-002  7.833036768383e-001 -3.007384387730e-001 -1.916238833405e-002 -5.913053219222e-002 -2.873596289495e-003 -6.659463444227e-003 
                 7.835159787942e-001 -3.011311373059e-001  1.478680425271e-003 -6.758782671606e-002 -2.186832954432e-003 -6.235657593984e-003 -1.727677009284e-002 -6.094759237377e-002 
                -1.917257507984e-002 -5.920817164723e-002 -2.223598041821e-003 -6.225827876549e-003 -3.962642944314e-002 -6.179741912562e-002  7.716289240283e-001 -3.237225142910e-001 
                -2.910392679247e-003 -6.707828147216e-003 -1.734926977407e-002 -6.115154996651e-002  7.721586549087e-001 -3.243465921596e-001  1.083026102860e-002 -6.969655325088e-002 
2.00000000e+008 -3.799796297221e-002 -5.567031896767e-002  6.315063519671e-001 -5.448753745814e-001 -2.845592770579e-002 -3.977139156986e-002 -4.553616279626e-003 -5.192053040746e-003 
                 6.317410756962e-001 -5.448022920090e-001 -2.090316361190e-002 -6.397251247227e-002 -3.729521254994e-003 -5.237897594316e-003 -2.614932802798e-002 -4.298032972983e-002 
                -2.850648043789e-002 -3.975609353350e-002 -3.700775104225e-003 -5.293670241709e-003 -4.705573304983e-002 -5.311383611775e-002  6.127316550193e-001 -5.621302504458e-001 
                -4.543387754653e-003 -5.234155969292e-003 -2.624426814092e-002 -4.312272893437e-002  6.131986429128e-001 -5.622113823233e-001 -1.483906592555e-002 -6.939620556959e-002 
2.10000000e+008 -4.594673476602e-002 -4.946754249345e-002  4.086022555386e-001 -7.225638971176e-001 -2.563713734486e-002 -2.030489607855e-002 -5.557489294781e-003 -3.897596276989e-003 
                 4.088460536418e-001 -7.226695631107e-001 -3.773461208219e-002 -5.138002097126e-002 -4.850982132171e-003 -4.381819411312e-003 -2.370775101405e-002 -2.546830514298e-002 
                -2.562821625247e-002 -2.033868372626e-002 -4.865937480059e-003 -4.363708106663e-003 -5.096497630563e-002 -4.218198477036e-002  3.847904046713e-001 -7.334152742184e-001 
                -5.581840790065e-003 -3.895934084961e-003 -2.378234845459e-002 -2.546300975896e-002  3.856776258881e-001 -7.335592455373e-001 -3.487933994921e-002 -5.605654403107e-002 
2.20000000e+008 -4.900651351294e-002 -4.231319119738e-002  1.393097454650e-001 -8.148077104320e-001 -1.291234965435e-002 -7.558615640698e-003 -6.637285846514e-003 -2.735777328597e-003 
                 1.397578404593e-001 -8.146122625066e-001 -4.307424564482e-002 -3.378631228960e-002 -6.312374820936e-003 -3.419351564261e-003 -1.241728212378e-002 -1.458115937292e-002 
                -1.294503388323e-002 -7.546280790040e-003 -6.347611479997e-003 -3.408790621174e-003 -4.764016597501e-002 -3.454709379780e-002  1.120992909656e-001 -8.168772349956e-001 
                -6.655356105317e-003 -2.773145346249e-003 -1.250832295771e-002 -1.465203336693e-002  1.126690087408e-001 -8.179062240681e-001 -4.294369075085e-002 -3.628708735480e-002 
2.30000000e+008 -4.903767841224e-002 -3.540479324805e-002 -1.442578781170e-001 -8.098185809737e-001  3.933471000730e-003 -5.746747069988e-003 -8.055065811413e-003 -1.056073280510e-003 
                -1.438950657659e-001 -8.099877399987e-001 -3.845606554367e-002 -1.731651373404e-002 -8.060178722045e-003 -1.663255533192e-003  1.966908405998e-003 -1.417619890247e-002 
                 3.964477269115e-003 -5.729049570624e-003 -8.050555496403e-003 -1.650478778822e-003 -4.584454950769e-002 -3.209919789397e-002 -1.711122895794e-001 -8.025154779691e-001 
                -8.051239965959e-003 -1.062156302315e-003  1.969253434997e-003 -1.420817992949e-002 -1.713109560062e-001 -8.037706409967e-001 -3.740192592782e-002 -1.652290101313e-002 
2.40000000e+008 -4.654165906534e-002 -2.830322871062e-002 -4.078521061073e-001 -7.085637926573e-001  1.820238578329e-002 -1.516522389536e-002 -9.197025106819e-003  1.711944562346e-003 
                -4.076439315851e-001 -7.091692163129e-001 -2.581668001299e-002 -4.334364671655e-003 -9.390572971528e-003  1.284376606146e-003  1.278087206709e-002 -2.401698867895e-002 
                 1.823573142105e-002 -1.520331094003e-002 -9.391469847803e-003  1.328728376234e-003 -4.686711657574e-002 -2.818827530865e-002 -4.320226411837e-001 -6.927644236894e-001 
                -9.175093251580e-003  1.714998491199e-003  1.280361688442e-002 -2.408757430040e-002 -4.323731118617e-001 -6.935028126461e-001 -2.127833121089e-002 -3.535183287962e-003 
2.50000000e+008 -4.142726044508e-002 -2.243065295561e-002 -6.191460180451e-001 -5.257902454210e-001  2.383973029155e-002 -3.253705818949e-002 -9.025890628446e-003  5.714874221130e-003 
                -6.194714860693e-001 -5.261191742819e-001 -7.473529817445e-003  1.283838411857e-003 -9.233548184720e-003  5.436249894961e-003  1.458851272454e-002 -4.024549863632e-002 
                 2.388883215494e-002 -3.256677784603e-002 -9.286801954069e-003  5.479817375232e-003 -4.463437363566e-002 -2.138989750215e-002 -6.378843766732e-001 -5.011783993323e-001 
                -9.024264448163e-003  5.683737869539e-003  1.465913125233e-002 -4.039753081473e-002 -6.383184842561e-001 -5.026273615642e-001 -1.246644195228e-003 -1.734466560792e-003 
2.60000000e+008 -3.588813931966e-002 -1.908242050090e-002 -7.550056846963e-001 -2.840246438608e-001  1.763529689229e-002 -5.150235089315e-002 -6.361892722188e-003  9.856098720659e-003 
                -7.554174332648e-001 -2.843813521465e-001  9.660744255945e-003 -3.949808782869e-003 -6.482061207924e-003  9.537814555585e-003  4.972262398327e-003 -5.641128882274e-002 
                 1.761309892900e-002 -5.154799144600e-002 -6.531187123763e-003  9.604781088312e-003 -3.767706178390e-002 -1.820097976297e-002 -7.648633998034e-001 -2.536618948170e-001 
                -6.370162121587e-003  9.888842376370e-003  4.966039107632e-003 -5.651523462379e-002 -7.662784405591e-001 -2.545285437024e-001  1.394228975418e-002 -1.001419554485e-002 
2.70000000e+008 -3.151681700825e-002 -1.791766618922e-002 -8.020935268629e-001 -1.395995664810e-002  1.559218746697e-003 -6.450515803329e-002 -2.147235366851e-003  1.146974024463e-002 
                -8.025773079366e-001 -1.391919499258e-002  1.789780358301e-002 -1.686520355359e-002 -2.654171420465e-003  1.116176971052e-002 -1.336408677825e-002 -6.498201403914e-002 
                 1.566441218164e-003 -6.457200277915e-002 -2.654279792252e-003  1.123882123643e-002 -3.158872187332e-002 -2.171922824159e-002 -8.009439844694e-001  1.969112333904e-002 
                -2.123923694447e-003  1.156051314346e-002 -1.341954550594e-002 -6.511557459175e-002 -8.024370170858e-001  1.962651113592e-002  1.924681185247e-002 -2.299392157757e-002 
2.80000000e+008 -3.032786516967e-002 -2.021396554985e-002 -7.560670573884e-001  2.566558631632e-001 -2.020679222070e-002 -6.932614275401e-002  2.432062734765e-003  1.215609640691e-002 
                -7.566619478906e-001  2.565956445663e-001  1.225910791578e-002 -3.203870610854e-002  1.812542931259e-003  1.212527476482e-002 -3.533333933954e-002 -6.443861599319e-002 
                -2.021903609316e-002 -6.932361447201e-002  1.790377469079e-003  1.226905658632e-002 -3.350726678226e-002 -2.814139516410e-002 -7.430035964554e-001  2.887356396609e-001 
                 2.408304539601e-003  1.216898082193e-002 -3.549147884337e-002 -6.459365087616e-002 -7.441462873464e-001  2.894337563807e-001  1.354111701598e-002 -3.564242603920e-002 
2.90000000e+008 -3.319596190465e-002 -2.210795262400e-002 -6.220200548355e-001  4.935763067971e-001 -4.289412986504e-002 -6.264863206105e-002  7.126127228715e-003  1.050746052670e-002 
                -6.223821442872e-001  4.940096340887e-001 -3.755356922378e-003 -3.826114634176e-002  6.561050628402e-003  1.063144692182e-002 -5.599808555446e-002 -5.259996196040e-002 
                -4.295713690028e-002 -6.266849984905e-002  6.590812731081e-003  1.068711015868e-002 -3.965250519807e-002 -2.743278914943e-002 -5.977408014176e-001  5.205780845576e-001 
                 7.120690717897e-003  1.049785638595e-002 -5.616869254565e-002 -5.274112606602e-002 -5.980659429809e-001  5.209295211211e-001 -1.140331707423e-003 -4.137428843614e-002 
3.00000000e+008 -3.692513945163e-002 -2.285311141787e-002 -4.173990601598e-001  6.706470230141e-001 -6.008738325301e-002 -4.602861995331e-002  1.043152045147e-002  7.090215093398e-003 
                -4.173813593131e-001  6.708771082352e-001 -1.939211219650e-002 -3.406737419524e-002  9.937033914260e-003  7.445619248044e-003 -6.896747577215e-002 -3.220927210631e-002 
                -6.014132310867e-002 -4.608318070337e-002  9.967419281902e-003  7.436709545140e-003 -4.113001745115e-002 -2.406512151368e-002 -3.844538701885e-001  6.874169486840e-001 
                 1.044923788793e-002  7.133479625080e-003 -6.912252494897e-002 -3.227666205913e-002 -3.855188207912e-001  6.875059496301e-001 -1.756025193991e-002 -3.680108324230e-002 
