isweep,gm,i_id,id,i_cgg,cgg,i_cgs,cgs,i_cgd,cgd,i_cds,cds,i_css,css,i_cdd,cdd,i_gds,gds,i_vth,vth,i_vdsat,vdsat,i_vgs,vgs,i_vds,vds,i_rds,rds,i_wt,wt,i_ft,ft,i_kgm,kgm,W,L,pdk
1.00000000e-09,2.17863300e-08,1.00000000e-09,9.99492493e-10,1.00000000e-09,1.30051922e-15,1.00000000e-09,-5.45740900e-16,1.00000000e-09,3.19278403e-19,1.00000000e-09,2.90717833e-16,1.00000000e-09,4.34976134e-16,1.00000000e-09,1.01787285e-18,1.00000000e-09,2.96517964e-10,1.00000000e-09,5.97481158e-01,1.00000000e-09,4.66581109e-02,1.00000000e-09,2.94585504e-01,1.00000000e-09,2.94585503e-01,1.00000000e-09,3.37247696e+09,1.00000000e-09,1.67520247e+07,1.00000000e-09,2.66616754e+06,1.00000000e-09,2.17973923e+01,1.0,.500,sky130
1.50000000e-09,3.26573865e-08,1.50000000e-09,1.50568738e-09,1.50000000e-09,1.34346650e-15,1.50000000e-09,-6.09606991e-16,1.50000000e-09,5.89695122e-19,1.50000000e-09,3.20505163e-16,1.50000000e-09,4.79551189e-16,1.50000000e-09,8.38447527e-19,1.50000000e-09,4.29810284e-10,1.50000000e-09,5.97401829e-01,1.50000000e-09,4.66968641e-02,1.50000000e-09,3.13180597e-01,1.50000000e-09,3.13180596e-01,1.50000000e-09,2.32660789e+09,1.50000000e-09,2.43082998e+07,1.50000000e-09,3.86878607e+06,1.50000000e-09,2.16893539e+01,1.0,.500,sky130
2.00000000e-09,4.31964115e-08,2.00000000e-09,1.99951204e-09,2.00000000e-09,1.37564996e-15,2.00000000e-09,-6.56691287e-16,2.00000000e-09,7.78655200e-19,2.00000000e-09,3.42275108e-16,2.00000000e-09,5.12138210e-16,2.00000000e-09,7.20889702e-19,2.00000000e-09,5.56805349e-10,2.00000000e-09,5.97346647e-01,2.00000000e-09,4.67345045e-02,2.00000000e-09,3.26115635e-01,2.00000000e-09,3.26115634e-01,2.00000000e-09,1.79595976e+09,2.00000000e-09,3.14007290e+07,2.00000000e-09,4.99758123e+06,2.00000000e-09,2.16034765e+01,1.0,.500,sky130
2.50000000e-09,5.39003847e-08,2.50000000e-09,2.50368235e-09,2.50000000e-09,1.40256816e-15,2.50000000e-09,-6.95656472e-16,2.50000000e-09,9.30072725e-19,2.50000000e-09,3.60182141e-16,2.50000000e-09,5.38947664e-16,2.50000000e-09,6.30713438e-19,2.50000000e-09,6.84264622e-10,2.50000000e-09,5.97302730e-01,2.50000000e-09,4.67727948e-02,2.50000000e-09,3.36410300e-01,2.50000000e-09,3.36410299e-01,2.50000000e-09,1.46142292e+09,2.50000000e-09,3.84297793e+07,2.50000000e-09,6.11628933e+06,2.50000000e-09,2.15284438e+01,1.0,.500,sky130
3.00000000e-09,6.44360786e-08,3.00000000e-09,3.00217210e-09,3.00000000e-09,1.42519572e-15,3.00000000e-09,-7.28157219e-16,3.00000000e-09,1.05359892e-18,3.00000000e-09,3.75048820e-16,3.00000000e-09,5.61208025e-16,3.00000000e-09,5.59513669e-19,3.00000000e-09,8.08602085e-10,3.00000000e-09,5.97267144e-01,3.00000000e-09,4.68105333e-02,3.00000000e-09,3.44751816e-01,3.00000000e-09,3.44751815e-01,3.00000000e-09,1.23670223e+09,3.00000000e-09,4.52120909e+07,3.00000000e-09,7.19572775e+06,3.00000000e-09,2.14631528e+01,1.0,.500,sky130
3.50000000e-09,7.49317383e-08,3.50000000e-09,3.50074246e-09,3.50000000e-09,1.44495232e-15,3.50000000e-09,-7.56365164e-16,3.50000000e-09,1.15908512e-18,3.50000000e-09,3.87903786e-16,3.50000000e-09,5.80457969e-16,3.50000000e-09,5.00241231e-19,3.50000000e-09,9.31597817e-10,3.50000000e-09,5.97236942e-01,3.50000000e-09,4.68481694e-02,3.50000000e-09,3.51831366e-01,3.50000000e-09,3.51831365e-01,3.50000000e-09,1.07342458e+09,3.50000000e-09,5.18575856e+07,3.50000000e-09,8.25339108e+06,3.50000000e-09,2.14045275e+01,1.0,.500,sky130
4.00000000e-09,8.54087730e-08,4.00000000e-09,4.00020871e-09,4.00000000e-09,1.46254751e-15,4.00000000e-09,-7.81366007e-16,4.00000000e-09,1.25141189e-18,4.00000000e-09,3.99261749e-16,4.00000000e-09,5.97467442e-16,4.00000000e-09,4.49428702e-19,4.00000000e-09,1.05366571e-09,4.00000000e-09,5.97210653e-01,4.00000000e-09,4.68857722e-02,4.00000000e-09,3.57993777e-01,4.00000000e-09,3.57993776e-01,4.00000000e-09,9.49067609e+08,4.00000000e-09,5.83972640e+07,4.00000000e-09,9.29421322e+06,4.00000000e-09,2.13510792e+01,1.0,.500,sky130
4.50000000e-09,9.58574296e-08,4.50000000e-09,4.49994522e-09,4.50000000e-09,1.47841456e-15,4.50000000e-09,-8.03820745e-16,4.50000000e-09,1.33350523e-18,4.50000000e-09,4.09435811e-16,4.50000000e-09,6.12704846e-16,4.50000000e-09,4.05026457e-19,4.50000000e-09,1.17480747e-09,4.50000000e-09,5.97187391e-01,4.50000000e-09,4.69233001e-02,4.50000000e-09,3.63446525e-01,4.50000000e-09,3.63446523e-01,4.50000000e-09,8.51203303e+08,4.50000000e-09,6.48379909e+07,4.50000000e-09,1.03192868e+07,4.50000000e-09,2.13019103e+01,1.0,.500,sky130
5.00000000e-09,1.06276954e-07,5.00000000e-09,4.99977987e-09,5.00000000e-09,1.49287419e-15,5.00000000e-09,-8.24213707e-16,5.00000000e-09,1.40744531e-18,5.00000000e-09,4.18654210e-16,5.00000000e-09,6.26511683e-16,5.00000000e-09,3.65623065e-19,5.00000000e-09,1.29510110e-09,5.00000000e-09,5.97166529e-01,5.00000000e-09,4.69607447e-02,5.00000000e-09,3.68336598e-01,5.00000000e-09,3.68336596e-01,5.00000000e-09,7.72140491e+08,5.00000000e-09,7.11894907e+07,5.00000000e-09,1.13301593e+07,5.00000000e-09,2.12563265e+01,1.0,.500,sky130
5.50000000e-09,1.16668964e-07,5.50000000e-09,5.49967497e-09,5.50000000e-09,1.50616606e-15,5.50000000e-09,-8.42904126e-16,5.50000000e-09,1.47474172e-18,5.50000000e-09,4.27085603e-16,5.50000000e-09,6.39140332e-16,5.50000000e-09,3.30218905e-19,5.50000000e-09,1.41463205e-09,5.50000000e-09,5.97147615e-01,5.50000000e-09,4.69981069e-02,5.50000000e-09,3.72770315e-01,5.50000000e-09,3.72770313e-01,5.50000000e-09,7.06897599e+08,5.50000000e-09,7.74608901e+07,5.50000000e-09,1.23282836e+07,5.50000000e-09,2.12137926e+01,1.0,.500,sky130
6.00000000e-09,1.27034953e-07,6.00000000e-09,5.99960324e-09,6.00000000e-09,1.51847220e-15,6.00000000e-09,-8.60163332e-16,6.00000000e-09,1.53651570e-18,6.00000000e-09,4.34857006e-16,6.00000000e-09,6.50780884e-16,6.00000000e-09,2.98085903e-19,6.00000000e-09,1.53347006e-09,6.00000000e-09,5.97130311e-01,6.00000000e-09,4.70353878e-02,6.00000000e-09,3.76826400e-01,6.00000000e-09,3.76826398e-01,6.00000000e-09,6.52115764e+08,6.00000000e-09,8.36597158e+07,6.00000000e-09,1.33148573e+07,6.00000000e-09,2.11738923e+01,1.0,.500,sky130
6.50000000e-09,1.37376468e-07,6.50000000e-09,6.49955333e-09,6.50000000e-09,1.52993449e-15,6.50000000e-09,-8.76201804e-16,6.50000000e-09,1.59362459e-18,6.50000000e-09,4.42066692e-16,6.50000000e-09,6.61580422e-16,6.50000000e-09,2.68677069e-19,6.50000000e-09,1.65167519e-09,6.50000000e-09,5.97114363e-01,6.50000000e-09,4.70725889e-02,6.50000000e-09,3.80564842e-01,6.50000000e-09,3.80564841e-01,6.50000000e-09,6.05445916e+08,6.50000000e-09,8.97923860e+07,6.50000000e-09,1.42909021e+07,6.50000000e-09,2.11362938e+01,1.0,.500,sky130
7.00000000e-09,1.47694914e-07,7.00000000e-09,6.99951745e-09,7.00000000e-09,1.54066567e-15,7.00000000e-09,-8.91186019e-16,7.00000000e-09,1.64673822e-18,7.00000000e-09,4.48792212e-16,7.00000000e-09,6.71655022e-16,7.00000000e-09,2.41571602e-19,7.00000000e-09,1.76929812e-09,7.00000000e-09,5.97099570e-01,7.00000000e-09,4.71097120e-02,7.00000000e-09,3.84032357e-01,7.00000000e-09,3.84032355e-01,7.00000000e-09,5.65195877e+08,7.00000000e-09,9.58643508e+07,7.00000000e-09,1.52572853e+07,7.00000000e-09,2.11007280e+01,1.0,.500,sky130
7.50000000e-09,1.57991587e-07,7.50000000e-09,7.49949143e-09,7.50000000e-09,1.55075686e-15,7.50000000e-09,-9.05250065e-16,7.50000000e-09,1.69639033e-18,7.50000000e-09,4.55095896e-16,7.50000000e-09,6.81097984e-16,7.50000000e-09,2.16438867e-19,7.50000000e-09,1.88638241e-09,7.50000000e-09,5.97085775e-01,7.50000000e-09,4.71467587e-02,7.50000000e-09,3.87266039e-01,7.50000000e-09,3.87266036e-01,7.50000000e-09,5.30115207e+08,7.50000000e-09,1.01880308e+08,7.50000000e-09,1.62147546e+07,7.50000000e-09,2.10669734e+01,1.0,.500,sky130
8.00000000e-09,1.68267628e-07,8.00000000e-09,7.99947088e-09,8.00000000e-09,1.56028281e-15,8.00000000e-09,-9.18503527e-16,8.00000000e-09,1.74301305e-18,8.00000000e-09,4.61028589e-16,8.00000000e-09,6.89985420e-16,8.00000000e-09,1.93014536e-19,8.00000000e-09,2.00296530e-09,8.00000000e-09,5.97072850e-01,8.00000000e-09,4.71837303e-02,8.00000000e-09,3.90295823e-01,8.00000000e-09,3.90295821e-01,8.00000000e-09,4.99259772e+08,8.00000000e-09,1.07844314e+08,8.00000000e-09,1.71639556e+07,8.00000000e-09,2.10348448e+01,1.0,.500,sky130
8.50000000e-09,1.78524115e-07,8.50000000e-09,8.49945422e-09,8.50000000e-09,1.56930565e-15,8.50000000e-09,-9.31037247e-16,8.50000000e-09,1.78696158e-18,8.50000000e-09,4.66632366e-16,8.50000000e-09,6.98380316e-16,8.50000000e-09,1.71083865e-19,8.50000000e-09,2.11907966e-09,8.50000000e-09,5.97060690e-01,8.50000000e-09,4.72206282e-02,8.50000000e-09,3.93146235e-01,8.50000000e-09,3.93146232e-01,8.50000000e-09,4.71902977e+08,8.50000000e-09,1.13759939e+08,8.50000000e-09,1.81054566e+07,8.50000000e-09,2.10041857e+01,1.0,.500,sky130
9.00000000e-09,1.88762039e-07,9.00000000e-09,8.99944111e-09,9.00000000e-09,1.57787763e-15,9.00000000e-09,-9.42927382e-16,9.00000000e-09,1.82853146e-18,9.00000000e-09,4.71942441e-16,9.00000000e-09,7.06335391e-16,9.00000000e-09,1.50470084e-19,9.00000000e-09,2.23475448e-09,9.00000000e-09,5.97049208e-01,9.00000000e-09,4.72574538e-02,9.00000000e-09,3.95837614e-01,9.00000000e-09,3.95837612e-01,9.00000000e-09,4.47476449e+08,9.00000000e-09,1.19630341e+08,9.00000000e-09,1.90397601e+07,9.00000000e-09,2.09748624e+01,1.0,.500,sky130
9.50000000e-09,1.98982307e-07,9.50000000e-09,9.49943146e-09,9.50000000e-09,1.58604312e-15,9.50000000e-09,-9.54238418e-16,9.50000000e-09,1.86797123e-18,9.50000000e-09,4.76988587e-16,9.50000000e-09,7.13895219e-16,9.50000000e-09,1.31025981e-19,9.50000000e-09,2.35001543e-09,9.50000000e-09,5.97038332e-01,9.50000000e-09,4.72942084e-02,9.50000000e-09,3.98387016e-01,9.50000000e-09,3.98387013e-01,9.50000000e-09,4.25529122e+08,9.50000000e-09,1.25458321e+08,9.50000000e-09,1.99673120e+07,9.50000000e-09,2.09467596e+01,1.0,.500,sky130
1.00000000e-08,2.09184957e-07,1.00000000e-08,9.99938639e-09,1.00000000e-08,1.59383950e-15,1.00000000e-08,-9.65024642e-16,1.00000000e-08,1.90548914e-18,1.00000000e-08,4.81795848e-16,1.00000000e-08,7.21097295e-16,1.00000000e-08,1.12629065e-19,1.00000000e-08,2.46487642e-09,1.00000000e-08,5.97028001e-01,1.00000000e-08,4.73308901e-02,1.00000000e-08,4.00808698e-01,1.00000000e-08,4.00808695e-01,1.00000000e-08,4.05699853e+08,1.00000000e-08,1.31245935e+08,1.00000000e-08,2.08884394e+07,1.00000000e-08,2.09197793e+01,1.0,.500,sky130
1.50000000e-08,3.11621419e-07,1.50000000e-08,1.50584261e-08,1.50000000e-08,1.65772533e-15,1.50000000e-08,-1.05295060e-15,1.50000000e-08,2.20837188e-18,1.50000000e-08,5.20816969e-16,1.50000000e-08,7.79561865e-16,1.50000000e-08,-3.26189269e-20,1.50000000e-08,3.60889985e-09,1.50000000e-08,5.96945033e-01,1.50000000e-08,4.76983260e-02,1.50000000e-08,4.20257138e-01,1.50000000e-08,4.20257134e-01,1.50000000e-08,2.77092755e+08,1.50000000e-08,1.87981333e+08,1.50000000e-08,2.99181584e+07,1.50000000e-08,2.06941560e+01,1.0,.500,sky130
2.00000000e-08,4.13301704e-07,2.00000000e-08,2.01366676e-08,2.00000000e-08,1.70467734e-15,2.00000000e-08,-1.11710397e-15,2.00000000e-08,2.42658792e-18,2.00000000e-08,5.49111114e-16,2.00000000e-08,8.21958998e-16,2.00000000e-08,-1.34067470e-19,2.00000000e-08,4.73166751e-09,2.00000000e-08,5.96885565e-01,2.00000000e-08,4.80607821e-02,2.00000000e-08,4.34196883e-01,2.00000000e-08,4.34196877e-01,2.00000000e-08,2.11341984e+08,2.00000000e-08,2.42451573e+08,2.00000000e-08,3.85873664e+07,2.00000000e-08,2.05248313e+01,1.0,.500,sky130
2.50000000e-08,5.11083369e-07,2.50000000e-08,2.50606071e-08,2.50000000e-08,1.74076766e-15,2.50000000e-08,-1.16618095e-15,2.50000000e-08,2.59224281e-18,2.50000000e-08,5.70661129e-16,2.50000000e-08,8.54252828e-16,2.50000000e-08,-2.09530999e-19,2.50000000e-08,5.80216188e-09,2.50000000e-08,5.96840466e-01,2.50000000e-08,4.84066040e-02,2.50000000e-08,4.44768458e-01,2.50000000e-08,4.44768451e-01,2.50000000e-08,1.72349552e+08,2.50000000e-08,2.93596544e+08,2.50000000e-08,4.67273412e+07,2.50000000e-08,2.03938942e+01,1.0,.500,sky130
3.00000000e-08,6.08928206e-07,3.00000000e-08,3.00195000e-08,3.00000000e-08,1.77096712e-15,3.00000000e-08,-1.20710430e-15,3.00000000e-08,2.72964603e-18,3.00000000e-08,5.88570347e-16,3.00000000e-08,8.81092230e-16,3.00000000e-08,-2.71207896e-19,3.00000000e-08,6.86580103e-09,3.00000000e-08,5.96803020e-01,3.00000000e-08,4.87496408e-02,3.00000000e-08,4.53546103e-01,3.00000000e-08,4.53546094e-01,3.00000000e-08,1.45649429e+08,3.00000000e-08,3.43839363e+08,3.00000000e-08,5.47237343e+07,3.00000000e-08,2.02844220e+01,1.0,.500,sky130
3.50000000e-08,7.06889916e-07,3.50000000e-08,3.50107741e-08,3.50000000e-08,1.79694443e-15,3.50000000e-08,-1.24220933e-15,3.50000000e-08,2.84704205e-18,3.50000000e-08,6.03890636e-16,3.50000000e-08,9.04052817e-16,3.50000000e-08,-3.23294526e-19,3.50000000e-08,7.92411607e-09,3.50000000e-08,5.96770958e-01,3.50000000e-08,4.90898986e-02,3.50000000e-08,4.61061783e-01,3.50000000e-08,4.61061773e-01,3.50000000e-08,1.26197041e+08,3.50000000e-08,3.93384405e+08,3.50000000e-08,6.26090726e+07,3.50000000e-08,2.01906394e+01,1.0,.500,sky130
4.00000000e-08,8.04506553e-07,4.00000000e-08,4.00069339e-08,4.00000000e-08,1.81963259e-15,4.00000000e-08,-1.27280052e-15,4.00000000e-08,2.94901921e-18,4.00000000e-08,6.17209520e-16,4.00000000e-08,9.24014658e-16,4.00000000e-08,-3.68111783e-19,4.00000000e-08,8.97283362e-09,4.00000000e-08,5.96743028e-01,4.00000000e-08,4.94256992e-02,4.00000000e-08,4.67608812e-01,4.00000000e-08,4.67608800e-01,4.00000000e-08,1.11447514e+08,4.00000000e-08,4.42125820e+08,4.00000000e-08,7.03665097e+07,4.00000000e-08,2.01091779e+01,1.0,.500,sky130
4.50000000e-08,9.01767867e-07,4.50000000e-08,4.50043659e-08,4.50000000e-08,1.83975464e-15,4.50000000e-08,-1.29988059e-15,4.50000000e-08,3.03905882e-18,4.50000000e-08,6.28975610e-16,4.50000000e-08,9.41649818e-16,4.50000000e-08,-4.07368382e-19,4.50000000e-08,1.00124374e-08,4.50000000e-08,5.96718288e-01,4.50000000e-08,4.97570142e-02,4.50000000e-08,4.73408142e-01,4.50000000e-08,4.73408128e-01,4.50000000e-08,9.98757809e+07,4.50000000e-08,4.90156592e+08,4.50000000e-08,7.80108446e+07,4.50000000e-08,2.00373419e+01,1.0,.500,sky130
5.00000000e-08,9.98714201e-07,5.00000000e-08,5.00028024e-08,5.00000000e-08,1.85782655e-15,5.00000000e-08,-1.32416242e-15,5.00000000e-08,3.11961994e-18,5.00000000e-08,6.39506836e-16,5.00000000e-08,9.57434613e-16,5.00000000e-08,-4.42253281e-19,5.00000000e-08,1.10438391e-08,5.00000000e-08,5.96696075e-01,5.00000000e-08,5.00840235e-02,5.00000000e-08,4.78615048e-01,5.00000000e-08,4.78615033e-01,5.00000000e-08,9.05482225e+07,5.00000000e-08,5.37571284e+08,5.00000000e-08,8.55571271e+07,5.00000000e-08,1.99731645e+01,1.0,.500,sky130
5.50000000e-08,1.09537220e-06,5.50000000e-08,5.50018225e-08,5.50000000e-08,1.87422159e-15,5.50000000e-08,-1.34616033e-15,5.50000000e-08,3.19246894e-18,5.50000000e-08,6.49032105e-16,5.50000000e-08,9.71711997e-16,5.50000000e-08,-4.73611379e-19,5.50000000e-08,1.20677219e-08,5.50000000e-08,5.96675916e-01,5.50000000e-08,5.04068799e-02,5.50000000e-08,4.83340593e-01,5.50000000e-08,4.83340577e-01,5.50000000e-08,8.28656819e+07,5.50000000e-08,5.84441140e+08,5.50000000e-08,9.30166964e+07,5.50000000e-08,1.99151983e+01,1.0,.500,sky130
6.00000000e-08,1.19176405e-06,6.00000000e-08,6.00011748e-08,6.00000000e-08,1.88921959e-15,6.00000000e-08,-1.36625898e-15,6.00000000e-08,3.25892164e-18,6.00000000e-08,6.57722252e-16,6.00000000e-08,9.84737933e-16,6.00000000e-08,-5.02066063e-19,6.00000000e-08,1.30846618e-08,6.00000000e-08,5.96657459e-01,6.00000000e-08,5.07257337e-02,6.00000000e-08,4.87667229e-01,6.00000000e-08,4.87667212e-01,6.00000000e-08,7.64253609e+07,6.00000000e-08,6.30823465e+08,6.00000000e-08,1.00398673e+08,6.00000000e-08,1.98623453e+01,1.0,.500,sky130
6.50000000e-08,1.28790844e-06,6.50000000e-08,6.50007276e-08,6.50000000e-08,1.90303580e-15,6.50000000e-08,-1.38475359e-15,6.50000000e-08,3.31998472e-18,6.50000000e-08,6.65708180e-16,6.50000000e-08,9.96708551e-16,6.50000000e-08,-5.28090292e-19,6.50000000e-08,1.40951533e-08,6.50000000e-08,5.96640435e-01,6.50000000e-08,5.10407304e-02,6.50000000e-08,4.91657872e-01,6.50000000e-08,4.91657853e-01,6.50000000e-08,7.09463726e+07,6.50000000e-08,6.76765217e+08,6.50000000e-08,1.07710530e+08,6.50000000e-08,1.98137541e+01,1.0,.500,sky130
7.00000000e-08,1.38382085e-06,7.00000000e-08,7.00004104e-08,7.00000000e-08,1.91583931e-15,7.00000000e-08,-1.40187569e-15,7.00000000e-08,3.37644538e-18,7.00000000e-08,6.73092378e-16,7.00000000e-08,1.00777742e-15,7.00000000e-08,-5.52051185e-19,7.00000000e-08,1.50996219e-08,7.00000000e-08,5.96624635e-01,7.00000000e-08,5.13520085e-02,7.00000000e-08,4.95361611e-01,7.00000000e-08,4.95361591e-01,7.00000000e-08,6.62268239e+07,7.00000000e-08,7.22305282e+08,7.00000000e-08,1.14958456e+08,7.00000000e-08,1.97687534e+01,1.0,.500,sky130
7.50000000e-08,1.47951393e-06,7.50000000e-08,7.50001794e-08,7.50000000e-08,1.92776539e-15,7.50000000e-08,-1.41781017e-15,7.50000000e-08,3.42893070e-18,7.50000000e-08,6.79956570e-16,7.50000000e-08,1.01806700e-15,7.50000000e-08,-5.74239254e-19,7.50000000e-08,1.60984346e-08,7.50000000e-08,5.96609892e-01,7.50000000e-08,5.16596990e-02,7.50000000e-08,4.98817483e-01,7.50000000e-08,4.98817461e-01,7.50000000e-08,6.21178409e+07,7.50000000e-08,7.67476135e+08,7.50000000e-08,1.22147621e+08,7.50000000e-08,1.97268052e+01,1.0,.500,sky130
8.00000000e-08,1.57499795e-06,8.00000000e-08,8.00000052e-08,8.00000000e-08,1.93892394e-15,8.00000000e-08,-1.43270703e-15,8.00000000e-08,3.47794825e-18,8.00000000e-08,6.86366971e-16,8.00000000e-08,1.02767649e-15,8.00000000e-08,-5.94888266e-19,8.00000000e-08,1.70919108e-08,8.00000000e-08,5.96596072e-01,8.00000000e-08,5.19639249e-02,8.00000000e-08,5.02057042e-01,8.00000000e-08,5.02057019e-01,8.00000000e-08,5.85072093e+07,8.00000000e-08,8.12305175e+08,8.00000000e-08,1.29282384e+08,8.00000000e-08,1.96874731e+01,1.0,.500,sky130
8.50000000e-08,1.67028140e-06,8.50000000e-08,8.49998725e-08,8.50000000e-08,1.94940548e-15,8.50000000e-08,-1.44668964e-15,8.50000000e-08,3.52391474e-18,8.50000000e-08,6.92377975e-16,8.50000000e-08,1.03668743e-15,8.50000000e-08,-6.14189090e-19,8.50000000e-08,1.80803314e-08,8.50000000e-08,5.96583065e-01,8.50000000e-08,5.22648025e-02,8.50000000e-08,5.05106167e-01,8.50000000e-08,5.05106142e-01,8.50000000e-08,5.53087207e+07,8.50000000e-08,8.56815792e+08,8.50000000e-08,1.36366469e+08,8.50000000e-08,1.96503989e+01,1.0,.500,sky130
9.00000000e-08,1.76537119e-06,9.00000000e-08,8.99997692e-08,9.00000000e-08,1.95928545e-15,9.00000000e-08,-1.45986069e-15,9.00000000e-08,3.56717641e-18,9.00000000e-08,6.98034808e-16,9.00000000e-08,1.04516756e-15,9.00000000e-08,-6.32299532e-19,9.00000000e-08,1.90639447e-08,9.00000000e-08,5.96570778e-01,9.00000000e-08,5.25624413e-02,9.00000000e-08,5.07986339e-01,9.00000000e-08,5.07986313e-01,9.00000000e-08,5.24550411e+07,9.00000000e-08,9.01028073e+08,9.00000000e-08,1.43403072e+08,9.00000000e-08,1.96152857e+01,1.0,.500,sky130
9.50000000e-08,1.86027303e-06,9.50000000e-08,9.49996884e-08,9.50000000e-08,1.96862739e-15,9.50000000e-08,-1.47230658e-15,9.50000000e-08,3.60802406e-18,9.50000000e-08,7.03375479e-16,9.50000000e-08,1.05317385e-15,9.50000000e-08,-6.49351537e-19,9.50000000e-08,2.00429717e-08,9.50000000e-08,5.96559135e-01,9.50000000e-08,5.28569448e-02,9.50000000e-08,5.10715593e-01,9.50000000e-08,5.10715565e-01,9.50000000e-08,4.98928010e+07,9.50000000e-08,9.44959438e+08,9.50000000e-08,1.50394966e+08,9.50000000e-08,1.95818856e+01,1.0,.500,sky130
1.00000000e-07,1.95498494e-06,1.00000000e-07,9.99992731e-08,1.00000000e-07,1.97748471e-15,1.00000000e-07,-1.48409987e-15,1.00000000e-07,3.64670165e-18,1.00000000e-07,7.08431887e-16,1.00000000e-07,1.06075411e-15,1.00000000e-07,-6.65455420e-19,1.00000000e-07,2.10175424e-08,1.00000000e-07,5.96548072e-01,1.00000000e-07,5.31483905e-02,1.00000000e-07,5.13309036e-01,1.00000000e-07,5.13309007e-01,1.00000000e-07,4.75793021e+07,1.00000000e-07,9.88622025e+08,1.00000000e-07,1.57344082e+08,1.00000000e-07,1.95499915e+01,1.0,.500,sky130
