isweep,gm,i_id,id,i_cgg,cgg,i_cgs,cgs,i_cgd,cgd,i_cds,cds,i_css,css,i_cdd,cdd,i_gds,gds,i_vth,vth,i_vdsat,vdsat,i_vgs,vgs,i_vds,vds,i_rds,rds,i_wt,wt,i_ft,ft,i_kgm,kgm,W,L,pdk
1.00000000e-09,2.54072551e-08,1.00000000e-09,9.99669884e-10,1.00000000e-09,1.33198174e-15,1.00000000e-09,-5.79806303e-16,1.00000000e-09,1.33364546e-18,1.00000000e-09,3.02002438e-16,1.00000000e-09,4.51743142e-16,1.00000000e-09,5.54050459e-20,1.00000000e-09,3.24207951e-10,1.00000000e-09,6.13494186e-01,1.00000000e-09,4.04604261e-02,1.00000000e-09,3.32366083e-01,1.00000000e-09,3.32366082e-01,1.00000000e-09,3.08444008e+09,1.00000000e-09,1.90747774e+07,1.00000000e-09,3.03584511e+06,1.00000000e-09,2.54156452e+01,1.0,.500,sky130
1.50000000e-09,3.80702365e-08,1.50000000e-09,1.50585329e-09,1.50000000e-09,1.37975773e-15,1.50000000e-09,-6.47558623e-16,1.50000000e-09,1.60446861e-18,1.50000000e-09,3.33165036e-16,1.50000000e-09,4.98404073e-16,1.50000000e-09,-7.37129659e-20,1.50000000e-09,4.76142886e-10,1.50000000e-09,6.13414233e-01,1.50000000e-09,4.04900082e-02,1.50000000e-09,3.48325561e-01,1.50000000e-09,3.48325560e-01,1.50000000e-09,2.10020990e+09,1.50000000e-09,2.75919719e+07,1.50000000e-09,4.39139872e+06,1.50000000e-09,2.52815044e+01,1.0,.500,sky130
2.00000000e-09,5.06988849e-08,2.00000000e-09,2.01413425e-09,2.00000000e-09,1.41632300e-15,2.00000000e-09,-6.98775386e-16,2.00000000e-09,1.80667261e-18,2.00000000e-09,3.56532605e-16,2.00000000e-09,5.33397514e-16,2.00000000e-09,-1.66996671e-19,2.00000000e-09,6.25958898e-10,2.00000000e-09,6.13357189e-01,2.00000000e-09,4.05195952e-02,2.00000000e-09,3.59712328e-01,2.00000000e-09,3.59712328e-01,2.00000000e-09,1.59754898e+09,2.00000000e-09,3.57961317e+07,2.00000000e-09,5.69713131e+06,2.00000000e-09,2.51715520e+01,1.0,.500,sky130
2.50000000e-09,6.28536945e-08,2.50000000e-09,2.50611349e-09,2.50000000e-09,1.44522352e-15,2.50000000e-09,-7.38932347e-16,2.50000000e-09,1.96406756e-18,2.50000000e-09,3.74752248e-16,2.50000000e-09,5.60684038e-16,2.50000000e-09,-2.38087247e-19,2.50000000e-09,7.69065643e-10,2.50000000e-09,6.13314144e-01,2.50000000e-09,4.05481412e-02,2.50000000e-09,3.68304473e-01,2.50000000e-09,3.68304473e-01,2.50000000e-09,1.30027912e+09,2.50000000e-09,4.34906392e+07,2.50000000e-09,6.92175020e+06,2.50000000e-09,2.50801469e+01,1.0,.500,sky130
3.00000000e-09,7.50388828e-08,3.00000000e-09,3.00171586e-09,3.00000000e-09,1.46998934e-15,3.00000000e-09,-7.73145399e-16,3.00000000e-09,2.09751904e-18,3.00000000e-09,3.90209940e-16,3.00000000e-09,5.83835523e-16,3.00000000e-09,-2.97456191e-19,3.00000000e-09,9.11735133e-10,3.00000000e-09,6.13278476e-01,3.00000000e-09,4.05768171e-02,3.00000000e-09,3.75424217e-01,3.00000000e-09,3.75424216e-01,3.00000000e-09,1.09680977e+09,3.00000000e-09,5.10472292e+07,3.00000000e-09,8.12441886e+06,3.00000000e-09,2.49986629e+01,1.0,.500,sky130
3.50000000e-09,8.72565313e-08,3.50000000e-09,3.50079904e-09,3.50000000e-09,1.49173004e-15,3.50000000e-09,-8.03043047e-16,3.50000000e-09,2.21372318e-18,3.50000000e-09,4.03671829e-16,3.50000000e-09,6.03998792e-16,3.50000000e-09,-3.48543737e-19,3.50000000e-09,1.05415645e-09,3.50000000e-09,6.13247977e-01,3.50000000e-09,4.06056206e-02,3.50000000e-09,3.81512104e-01,3.50000000e-09,3.81512103e-01,3.50000000e-09,9.48625790e+08,3.50000000e-09,5.84935136e+07,3.50000000e-09,9.30953183e+06,3.50000000e-09,2.49247473e+01,1.0,.500,sky130
4.00000000e-09,9.94388023e-08,4.00000000e-09,4.00039950e-09,4.00000000e-09,1.51104763e-15,4.00000000e-09,-8.29510272e-16,4.00000000e-09,2.31631159e-18,4.00000000e-09,4.15555057e-16,4.00000000e-09,6.21798240e-16,4.00000000e-09,-3.93214378e-19,4.00000000e-09,1.19565438e-09,4.00000000e-09,6.13221448e-01,4.00000000e-09,4.06343849e-02,4.00000000e-09,3.86807716e-01,4.00000000e-09,3.86807715e-01,4.00000000e-09,8.36362094e+08,4.00000000e-09,6.58078542e+07,4.00000000e-09,1.04736453e+07,4.00000000e-09,2.48572179e+01,1.0,.500,sky130
4.50000000e-09,1.11580431e-07,4.50000000e-09,4.50012887e-09,4.50000000e-09,1.52844145e-15,4.50000000e-09,-8.53268143e-16,4.50000000e-09,2.40819641e-18,4.50000000e-09,4.26195756e-16,4.50000000e-09,6.37737084e-16,4.50000000e-09,-4.32905793e-19,4.50000000e-09,1.33625431e-09,4.50000000e-09,6.13197976e-01,4.50000000e-09,4.06630917e-02,4.50000000e-09,3.91492914e-01,4.50000000e-09,3.91492913e-01,4.50000000e-09,7.48360540e+08,4.50000000e-09,7.30027514e+07,4.50000000e-09,1.16187488e+07,4.50000000e-09,2.47949414e+01,1.0,.500,sky130
5.00000000e-09,1.23684328e-07,5.00000000e-09,4.99996243e-09,5.00000000e-09,1.54427612e-15,5.00000000e-09,-8.74839410e-16,5.00000000e-09,2.49147422e-18,5.00000000e-09,4.35836518e-16,5.00000000e-09,6.52178528e-16,5.00000000e-09,-4.68635236e-19,5.00000000e-09,1.47605437e-09,5.00000000e-09,6.13176922e-01,5.00000000e-09,4.06917426e-02,5.00000000e-09,3.95695428e-01,5.00000000e-09,3.95695427e-01,5.00000000e-09,6.77481819e+08,5.00000000e-09,8.00921068e+07,5.00000000e-09,1.27470547e+07,5.00000000e-09,2.47370515e+01,1.0,.500,sky130
5.50000000e-09,1.35752408e-07,5.50000000e-09,5.49985721e-09,5.50000000e-09,1.55881885e-15,5.50000000e-09,-8.94605357e-16,5.50000000e-09,2.56766715e-18,5.50000000e-09,4.44653767e-16,5.50000000e-09,6.65386726e-16,5.50000000e-09,-5.01132643e-19,5.50000000e-09,1.61512592e-09,5.50000000e-09,6.13157830e-01,5.50000000e-09,4.07203375e-02,5.50000000e-09,3.99506405e-01,5.50000000e-09,3.99506403e-01,5.50000000e-09,6.19146771e+08,5.50000000e-09,8.70867122e+07,5.50000000e-09,1.38602807e+07,5.50000000e-09,2.46828969e+01,1.0,.500,sky130
6.00000000e-09,1.47786575e-07,6.00000000e-09,5.99978702e-09,6.00000000e-09,1.57227244e-15,6.00000000e-09,-9.12854142e-16,6.00000000e-09,2.63792100e-18,6.00000000e-09,4.52780482e-16,6.00000000e-09,6.77560786e-16,6.00000000e-09,-5.30941794e-19,6.00000000e-09,1.75352953e-09,6.00000000e-09,6.13140362e-01,6.00000000e-09,4.07488772e-02,6.00000000e-09,4.02993382e-01,6.00000000e-09,4.02993380e-01,6.00000000e-09,5.70278390e+08,6.00000000e-09,9.39955263e+07,6.00000000e-09,1.49598526e+07,6.00000000e-09,2.46319702e+01,1.0,.500,sky130
6.50000000e-09,1.59788716e-07,6.50000000e-09,6.49973886e-09,6.50000000e-09,1.58479468e-15,6.50000000e-09,-9.29809147e-16,6.50000000e-09,2.70312108e-18,6.50000000e-09,4.60319501e-16,6.50000000e-09,6.88854693e-16,6.50000000e-09,-5.58479030e-19,6.50000000e-09,1.89131788e-09,6.50000000e-09,6.13124258e-01,6.50000000e-09,4.07773624e-02,6.50000000e-09,4.06207808e-01,6.50000000e-09,4.06207806e-01,6.50000000e-09,5.28731850e+08,6.50000000e-09,1.00826131e+08,6.50000000e-09,1.60469771e+07,6.50000000e-09,2.45838670e+01,1.0,.500,sky130
7.00000000e-09,1.71760553e-07,7.00000000e-09,6.99970399e-09,7.00000000e-09,1.59651078e-15,7.00000000e-09,-9.45647048e-16,7.00000000e-09,2.76396557e-18,7.00000000e-09,4.67351985e-16,7.00000000e-09,6.99389979e-16,7.00000000e-09,-5.84070116e-19,7.00000000e-09,2.02853596e-09,7.00000000e-09,6.13109319e-01,7.00000000e-09,4.08057943e-02,7.00000000e-09,4.09189751e-01,7.00000000e-09,4.09189749e-01,7.00000000e-09,4.92966367e+08,7.00000000e-09,1.07584963e+08,7.00000000e-09,1.71226786e+07,7.00000000e-09,2.45382594e+01,1.0,.500,sky130
7.50000000e-09,1.83703676e-07,7.50000000e-09,7.49967738e-09,7.50000000e-09,1.60752185e-15,7.50000000e-09,-9.60510114e-16,7.50000000e-09,2.82101534e-18,7.50000000e-09,4.73943167e-16,7.50000000e-09,7.09264327e-16,7.50000000e-09,-6.07974896e-19,7.50000000e-09,2.16522289e-09,7.50000000e-09,6.13095386e-01,7.50000000e-09,4.08341738e-02,7.50000000e-09,4.11971031e-01,7.50000000e-09,4.11971029e-01,7.50000000e-09,4.61846217e+08,7.50000000e-09,1.14277561e+08,7.50000000e-09,1.81878387e+07,7.50000000e-09,2.44948771e+01,1.0,.500,sky130
8.00000000e-09,1.95619555e-07,8.00000000e-09,7.99965660e-09,8.00000000e-09,1.61791077e-15,8.00000000e-09,-9.74514678e-16,8.00000000e-09,2.87472800e-18,8.00000000e-09,4.80146290e-16,8.00000000e-09,7.18557469e-16,8.00000000e-09,-6.30404035e-19,8.00000000e-09,2.30141301e-09,8.00000000e-09,6.13082329e-01,8.00000000e-09,4.08625020e-02,8.00000000e-09,4.14577342e-01,8.00000000e-09,4.14577339e-01,8.00000000e-09,4.34515663e+08,8.00000000e-09,1.20908741e+08,8.00000000e-09,1.92432238e+07,8.00000000e-09,2.44534940e+01,1.0,.500,sky130
8.50000000e-09,2.07509568e-07,8.50000000e-09,8.49964183e-09,8.50000000e-09,1.62774641e-15,8.50000000e-09,-9.87757142e-16,8.50000000e-09,2.92548205e-18,8.50000000e-09,4.86005408e-16,8.50000000e-09,7.27335373e-16,8.50000000e-09,-6.51530780e-19,8.50000000e-09,2.43713691e-09,8.50000000e-09,6.13070043e-01,8.50000000e-09,4.08907798e-02,8.50000000e-09,4.17029730e-01,8.50000000e-09,4.17029727e-01,8.50000000e-09,4.10317531e+08,8.50000000e-09,1.27482737e+08,8.50000000e-09,2.02895078e+07,8.50000000e-09,2.44139191e+01,1.0,.500,sky130
9.00000000e-09,2.19374865e-07,9.00000000e-09,8.99962912e-09,9.00000000e-09,1.63708650e-15,9.00000000e-09,-1.00031818e-15,9.00000000e-09,2.97359371e-18,9.00000000e-09,4.91557332e-16,9.00000000e-09,7.35653165e-16,9.00000000e-09,-6.71499131e-19,9.00000000e-09,2.57242040e-09,9.00000000e-09,6.13058441e-01,9.00000000e-09,4.09190079e-02,9.00000000e-09,4.19345628e-01,9.00000000e-09,4.19345625e-01,9.00000000e-09,3.88738948e+08,9.00000000e-09,1.34003222e+08,9.00000000e-09,2.13272751e+07,9.00000000e-09,2.43759895e+01,1.0,.500,sky130
9.50000000e-09,2.31216578e-07,9.50000000e-09,9.49961854e-09,9.50000000e-09,1.64598008e-15,9.50000000e-09,-1.01226618e-15,9.50000000e-09,3.01933064e-18,9.50000000e-09,4.96833223e-16,9.50000000e-09,7.43557514e-16,9.50000000e-09,-6.90430381e-19,9.50000000e-09,2.70728738e-09,9.50000000e-09,6.13047449e-01,9.50000000e-09,4.09471873e-02,9.50000000e-09,4.21539670e-01,9.50000000e-09,4.21539667e-01,9.50000000e-09,3.69373421e+08,9.50000000e-09,1.40473497e+08,9.50000000e-09,2.23570514e+07,9.50000000e-09,2.43395644e+01,1.0,.500,sky130
1.00000000e-08,2.43034918e-07,1.00000000e-08,9.99957527e-09,1.00000000e-08,1.65446856e-15,1.00000000e-08,-1.02365881e-15,1.00000000e-08,3.06291822e-18,1.00000000e-08,5.01859327e-16,1.00000000e-08,7.51087725e-16,1.00000000e-08,-7.08426332e-19,1.00000000e-08,2.84174980e-09,1.00000000e-08,6.13037007e-01,1.00000000e-08,4.09753166e-02,1.00000000e-08,4.23624104e-01,1.00000000e-08,4.23624101e-01,1.00000000e-08,3.51895863e+08,1.00000000e-08,1.46896063e+08,1.00000000e-08,2.33792346e+07,1.00000000e-08,2.43045241e+01,1.0,.500,sky130
1.50000000e-08,3.61519711e-07,1.50000000e-08,1.50579013e-08,1.50000000e-08,1.72391260e-15,1.50000000e-08,-1.11648235e-15,1.50000000e-08,3.41729475e-18,1.50000000e-08,5.42651697e-16,1.50000000e-08,8.12206921e-16,1.50000000e-08,-8.53192471e-19,1.50000000e-08,4.18349882e-09,1.50000000e-08,6.12953095e-01,1.50000000e-08,4.12573408e-02,1.50000000e-08,4.40373972e-01,1.50000000e-08,4.40373968e-01,1.50000000e-08,2.39034369e+08,1.50000000e-08,2.09708840e+08,1.50000000e-08,3.33761985e+07,1.50000000e-08,2.40086387e+01,1.0,.500,sky130
2.00000000e-08,4.78859266e-07,2.00000000e-08,2.01346845e-08,2.00000000e-08,1.77484310e-15,2.00000000e-08,-1.18417298e-15,2.00000000e-08,3.67498132e-18,2.00000000e-08,5.72230282e-16,2.00000000e-08,8.56528001e-16,2.00000000e-08,-9.56882518e-19,2.00000000e-08,5.50347237e-09,2.00000000e-08,6.12892879e-01,2.00000000e-08,4.15360000e-02,2.00000000e-08,4.52393654e-01,2.00000000e-08,4.52393648e-01,2.00000000e-08,1.81703465e+08,2.00000000e-08,2.69803718e+08,2.00000000e-08,4.29405953e+07,2.00000000e-08,2.37828045e+01,1.0,.500,sky130
2.50000000e-08,5.91544981e-07,2.50000000e-08,2.50595861e-08,2.50000000e-08,1.81396320e-15,2.50000000e-08,-1.23597067e-15,2.50000000e-08,3.87180679e-18,2.50000000e-08,5.94773550e-16,2.50000000e-08,8.90309147e-16,2.50000000e-08,-1.03527258e-18,2.50000000e-08,6.76464080e-09,2.50000000e-08,6.12847140e-01,2.50000000e-08,4.18024284e-02,2.50000000e-08,4.61523717e-01,2.50000000e-08,4.61523710e-01,2.50000000e-08,1.47827509e+08,2.50000000e-08,3.26106384e+08,2.50000000e-08,5.19014430e+07,2.50000000e-08,2.36055368e+01,1.0,.500,sky130
3.00000000e-08,7.04117823e-07,3.00000000e-08,3.00193377e-08,3.00000000e-08,1.84666953e-15,3.00000000e-08,-1.27915659e-15,3.00000000e-08,4.03569217e-18,3.00000000e-08,6.13511013e-16,3.00000000e-08,9.18388526e-16,3.00000000e-08,-1.10004101e-18,3.00000000e-08,8.01914177e-09,3.00000000e-08,6.12809127e-01,3.00000000e-08,4.20670960e-02,3.00000000e-08,4.69111587e-01,3.00000000e-08,4.69111579e-01,3.00000000e-08,1.24701624e+08,3.00000000e-08,3.81290648e+08,3.00000000e-08,6.06842914e+07,3.00000000e-08,2.34554750e+01,1.0,.500,sky130
3.50000000e-08,8.16644127e-07,3.50000000e-08,3.50107646e-08,3.50000000e-08,1.87478246e-15,3.50000000e-08,-1.31619620e-15,3.50000000e-08,4.17610582e-18,3.50000000e-08,6.29540932e-16,3.50000000e-08,9.42411354e-16,3.50000000e-08,-1.15518564e-18,3.50000000e-08,9.26828813e-09,3.50000000e-08,6.12776554e-01,3.50000000e-08,4.23299484e-02,3.50000000e-08,4.75613553e-01,3.50000000e-08,4.75613543e-01,3.50000000e-08,1.07894790e+08,3.50000000e-08,4.35594072e+08,3.50000000e-08,6.93269497e+07,3.50000000e-08,2.33255154e+01,1.0,.500,sky130
4.00000000e-08,9.28623382e-07,4.00000000e-08,4.00069745e-08,4.00000000e-08,1.89932468e-15,4.00000000e-08,-1.34847342e-15,4.00000000e-08,4.29835946e-18,4.00000000e-08,6.43479674e-16,4.00000000e-08,9.63300958e-16,4.00000000e-08,-1.20294534e-18,4.00000000e-08,1.05069571e-08,4.00000000e-08,6.12748156e-01,4.00000000e-08,4.25896946e-02,4.00000000e-08,4.81282296e-01,4.00000000e-08,4.81282284e-01,4.00000000e-08,9.51750344e+07,4.00000000e-08,4.88922926e+08,4.00000000e-08,7.78145004e+07,4.00000000e-08,2.32115373e+01,1.0,.500,sky130
4.50000000e-08,1.04006121e-06,4.50000000e-08,4.50044532e-08,4.50000000e-08,1.92108386e-15,4.50000000e-08,-1.37704749e-15,4.50000000e-08,4.40650678e-18,4.50000000e-08,6.55796160e-16,4.50000000e-08,9.81759850e-16,4.50000000e-08,-1.24500272e-18,4.50000000e-08,1.17355761e-08,4.50000000e-08,6.12722980e-01,4.50000000e-08,4.28462906e-02,4.50000000e-08,4.86307689e-01,4.50000000e-08,4.86307676e-01,4.50000000e-08,8.52109851e+07,4.50000000e-08,5.41392927e+08,4.50000000e-08,8.61653604e+07,4.50000000e-08,2.31101844e+01,1.0,.500,sky130
5.00000000e-08,1.15101677e-06,5.00000000e-08,5.00029228e-08,5.00000000e-08,1.94062092e-15,5.00000000e-08,-1.40267054e-15,5.00000000e-08,4.50342215e-18,5.00000000e-08,6.66822414e-16,5.00000000e-08,9.98285467e-16,5.00000000e-08,-1.28254221e-18,5.00000000e-08,1.29550973e-08,5.00000000e-08,6.12700359e-01,5.00000000e-08,4.30998504e-02,5.00000000e-08,4.90823110e-01,5.00000000e-08,4.90823096e-01,5.00000000e-08,7.71896943e+07,5.00000000e-08,5.93117777e+08,5.00000000e-08,9.43976261e+07,5.00000000e-08,2.30189898e+01,1.0,.500,sky130
5.50000000e-08,1.26153206e-06,5.50000000e-08,5.50019643e-08,5.50000000e-08,1.95834140e-15,5.50000000e-08,-1.42588514e-15,5.50000000e-08,4.59117722e-18,5.50000000e-08,6.76797492e-16,5.50000000e-08,1.01323597e-15,5.50000000e-08,-1.31641308e-18,5.50000000e-08,1.41662364e-08,5.50000000e-08,6.12679815e-01,5.50000000e-08,4.33504703e-02,5.50000000e-08,4.94923985e-01,5.50000000e-08,4.94923969e-01,5.50000000e-08,7.05903792e+07,5.50000000e-08,6.44183932e+08,5.50000000e-08,1.02525057e+08,5.50000000e-08,2.29361275e+01,1.0,.500,sky130
6.00000000e-08,1.37164260e-06,6.00000000e-08,6.00013295e-08,6.00000000e-08,1.97454904e-15,6.00000000e-08,-1.44709694e-15,6.00000000e-08,4.67131953e-18,6.00000000e-08,6.85899797e-16,6.00000000e-08,1.02687866e-15,6.00000000e-08,-1.34724682e-18,6.00000000e-08,1.53696040e-08,6.00000000e-08,6.12660993e-01,6.00000000e-08,4.35982466e-02,6.00000000e-08,4.98681175e-01,6.00000000e-08,4.98681158e-01,6.00000000e-08,6.50634850e+07,6.00000000e-08,6.94661195e+08,6.00000000e-08,1.10558763e+08,6.00000000e-08,2.28602034e+01,1.0,.500,sky130
6.50000000e-08,1.48137881e-06,6.50000000e-08,6.50008944e-08,6.50000000e-08,1.98947735e-15,6.50000000e-08,-1.46661728e-15,6.50000000e-08,4.74503599e-18,6.50000000e-08,6.94266032e-16,6.50000000e-08,1.03941835e-15,6.50000000e-08,-1.37552575e-18,6.50000000e-08,1.65657301e-08,6.50000000e-08,6.12643622e-01,6.50000000e-08,4.38432742e-02,6.50000000e-08,5.02148766e-01,6.50000000e-08,5.02148747e-01,6.50000000e-08,6.03655858e+07,6.50000000e-08,7.44607023e+08,6.50000000e-08,1.18507888e+08,6.50000000e-08,2.27901296e+01,1.0,.500,sky130
7.00000000e-08,1.59076623e-06,7.00000000e-08,7.00005843e-08,7.00000000e-08,2.00330967e-15,7.00000000e-08,-1.48469023e-15,7.00000000e-08,4.81325650e-18,7.00000000e-08,7.02003211e-16,7.00000000e-08,1.05101539e-15,7.00000000e-08,-1.40162639e-18,7.00000000e-08,1.77550710e-08,7.00000000e-08,6.12627490e-01,7.00000000e-08,4.40856435e-02,7.00000000e-08,5.05368959e-01,7.00000000e-08,5.05368939e-01,7.00000000e-08,5.63219375e+07,7.00000000e-08,7.94069061e+08,7.00000000e-08,1.26380016e+08,7.00000000e-08,2.27250421e+01,1.0,.500,sky130
7.50000000e-08,1.69982641e-06,7.50000000e-08,7.50003585e-08,7.50000000e-08,2.01619258e-15,7.50000000e-08,-1.50151069e-15,7.50000000e-08,4.87672323e-18,7.50000000e-08,7.09196678e-16,7.50000000e-08,1.06179765e-15,7.50000000e-08,-1.42584827e-18,7.50000000e-08,1.89380240e-08,7.50000000e-08,6.12612429e-01,7.50000000e-08,4.43254408e-02,7.50000000e-08,5.08375328e-01,7.50000000e-08,5.08375307e-01,7.50000000e-08,5.28038194e+07,7.50000000e-08,8.43087325e+08,7.50000000e-08,1.34181515e+08,7.50000000e-08,2.26642438e+01,1.0,.500,sky130
8.00000000e-08,1.80857749e-06,8.00000000e-08,8.00001897e-08,8.00000000e-08,2.02824514e-15,8.00000000e-08,-1.51723676e-15,8.00000000e-08,4.93603793e-18,8.00000000e-08,7.15915581e-16,8.00000000e-08,1.07186875e-15,8.00000000e-08,-1.44843349e-18,8.00000000e-08,2.01149357e-08,8.00000000e-08,6.12598303e-01,8.00000000e-08,4.45627478e-02,8.00000000e-08,5.11195016e-01,8.00000000e-08,5.11194993e-01,8.00000000e-08,4.97143026e+07,8.00000000e-08,8.91695709e+08,8.00000000e-08,1.41917780e+08,8.00000000e-08,2.26071650e+01,1.0,.500,sky130
8.50000000e-08,1.91703483e-06,8.50000000e-08,8.50000604e-08,8.50000000e-08,2.03956537e-15,8.50000000e-08,-1.53199849e-15,8.50000000e-08,4.99169529e-18,8.50000000e-08,7.22216725e-16,8.50000000e-08,1.08131380e-15,8.50000000e-08,-1.46958055e-18,8.50000000e-08,2.12861112e-08,8.50000000e-08,6.12585001e-01,8.50000000e-08,4.47976415e-02,8.50000000e-08,5.13850286e-01,8.50000000e-08,5.13850262e-01,8.50000000e-08,4.69789898e+07,8.50000000e-08,9.39923207e+08,8.50000000e-08,1.49593425e+08,8.50000000e-08,2.25533349e+01,1.0,.500,sky130
9.00000000e-08,2.02521150e-06,9.00000000e-08,8.99999594e-08,9.00000000e-08,2.05023495e-15,9.00000000e-08,-1.54590410e-15,9.00000000e-08,5.04410691e-18,9.00000000e-08,7.28147344e-16,9.00000000e-08,1.09020357e-15,9.00000000e-08,-1.48945417e-18,9.00000000e-08,2.24518211e-08,9.00000000e-08,6.12572431e-01,9.00000000e-08,4.50301951e-02,9.00000000e-08,5.16359627e-01,9.00000000e-08,5.16359600e-01,9.00000000e-08,4.45398168e+07,9.00000000e-08,9.87794839e+08,9.00000000e-08,1.57212431e+08,9.00000000e-08,2.25023602e+01,1.0,.500,sky130
9.50000000e-08,2.13311872e-06,9.50000000e-08,9.49998804e-08,9.50000000e-08,2.06032264e-15,9.50000000e-08,-1.55904465e-15,9.50000000e-08,5.09361893e-18,9.50000000e-08,7.33747140e-16,9.50000000e-08,1.09859757e-15,9.50000000e-08,-1.50819257e-18,9.50000000e-08,2.36123074e-08,9.50000000e-08,6.12560513e-01,9.50000000e-08,4.52604780e-02,9.50000000e-08,5.18738561e-01,9.50000000e-08,5.18738534e-01,9.50000000e-08,4.23507954e+07,9.50000000e-08,1.03533237e+09,9.50000000e-08,1.64778264e+08,9.50000000e-08,2.24539096e+01,1.0,.500,sky130
1.00000000e-07,2.24075880e-06,1.00000000e-07,9.99994783e-08,1.00000000e-07,2.06988627e-15,1.00000000e-07,-1.57149665e-15,1.00000000e-07,5.14052212e-18,1.00000000e-07,7.39049445e-16,1.00000000e-07,1.10654573e-15,1.00000000e-07,-1.52591164e-18,1.00000000e-07,2.47677086e-08,1.00000000e-07,6.12549184e-01,1.00000000e-07,4.54885405e-02,1.00000000e-07,5.21000103e-01,1.00000000e-07,5.21000074e-01,1.00000000e-07,4.03751521e+07,1.00000000e-07,1.08255165e+09,1.00000000e-07,1.72293446e+08,1.00000000e-07,2.24077049e+01,1.0,.500,sky130
