isweep,gm,i_id,id,i_cgg,cgg,i_cgs,cgs,i_cgd,cgd,i_cds,cds,i_css,css,i_cdd,cdd,i_gds,gds,i_vth,vth,i_vdsat,vdsat,i_vgs,vgs,i_vds,vds,i_rds,rds,i_wt,wt,i_ft,ft,i_kgm,kgm,W,L,pdk
1.00000000e-09,2.99103392e-08,1.00000000e-09,9.99591634e-10,1.00000000e-09,1.32126189e-15,1.00000000e-09,-6.10973173e-16,1.00000000e-09,1.40095089e-18,1.00000000e-09,3.19371529e-16,1.00000000e-09,4.78074469e-16,1.00000000e-09,-4.72508757e-19,1.00000000e-09,2.67206703e-10,1.00000000e-09,7.11705312e-01,1.00000000e-09,3.29778613e-02,1.00000000e-09,4.63819892e-01,1.00000000e-09,4.63819892e-01,1.00000000e-09,3.74242109e+09,1.00000000e-09,2.26377067e+07,1.00000000e-09,3.60290292e+06,1.00000000e-09,2.99225586e+01,1.0,.500,sky130
1.50000000e-09,4.46906420e-08,1.50000000e-09,1.50558408e-09,1.50000000e-09,1.37032435e-15,1.50000000e-09,-6.78718010e-16,1.50000000e-09,1.58126919e-18,1.50000000e-09,3.50943621e-16,1.50000000e-09,5.25372051e-16,1.50000000e-09,-5.45740655e-19,1.50000000e-09,3.96824708e-10,1.50000000e-09,7.11655603e-01,1.50000000e-09,3.30130447e-02,1.50000000e-09,4.77440402e-01,1.50000000e-09,4.77440402e-01,1.50000000e-09,2.52000438e+09,1.50000000e-09,3.26131853e+07,1.50000000e-09,5.19054965e+06,1.50000000e-09,2.96832589e+01,1.0,.500,sky130
2.00000000e-09,5.93768788e-08,2.00000000e-09,2.01359111e-09,2.00000000e-09,1.40750821e-15,2.00000000e-09,-7.29634716e-16,2.00000000e-09,1.71690476e-18,2.00000000e-09,3.74495256e-16,2.00000000e-09,5.60656023e-16,2.00000000e-09,-6.00282613e-19,2.00000000e-09,5.25310557e-10,2.00000000e-09,7.11620057e-01,2.00000000e-09,3.30482295e-02,2.00000000e-09,4.87180523e-01,2.00000000e-09,4.87180522e-01,2.00000000e-09,1.90363583e+09,2.00000000e-09,4.21858134e+07,2.00000000e-09,6.71408073e+06,2.00000000e-09,2.94880518e+01,1.0,.500,sky130
2.50000000e-09,7.34848708e-08,2.50000000e-09,2.50576845e-09,2.50000000e-09,1.43673113e-15,2.50000000e-09,-7.69431684e-16,2.50000000e-09,1.82297414e-18,2.50000000e-09,3.92807584e-16,2.50000000e-09,5.88091653e-16,2.50000000e-09,-6.42636642e-19,2.50000000e-09,6.48583914e-10,2.50000000e-09,7.11593157e-01,2.50000000e-09,3.30822027e-02,2.50000000e-09,4.94551270e-01,2.50000000e-09,4.94551269e-01,2.50000000e-09,1.54182054e+09,2.50000000e-09,5.11472670e+07,2.50000000e-09,8.14034036e+06,2.50000000e-09,2.93262814e+01,1.0,.500,sky130
3.00000000e-09,8.75925418e-08,3.00000000e-09,3.00153222e-09,3.00000000e-09,1.46164606e-15,3.00000000e-09,-8.03226885e-16,3.00000000e-09,1.91307957e-18,3.00000000e-09,4.08296894e-16,3.00000000e-09,6.11298443e-16,3.00000000e-09,-6.78420970e-19,3.00000000e-09,7.71768598e-10,3.00000000e-09,7.11570833e-01,3.00000000e-09,3.31163187e-02,3.00000000e-09,5.00668118e-01,3.00000000e-09,5.00668118e-01,3.00000000e-09,1.29572517e+09,3.00000000e-09,5.99273271e+07,3.00000000e-09,9.53773033e+06,3.00000000e-09,2.91826092e+01,1.0,.500,sky130
3.50000000e-09,1.01703290e-07,3.50000000e-09,3.50064191e-09,3.50000000e-09,1.48342408e-15,3.50000000e-09,-8.32674270e-16,3.50000000e-09,1.99161325e-18,3.50000000e-09,4.21750066e-16,3.50000000e-09,6.31455051e-16,3.50000000e-09,-7.09468769e-19,3.50000000e-09,8.94929951e-10,3.50000000e-09,7.11551722e-01,3.50000000e-09,3.31505656e-02,3.50000000e-09,5.05904733e-01,3.50000000e-09,5.05904732e-01,3.50000000e-09,1.11740589e+09,3.50000000e-09,6.85598211e+07,3.50000000e-09,1.09116344e+07,3.50000000e-09,2.90527545e+01,1.0,.500,sky130
4.00000000e-09,1.15745263e-07,4.00000000e-09,4.00025210e-09,4.00000000e-09,1.50270998e-15,4.00000000e-09,-8.58684854e-16,4.00000000e-09,2.06099457e-18,4.00000000e-09,4.33601009e-16,4.00000000e-09,6.49211412e-16,4.00000000e-09,-7.36791960e-19,4.00000000e-09,1.01746238e-09,4.00000000e-09,7.11535076e-01,4.00000000e-09,3.31847520e-02,4.00000000e-09,5.10465947e-01,4.00000000e-09,5.10465946e-01,4.00000000e-09,9.82837325e+08,4.00000000e-09,7.70243520e+07,4.00000000e-09,1.22588064e+07,4.00000000e-09,2.89344921e+01,1.0,.500,sky130
4.50000000e-09,1.29715553e-07,4.50000000e-09,4.49998943e-09,4.50000000e-09,1.52002613e-15,4.50000000e-09,-8.81988510e-16,4.50000000e-09,2.12316414e-18,4.50000000e-09,4.44194005e-16,4.50000000e-09,6.65083246e-16,4.50000000e-09,-7.61192098e-19,4.50000000e-09,1.13935389e-09,4.50000000e-09,7.11520330e-01,4.50000000e-09,3.32188558e-02,4.50000000e-09,5.14506479e-01,4.50000000e-09,5.14506478e-01,4.50000000e-09,8.77690426e+08,4.50000000e-09,8.53377129e+07,4.50000000e-09,1.35819188e+07,4.50000000e-09,2.88257462e+01,1.0,.500,sky130
5.00000000e-09,1.43619775e-07,5.00000000e-09,4.99982899e-09,5.00000000e-09,1.53575130e-15,5.00000000e-09,-9.03112001e-16,5.00000000e-09,2.17952328e-18,5.00000000e-09,4.53776519e-16,5.00000000e-09,6.79441257e-16,5.00000000e-09,-7.83245058e-19,5.00000000e-09,1.26066171e-09,5.00000000e-09,7.11507087e-01,5.00000000e-09,3.32528785e-02,5.00000000e-09,5.18134966e-01,5.00000000e-09,5.18134965e-01,5.00000000e-09,7.93234213e+08,5.00000000e-09,9.35175995e+07,5.00000000e-09,1.48837882e+07,5.00000000e-09,2.87249375e+01,1.0,.500,sky130
5.50000000e-09,1.57462041e-07,5.50000000e-09,5.49972795e-09,5.50000000e-09,1.55016210e-15,5.50000000e-09,-9.22438767e-16,5.50000000e-09,2.23109243e-18,5.50000000e-09,4.62528206e-16,5.50000000e-09,6.92554568e-16,5.50000000e-09,-8.03368816e-19,5.50000000e-09,1.38142675e-09,5.50000000e-09,7.11495066e-01,5.50000000e-09,3.32868195e-02,5.50000000e-09,5.21428975e-01,5.50000000e-09,5.21428974e-01,5.50000000e-09,7.23889270e+08,5.50000000e-09,1.01577791e+08,5.50000000e-09,1.61666075e+07,5.50000000e-09,2.86308782e+01,1.0,.500,sky130
6.00000000e-09,1.71246173e-07,6.00000000e-09,5.99966056e-09,6.00000000e-09,1.56346773e-15,6.00000000e-09,-9.40258047e-16,6.00000000e-09,2.27864161e-18,6.00000000e-09,4.70584247e-16,6.00000000e-09,7.04625688e-16,6.00000000e-09,-8.21877816e-19,6.00000000e-09,1.50168531e-09,6.00000000e-09,7.11484055e-01,6.00000000e-09,3.33206792e-02,6.00000000e-09,5.24446011e-01,6.00000000e-09,5.24446010e-01,6.00000000e-09,6.65918482e+08,6.00000000e-09,1.09529713e+08,6.00000000e-09,1.74321953e+07,6.00000000e-09,2.85426435e+01,1.0,.500,sky130
6.50000000e-09,1.84975729e-07,6.50000000e-09,6.49961342e-09,6.50000000e-09,1.57583051e-15,6.50000000e-09,-9.56793649e-16,6.50000000e-09,2.32276687e-18,6.50000000e-09,4.78049014e-16,6.50000000e-09,7.15810971e-16,6.50000000e-09,-8.39014783e-19,6.50000000e-09,1.62147003e-09,6.50000000e-09,7.11473895e-01,6.50000000e-09,3.33544585e-02,6.50000000e-09,5.27229899e-01,6.50000000e-09,5.27229897e-01,6.50000000e-09,6.16724318e+08,6.50000000e-09,1.17383010e+08,6.50000000e-09,1.86820862e+07,6.50000000e-09,2.84594970e+01,1.0,.500,sky130
7.00000000e-09,1.98653955e-07,7.00000000e-09,6.99957954e-09,7.00000000e-09,1.58737893e-15,7.00000000e-09,-9.72222379e-16,7.00000000e-09,2.36393917e-18,7.00000000e-09,4.85004795e-16,7.00000000e-09,7.26233692e-16,7.00000000e-09,-8.54971048e-19,7.00000000e-09,1.74080994e-09,7.00000000e-09,7.11464462e-01,7.00000000e-09,3.33881585e-02,7.00000000e-09,5.29814796e-01,7.00000000e-09,5.29814794e-01,7.00000000e-09,5.74445250e+08,7.00000000e-09,1.25145894e+08,7.00000000e-09,1.99175877e+07,7.00000000e-09,2.83808412e+01,1.0,.500,sky130
7.50000000e-09,2.12283808e-07,7.50000000e-09,7.49955587e-09,7.50000000e-09,1.59821649e-15,7.50000000e-09,-9.86686416e-16,7.50000000e-09,2.40253737e-18,7.50000000e-09,4.91517647e-16,7.50000000e-09,7.35992811e-16,7.50000000e-09,-8.69900168e-19,7.50000000e-09,1.85973087e-09,7.50000000e-09,7.11455655e-01,7.50000000e-09,3.34217805e-02,7.50000000e-09,5.32227843e-01,7.50000000e-09,5.32227841e-01,7.50000000e-09,5.37712212e+08,7.50000000e-09,1.32825440e+08,7.50000000e-09,2.11398253e+07,7.50000000e-09,2.83061840e+01,1.0,.500,sky130
8.00000000e-09,2.25867834e-07,8.00000000e-09,7.99953652e-09,8.00000000e-09,1.60842780e-15,8.00000000e-09,-1.00030172e-15,8.00000000e-09,2.43887051e-18,8.00000000e-09,4.97641359e-16,8.00000000e-09,7.45168909e-16,8.00000000e-09,-8.83927164e-19,8.00000000e-09,1.97825468e-09,8.00000000e-09,7.11447396e-01,8.00000000e-09,3.34553254e-02,8.00000000e-09,5.34490939e-01,8.00000000e-09,5.34490937e-01,8.00000000e-09,5.05496086e+08,8.00000000e-09,1.40427711e+08,8.00000000e-09,2.23497643e+07,8.00000000e-09,2.82351150e+01,1.0,.500,sky130
8.50000000e-09,2.39408462e-07,8.50000000e-09,8.49952156e-09,8.50000000e-09,1.61808303e-15,8.50000000e-09,-1.01316437e-15,8.50000000e-09,2.47319470e-18,8.50000000e-09,5.03420427e-16,8.50000000e-09,7.53828647e-16,8.50000000e-09,-8.97155436e-19,8.50000000e-09,2.09640195e-09,8.50000000e-09,7.11439618e-01,8.50000000e-09,3.34887943e-02,8.50000000e-09,5.36622047e-01,8.50000000e-09,5.36622044e-01,8.50000000e-09,4.77007761e+08,8.50000000e-09,1.47958082e+08,8.50000000e-09,2.35482602e+07,8.50000000e-09,2.81672869e+01,1.0,.500,sky130
9.00000000e-09,2.52907803e-07,9.00000000e-09,8.99950794e-09,9.00000000e-09,1.62724095e-15,9.00000000e-09,-1.02535469e-15,9.00000000e-09,2.50572412e-18,9.00000000e-09,5.08892006e-16,9.00000000e-09,7.62027690e-16,9.00000000e-09,-9.09671312e-19,9.00000000e-09,2.21419023e-09,9.00000000e-09,7.11432268e-01,9.00000000e-09,3.35221881e-02,9.00000000e-09,5.38636053e-01,9.00000000e-09,5.38636051e-01,9.00000000e-09,4.51632378e+08,9.00000000e-09,1.55421237e+08,9.00000000e-09,2.47360582e+07,9.00000000e-09,2.81024034e+01,1.0,.500,sky130
9.50000000e-09,2.66367924e-07,9.50000000e-09,9.49949856e-09,9.50000000e-09,1.63595145e-15,9.50000000e-09,-1.03694076e-15,9.50000000e-09,2.53664032e-18,9.50000000e-09,5.14087543e-16,9.50000000e-09,7.69813147e-16,9.50000000e-09,-9.21547837e-19,9.50000000e-09,2.33163662e-09,9.50000000e-09,7.11425300e-01,9.50000000e-09,3.35555080e-02,9.50000000e-09,5.40545469e-01,9.50000000e-09,5.40545466e-01,9.50000000e-09,4.28883297e+08,9.50000000e-09,1.62821411e+08,9.50000000e-09,2.59138325e+07,9.50000000e-09,2.80402089e+01,1.0,.500,sky130
1.00000000e-08,2.79790707e-07,1.00000000e-08,9.99949593e-09,1.00000000e-08,1.64425713e-15,1.00000000e-08,-1.04798068e-15,1.00000000e-08,2.56609822e-18,1.00000000e-08,5.19033838e-16,1.00000000e-08,7.77225171e-16,1.00000000e-08,-9.32847259e-19,1.00000000e-08,2.44875647e-09,1.00000000e-08,7.11418674e-01,1.00000000e-08,3.35887550e-02,1.00000000e-08,5.42360887e-01,1.00000000e-08,5.42360884e-01,1.00000000e-08,4.08370539e+08,1.00000000e-08,1.70162380e+08,1.00000000e-08,2.70821839e+07,1.00000000e-08,2.79804812e+01,1.0,.500,sky130
1.50000000e-08,4.13717499e-07,1.50000000e-08,1.50548758e-08,1.50000000e-08,1.71185917e-15,1.50000000e-08,-1.13757626e-15,1.50000000e-08,2.80511074e-18,1.50000000e-08,5.59024848e-16,1.50000000e-08,8.37153605e-16,1.50000000e-08,-1.02391690e-18,1.50000000e-08,3.61704258e-09,1.50000000e-08,7.11365297e-01,1.50000000e-08,3.39209712e-02,1.50000000e-08,5.56986688e-01,1.50000000e-08,5.56986683e-01,1.50000000e-08,2.76468960e+08,1.50000000e-08,2.41677299e+08,1.50000000e-08,3.84641367e+07,1.50000000e-08,2.74806319e+01,1.0,.500,sky130
2.00000000e-08,5.45520046e-07,2.00000000e-08,2.01267426e-08,2.00000000e-08,1.76109250e-15,2.00000000e-08,-1.20256145e-15,2.00000000e-08,2.97836931e-18,2.00000000e-08,5.87869717e-16,2.00000000e-08,8.80381122e-16,2.00000000e-08,-1.08924701e-18,2.00000000e-08,4.76558497e-09,2.00000000e-08,7.11326810e-01,2.00000000e-08,3.42475151e-02,2.00000000e-08,5.67532574e-01,2.00000000e-08,5.67532569e-01,2.00000000e-08,2.09837828e+08,2.00000000e-08,3.09762289e+08,2.00000000e-08,4.93001995e+07,2.00000000e-08,2.71042392e+01,1.0,.500,sky130
2.50000000e-08,6.71771483e-07,2.50000000e-08,2.50556086e-08,2.50000000e-08,1.79878655e-15,2.50000000e-08,-1.25218068e-15,2.50000000e-08,3.11057472e-18,2.50000000e-08,6.09806813e-16,2.50000000e-08,9.13257708e-16,2.50000000e-08,-1.13870134e-18,2.50000000e-08,5.86389681e-09,2.50000000e-08,7.11297413e-01,2.50000000e-08,3.45588502e-02,2.50000000e-08,5.75587767e-01,2.50000000e-08,5.75587759e-01,2.50000000e-08,1.70535061e+08,2.50000000e-08,3.73458141e+08,2.50000000e-08,5.94377092e+07,2.50000000e-08,2.68112220e+01,1.0,.500,sky130
3.00000000e-08,7.97439635e-07,3.00000000e-08,3.00182431e-08,3.00000000e-08,1.83016294e-15,3.00000000e-08,-1.29340167e-15,3.00000000e-08,3.22033236e-18,3.00000000e-08,6.27974976e-16,3.00000000e-08,9.40486684e-16,3.00000000e-08,-1.17949172e-18,3.00000000e-08,6.95486315e-09,3.00000000e-08,7.11272916e-01,3.00000000e-08,3.48667234e-02,3.00000000e-08,5.82300245e-01,3.00000000e-08,5.82300236e-01,3.00000000e-08,1.43784281e+08,3.00000000e-08,4.35720568e+08,3.00000000e-08,6.93470822e+07,3.00000000e-08,2.65651668e+01,1.0,.500,sky130
3.50000000e-08,9.22638332e-07,3.50000000e-08,3.50101229e-08,3.50000000e-08,1.85702585e-15,3.50000000e-08,-1.32863779e-15,3.50000000e-08,3.31409355e-18,3.50000000e-08,6.43465676e-16,3.50000000e-08,9.63703478e-16,3.50000000e-08,-1.21414059e-18,3.50000000e-08,8.03921086e-09,3.50000000e-08,7.11251882e-01,3.50000000e-08,3.51710744e-02,3.50000000e-08,5.88063904e-01,3.50000000e-08,5.88063894e-01,3.50000000e-08,1.24390319e+08,3.50000000e-08,4.96836557e+08,3.50000000e-08,7.90739940e+07,3.50000000e-08,2.63534731e+01,1.0,.500,sky130
4.00000000e-08,1.04691728e-06,4.00000000e-08,4.00064738e-08,4.00000000e-08,1.88040490e-15,4.00000000e-08,-1.35926494e-15,4.00000000e-08,3.39553876e-18,4.00000000e-08,6.56900783e-16,4.00000000e-08,9.83839880e-16,4.00000000e-08,-1.24408755e-18,4.00000000e-08,9.11291115e-09,4.00000000e-08,7.11233503e-01,4.00000000e-08,3.54706286e-02,4.00000000e-08,5.93099965e-01,4.00000000e-08,5.93099953e-01,4.00000000e-08,1.09734418e+08,4.00000000e-08,5.56750985e+08,4.00000000e-08,8.86096714e+07,4.00000000e-08,2.61686968e+01,1.0,.500,sky130
4.50000000e-08,1.17033025e-06,4.50000000e-08,4.50040804e-08,4.50000000e-08,1.90107725e-15,4.50000000e-08,-1.38631730e-15,4.50000000e-08,3.46743331e-18,4.50000000e-08,6.68745184e-16,4.50000000e-08,1.00159250e-15,4.50000000e-08,-1.27040365e-18,4.50000000e-08,1.01763969e-08,4.50000000e-08,7.11217177e-01,4.50000000e-08,3.57654440e-02,4.50000000e-08,5.97573362e-01,4.50000000e-08,5.97573349e-01,4.50000000e-08,9.82666079e+07,4.50000000e-08,6.15614255e+08,4.50000000e-08,9.79780518e+07,4.50000000e-08,2.60049810e+01,1.0,.500,sky130
5.00000000e-08,1.29297189e-06,5.00000000e-08,5.00026328e-08,5.00000000e-08,1.91959332e-15,5.00000000e-08,-1.41052585e-15,5.00000000e-08,3.53173155e-18,5.00000000e-08,6.79326586e-16,5.00000000e-08,1.01745239e-15,5.00000000e-08,-1.29384242e-18,5.00000000e-08,1.12305044e-08,5.00000000e-08,7.11202482e-01,5.00000000e-08,3.60557339e-02,5.00000000e-08,6.01599937e-01,5.00000000e-08,6.01599922e-01,5.00000000e-08,8.90431957e+07,5.00000000e-08,6.73565531e+08,5.00000000e-08,1.07201284e+08,5.00000000e-08,2.58580763e+01,1.0,.500,sky130
5.50000000e-08,1.41491184e-06,5.50000000e-08,5.50017254e-08,5.50000000e-08,1.93635040e-15,5.50000000e-08,-1.43241734e-15,5.50000000e-08,3.58984188e-18,5.50000000e-08,6.88880702e-16,5.50000000e-08,1.03177277e-15,5.50000000e-08,-1.31494516e-18,5.50000000e-08,1.22758860e-08,5.50000000e-08,7.11189115e-01,5.50000000e-08,3.63416865e-02,5.50000000e-08,6.05262735e-01,5.50000000e-08,6.05262719e-01,5.50000000e-08,8.14605152e+07,5.50000000e-08,7.30710642e+08,5.50000000e-08,1.16296211e+08,5.50000000e-08,2.57248628e+01,1.0,.500,sky130
6.00000000e-08,1.53620750e-06,6.00000000e-08,6.00011239e-08,6.00000000e-08,1.95164548e-15,6.00000000e-08,-1.45238507e-15,6.00000000e-08,3.64281571e-18,6.00000000e-08,6.97583201e-16,6.00000000e-08,1.04481688e-15,6.00000000e-08,-1.33411474e-18,6.00000000e-08,1.33131090e-08,6.00000000e-08,7.11176850e-01,6.00000000e-08,3.66234836e-02,6.00000000e-08,6.08623520e-01,6.00000000e-08,6.08623503e-01,6.00000000e-08,7.51139347e+07,6.00000000e-08,7.87134506e+08,6.00000000e-08,1.25276347e+08,6.00000000e-08,2.56029788e+01,1.0,.500,sky130
6.50000000e-08,1.65690692e-06,6.50000000e-08,6.50007120e-08,6.50000000e-08,1.96570649e-15,6.50000000e-08,-1.47073045e-15,6.50000000e-08,3.69145886e-18,6.50000000e-08,7.05568516e-16,6.50000000e-08,1.05678618e-15,6.50000000e-08,-1.35165907e-18,6.50000000e-08,1.43426726e-08,6.50000000e-08,7.11165515e-01,6.50000000e-08,3.69012985e-02,6.50000000e-08,6.11729497e-01,6.50000000e-08,6.11729479e-01,6.50000000e-08,6.97220129e+07,6.50000000e-08,8.42906574e+08,6.50000000e-08,1.34152748e+08,6.50000000e-08,2.54905965e+01,1.0,.500,sky130
7.00000000e-08,1.77704990e-06,7.00000000e-08,7.00004180e-08,7.00000000e-08,1.97871205e-15,7.00000000e-08,-1.48768949e-15,7.00000000e-08,3.73640217e-18,7.00000000e-08,7.12941754e-16,7.00000000e-08,1.06783816e-15,7.00000000e-08,-1.36781856e-18,7.00000000e-08,1.53650124e-08,7.00000000e-08,7.11154976e-01,7.00000000e-08,3.71752940e-02,7.00000000e-08,6.14617546e-01,7.00000000e-08,6.14617526e-01,7.00000000e-08,6.50829282e+07,7.00000000e-08,8.98084135e+08,7.00000000e-08,1.42934529e+08,7.00000000e-08,2.53862756e+01,1.0,.500,sky130
7.50000000e-08,1.89666989e-06,7.50000000e-08,7.50002037e-08,7.50000000e-08,1.99080481e-15,7.50000000e-08,-1.50345046e-15,7.50000000e-08,3.77814883e-18,7.50000000e-08,7.19786647e-16,7.50000000e-08,1.07809833e-15,7.50000000e-08,-1.38278453e-18,7.50000000e-08,1.63805135e-08,7.50000000e-08,7.11145124e-01,7.50000000e-08,3.74456230e-02,7.50000000e-08,6.17317038e-01,7.50000000e-08,6.17317017e-01,7.50000000e-08,6.10481471e+07,7.50000000e-08,9.52715143e+08,7.50000000e-08,1.51629324e+08,7.50000000e-08,2.52888631e+01,1.0,.500,sky130
8.00000000e-08,2.01579499e-06,8.00000000e-08,8.00000442e-08,8.00000000e-08,2.00210042e-15,8.00000000e-08,-1.51816589e-15,8.00000000e-08,3.81710651e-18,8.00000000e-08,7.26170965e-16,8.00000000e-08,1.08766822e-15,8.00000000e-08,-1.39671164e-18,8.00000000e-08,1.73895165e-08,8.00000000e-08,7.11135874e-01,8.00000000e-08,3.77124282e-02,8.00000000e-08,6.19851750e-01,8.00000000e-08,6.19851726e-01,8.00000000e-08,5.75059116e+07,8.00000000e-08,1.00684010e+09,8.00000000e-08,1.60243579e+08,8.00000000e-08,2.51974235e+01,1.0,.500,sky130
8.50000000e-08,2.13444904e-06,8.50000000e-08,8.49999210e-08,8.50000000e-08,2.01269401e-15,8.50000000e-08,-1.53196112e-15,8.50000000e-08,3.85361010e-18,8.50000000e-08,7.32150325e-16,8.50000000e-08,1.09663119e-15,8.50000000e-08,-1.40972665e-18,8.50000000e-08,1.83923248e-08,8.50000000e-08,7.11127154e-01,8.50000000e-08,3.79758434e-02,8.50000000e-08,6.22241198e-01,8.50000000e-08,6.22241174e-01,8.50000000e-08,5.43705056e+07,8.50000000e-08,1.06049356e+09,8.50000000e-08,1.68782793e+08,8.50000000e-08,2.51111886e+01,1.0,.500,sky130
9.00000000e-08,2.25265254e-06,9.00000000e-08,8.99998266e-08,9.00000000e-08,2.02266473e-15,9.00000000e-08,-1.54494036e-15,9.00000000e-08,3.88793808e-18,9.00000000e-08,7.37770931e-16,9.00000000e-08,1.10505649e-15,9.00000000e-08,-1.42193478e-18,9.00000000e-08,1.93892120e-08,9.00000000e-08,7.11118905e-01,9.00000000e-08,3.82359942e-02,9.00000000e-08,6.24501611e-01,9.00000000e-08,6.24501585e-01,9.00000000e-08,5.15750718e+07,9.00000000e-08,1.11370536e+09,9.00000000e-08,1.77251713e+08,9.00000000e-08,2.50295209e+01,1.0,.500,sky130
9.50000000e-08,2.37042308e-06,9.50000000e-08,9.49997522e-08,9.50000000e-08,2.03207913e-15,9.50000000e-08,-1.55719123e-15,9.50000000e-08,3.92032445e-18,9.50000000e-08,7.43071576e-16,9.50000000e-08,1.11300224e-15,9.50000000e-08,-1.43342426e-18,9.50000000e-08,2.03804242e-08,9.50000000e-08,7.11111077e-01,9.50000000e-08,3.84929984e-02,9.50000000e-08,6.26646624e-01,9.50000000e-08,6.26646597e-01,9.50000000e-08,4.90666920e+07,9.50000000e-08,1.16650136e+09,9.50000000e-08,1.85654458e+08,9.50000000e-08,2.49518870e+01,1.0,.500,sky130
1.00000000e-07,2.48776840e-06,1.00000000e-07,9.99993702e-08,1.00000000e-07,2.04099318e-15,1.00000000e-07,-1.56878729e-15,1.00000000e-07,3.95096581e-18,1.00000000e-07,7.48084833e-16,1.00000000e-07,1.12051727e-15,1.00000000e-07,-1.44426914e-18,1.00000000e-07,2.13661222e-08,1.00000000e-07,7.11103629e-01,1.00000000e-07,3.87469503e-02,1.00000000e-07,6.28687679e-01,1.00000000e-07,6.28687650e-01,1.00000000e-07,4.68030647e+07,1.00000000e-07,1.21890089e+09,1.00000000e-07,1.93994101e+08,1.00000000e-07,2.48778406e+01,1.0,.500,sky130
