isweep,gm,i_id,id,i_cgg,cgg,i_cgs,cgs,i_cgd,cgd,i_cds,cds,i_css,css,i_cdd,cdd,i_gds,gds,i_vth,vth,i_vdsat,vdsat,i_vgs,vgs,i_vds,vds,i_rds,rds,i_wt,wt,i_ft,ft,i_kgm,kgm,W,L,pdk
1.00000000e-09,2.15417258e-08,1.00000000e-09,9.99348991e-10,1.00000000e-09,1.00274157e-15,1.00000000e-09,-3.75234434e-16,1.00000000e-09,4.94273993e-19,1.00000000e-09,1.82765051e-16,1.00000000e-09,2.73737836e-16,1.00000000e-09,-7.59630969e-20,1.00000000e-09,1.41233833e-10,1.00000000e-09,8.29786875e-01,1.00000000e-09,4.94094055e-02,1.00000000e-09,5.00863411e-01,1.00000000e-09,5.00863411e-01,1.00000000e-09,7.08045642e+09,1.00000000e-09,2.14828292e+07,1.00000000e-09,3.41909845e+06,1.00000000e-09,2.15557588e+01,0.840,0.500,sky130
1.25000000e-09,2.64910994e-08,1.25000000e-09,1.24968291e-09,1.25000000e-09,1.01655511e-15,1.25000000e-09,-3.97627560e-16,1.25000000e-09,5.35183087e-19,1.25000000e-09,1.93167714e-16,1.25000000e-09,2.89327867e-16,1.25000000e-09,-9.38026377e-20,1.25000000e-09,1.74035744e-10,1.25000000e-09,8.29761099e-01,1.25000000e-09,4.94837105e-02,1.25000000e-09,5.11251752e-01,1.25000000e-09,5.11251752e-01,1.25000000e-09,5.74594606e+09,1.25000000e-09,2.60596785e+07,1.25000000e-09,4.14752664e+06,1.25000000e-09,2.11982570e+01,0.840,0.500,sky130
1.50000000e-09,3.13436931e-08,1.50000000e-09,1.50029160e-09,1.50000000e-09,1.02871074e-15,1.50000000e-09,-4.17018551e-16,1.50000000e-09,5.70537600e-19,1.50000000e-09,2.02152902e-16,1.50000000e-09,3.02793854e-16,1.50000000e-09,-1.09090581e-19,1.50000000e-09,2.06372421e-10,1.50000000e-09,8.29739692e-01,1.50000000e-09,4.95578169e-02,1.50000000e-09,5.19879451e-01,1.50000000e-09,5.19879451e-01,1.50000000e-09,4.84560871e+09,1.50000000e-09,3.04689082e+07,1.50000000e-09,4.84927735e+06,1.50000000e-09,2.08917341e+01,0.840,0.500,sky130
1.75000000e-09,3.60904654e-08,1.75000000e-09,1.74987937e-09,1.75000000e-09,1.03958255e-15,1.75000000e-09,-4.34146686e-16,1.75000000e-09,6.01723848e-19,1.75000000e-09,2.10072713e-16,1.75000000e-09,3.14663365e-16,1.75000000e-09,-1.22487842e-19,1.75000000e-09,2.38159249e-10,1.75000000e-09,8.29721419e-01,1.75000000e-09,4.96313552e-02,1.75000000e-09,5.27244126e-01,1.75000000e-09,5.27244125e-01,1.75000000e-09,4.19887115e+09,1.75000000e-09,3.47163056e+07,1.75000000e-09,5.52527164e+06,1.75000000e-09,2.06245447e+01,0.840,0.500,sky130
2.00000000e-09,4.07661113e-08,2.00000000e-09,1.99962914e-09,2.00000000e-09,1.04950310e-15,2.00000000e-09,-4.49619431e-16,2.00000000e-09,6.29867767e-19,2.00000000e-09,2.17213923e-16,2.00000000e-09,3.25366122e-16,2.00000000e-09,-1.34513839e-19,2.00000000e-09,2.69607412e-10,2.00000000e-09,8.29705382e-01,2.00000000e-09,4.97046847e-02,2.00000000e-09,5.33707597e-01,2.00000000e-09,5.33707596e-01,2.00000000e-09,3.70909684e+09,2.00000000e-09,3.88432501e+07,2.00000000e-09,6.18209526e+06,2.00000000e-09,2.03868360e+01,0.840,0.500,sky130
2.25000000e-09,4.53792081e-08,2.25000000e-09,2.24951424e-09,2.25000000e-09,1.05865718e-15,2.25000000e-09,-4.63777203e-16,2.25000000e-09,6.55600300e-19,2.25000000e-09,2.23737599e-16,2.25000000e-09,3.35143473e-16,2.25000000e-09,-1.45460317e-19,2.25000000e-09,3.00757456e-10,2.25000000e-09,8.29691071e-01,2.25000000e-09,4.97778047e-02,2.25000000e-09,5.39475755e-01,2.25000000e-09,5.39475754e-01,2.25000000e-09,3.32493835e+09,2.25000000e-09,4.28648752e+07,2.25000000e-09,6.82215678e+06,2.25000000e-09,2.01728921e+01,0.840,0.500,sky130
2.50000000e-09,4.99354737e-08,2.50000000e-09,2.49944572e-09,2.50000000e-09,1.06717543e-15,2.50000000e-09,-4.76857460e-16,2.50000000e-09,6.79360400e-19,2.50000000e-09,2.29755982e-16,2.50000000e-09,3.44163608e-16,2.50000000e-09,-1.55528950e-19,2.50000000e-09,3.31633150e-10,2.50000000e-09,8.29678136e-01,2.50000000e-09,4.98506952e-02,2.50000000e-09,5.44689012e-01,2.50000000e-09,5.44689011e-01,2.50000000e-09,3.01538010e+09,2.50000000e-09,4.67921882e+07,2.50000000e-09,7.44720805e+06,2.50000000e-09,1.99786190e+01,0.840,0.500,sky130
2.75000000e-09,5.44405879e-08,2.75000000e-09,2.74940049e-09,2.75000000e-09,1.07515720e-15,2.75000000e-09,-4.89037929e-16,2.75000000e-09,7.01475750e-19,2.75000000e-09,2.35352945e-16,2.75000000e-09,3.52552210e-16,2.75000000e-09,-1.64869173e-19,2.75000000e-09,3.62260066e-10,2.75000000e-09,8.29666324e-01,2.75000000e-09,4.99233547e-02,2.75000000e-09,5.49449473e-01,2.75000000e-09,5.49449472e-01,2.75000000e-09,2.76044779e+09,2.75000000e-09,5.06350027e+07,2.75000000e-09,8.05881098e+06,2.75000000e-09,1.98008941e+01,0.840,0.500,sky130
3.00000000e-09,5.88995219e-08,3.00000000e-09,2.99937013e-09,3.00000000e-09,1.08267918e-15,3.00000000e-09,-5.00454116e-16,3.00000000e-09,7.22195685e-19,3.00000000e-09,2.40592360e-16,3.00000000e-09,3.60404990e-16,3.00000000e-09,-1.73594044e-19,3.00000000e-09,3.92660733e-10,3.00000000e-09,8.29655447e-01,3.00000000e-09,4.99957854e-02,3.00000000e-09,5.53833232e-01,3.00000000e-09,5.53833231e-01,3.00000000e-09,2.54672779e+09,3.00000000e-09,5.44016388e+07,3.00000000e-09,8.65828972e+06,3.00000000e-09,1.96372970e+01,0.840,0.500,sky130
3.25000000e-09,6.33165061e-08,3.25000000e-09,3.24934747e-09,3.25000000e-09,1.08980171e-15,3.25000000e-09,-5.11211563e-16,3.25000000e-09,7.41714098e-19,3.25000000e-09,2.45523925e-16,3.25000000e-09,3.67796423e-16,3.25000000e-09,-1.81791064e-19,3.25000000e-09,4.22854114e-10,3.25000000e-09,8.29645361e-01,3.25000000e-09,5.00679894e-02,3.25000000e-09,5.57898411e-01,3.25000000e-09,5.57898410e-01,3.25000000e-09,2.36488180e+09,3.25000000e-09,5.80991067e+07,3.25000000e-09,9.24676002e+06,3.25000000e-09,1.94859142e+01,0.840,0.500,sky130
3.50000000e-09,6.76952734e-08,3.50000000e-09,3.49933156e-09,3.50000000e-09,1.09657337e-15,3.50000000e-09,-5.21394461e-16,3.50000000e-09,7.60185424e-19,3.50000000e-09,2.50187245e-16,3.50000000e-09,3.74785857e-16,3.50000000e-09,-1.89529623e-19,3.50000000e-09,4.52857021e-10,3.50000000e-09,8.29635952e-01,3.50000000e-09,5.01399703e-02,3.50000000e-09,5.61690517e-01,3.50000000e-09,5.61690515e-01,3.50000000e-09,2.20820249e+09,3.50000000e-09,6.17334646e+07,3.50000000e-09,9.82518604e+06,3.50000000e-09,1.93452013e+01,0.840,0.500,sky130
3.75000000e-09,7.20390074e-08,3.75000000e-09,3.74931813e-09,3.75000000e-09,1.10303373e-15,3.75000000e-09,-5.31070855e-16,3.75000000e-09,7.77734343e-19,3.75000000e-09,2.54614305e-16,3.75000000e-09,3.81421224e-16,3.75000000e-09,-1.96865541e-19,3.75000000e-09,4.82683551e-10,3.75000000e-09,8.29627131e-01,3.75000000e-09,5.02117304e-02,3.75000000e-09,5.65245752e-01,3.75000000e-09,5.65245751e-01,3.75000000e-09,2.07175073e+09,3.75000000e-09,6.53098864e+07,3.75000000e-09,1.03943913e+07,3.75000000e-09,1.92138957e+01,0.840,0.500,sky130
4.00000000e-09,7.63505665e-08,4.00000000e-09,3.99930740e-09,4.00000000e-09,1.10921566e-15,4.00000000e-09,-5.40296866e-16,4.00000000e-09,7.94463569e-19,4.00000000e-09,2.58831463e-16,4.00000000e-09,3.87742021e-16,4.00000000e-09,-2.03844640e-19,4.00000000e-09,5.12346467e-10,4.00000000e-09,8.29618824e-01,4.00000000e-09,5.02832730e-02,4.00000000e-09,5.68593500e-01,4.00000000e-09,5.68593499e-01,4.00000000e-09,1.95180423e+09,4.00000000e-09,6.88329323e+07,4.00000000e-09,1.09551014e+07,4.00000000e-09,1.90909472e+01,0.840,0.500,sky130
4.25000000e-09,8.06324820e-08,4.25000000e-09,4.24930013e-09,4.25000000e-09,1.11514677e-15,4.25000000e-09,-5.49119281e-16,4.25000000e-09,8.10458654e-19,4.25000000e-09,2.62860673e-16,4.25000000e-09,3.93781150e-16,4.25000000e-09,-2.10504966e-19,4.25000000e-09,5.41857049e-10,4.25000000e-09,8.29610973e-01,4.25000000e-09,5.03546014e-02,4.25000000e-09,5.71757909e-01,4.25000000e-09,5.71757907e-01,4.25000000e-09,1.84550520e+09,4.25000000e-09,7.23066096e+07,4.25000000e-09,1.15079543e+07,4.25000000e-09,1.89754735e+01,0.840,0.500,sky130
4.50000000e-09,8.48869362e-08,4.50000000e-09,4.49929310e-09,4.50000000e-09,1.12085037e-15,4.50000000e-09,-5.57577416e-16,4.50000000e-09,8.25791430e-19,4.50000000e-09,2.66720376e-16,4.50000000e-09,3.99566245e-16,4.50000000e-09,-2.16878382e-19,4.50000000e-09,5.71224833e-10,4.50000000e-09,8.29603527e-01,4.50000000e-09,5.04257174e-02,4.50000000e-09,5.74759021e-01,4.50000000e-09,5.74759019e-01,4.50000000e-09,1.75062417e+09,4.50000000e-09,7.57344055e+07,4.50000000e-09,1.20535050e+07,4.50000000e-09,1.88667273e+01,0.840,0.500,sky130
4.75000000e-09,8.91159315e-08,4.75000000e-09,4.74928659e-09,4.75000000e-09,1.12634650e-15,4.75000000e-09,-5.65704870e-16,4.75000000e-09,8.40523242e-19,4.75000000e-09,2.70426318e-16,4.75000000e-09,4.05120903e-16,4.75000000e-09,-2.22992024e-19,4.75000000e-09,6.00458687e-10,4.75000000e-09,8.29596444e-01,4.75000000e-09,5.04966239e-02,4.75000000e-09,5.77613738e-01,4.75000000e-09,5.77613736e-01,4.75000000e-09,1.66539351e+09,4.75000000e-09,7.91194641e+07,4.75000000e-09,1.25922538e+07,4.75000000e-09,1.87640670e+01,0.840,0.500,sky130
5.00000000e-09,9.33212752e-08,5.00000000e-09,4.99928137e-09,5.00000000e-09,1.13165250e-15,5.00000000e-09,-5.73530544e-16,5.00000000e-09,8.54706816e-19,5.00000000e-09,2.73992035e-16,5.00000000e-09,4.10465408e-16,5.00000000e-09,-2.28869159e-19,5.00000000e-09,6.29566625e-10,5.00000000e-09,8.29589688e-01,5.00000000e-09,5.05673237e-02,5.00000000e-09,5.80336422e-01,5.00000000e-09,5.80336420e-01,5.00000000e-09,1.58839424e+09,5.00000000e-09,8.24646036e+07,5.00000000e-09,1.31246493e+07,5.00000000e-09,1.86669379e+01,0.840,0.500,sky130
5.25000000e-09,9.75045731e-08,5.25000000e-09,5.24927681e-09,5.25000000e-09,1.13678344e-15,5.25000000e-09,-5.81079440e-16,5.25000000e-09,8.68387738e-19,5.25000000e-09,2.77429230e-16,5.25000000e-09,4.15617298e-16,5.25000000e-09,-2.34529860e-19,5.25000000e-09,6.58555712e-10,5.25000000e-09,8.29583230e-01,5.25000000e-09,5.06378191e-02,5.25000000e-09,5.82939365e-01,5.25000000e-09,5.82939363e-01,5.25000000e-09,1.51847442e+09,5.25000000e-09,8.57723378e+07,5.25000000e-09,1.36510915e+07,5.25000000e-09,1.85748583e+01,0.840,0.500,sky130
5.50000000e-09,1.01667291e-07,5.50000000e-09,5.49927299e-09,5.50000000e-09,1.14175253e-15,5.50000000e-09,-5.88373405e-16,5.50000000e-09,8.81605827e-19,5.50000000e-09,2.80748124e-16,5.50000000e-09,4.20591892e-16,5.50000000e-09,-2.39991623e-19,5.50000000e-09,6.87432425e-10,5.50000000e-09,8.29577042e-01,5.50000000e-09,5.07081124e-02,5.50000000e-09,5.85433192e-01,5.50000000e-09,5.85433190e-01,5.50000000e-09,1.45468844e+09,5.50000000e-09,8.90449454e+07,5.50000000e-09,1.41719432e+07,5.50000000e-09,1.84874058e+01,0.840,0.500,sky130
5.75000000e-09,1.05810745e-07,5.75000000e-09,5.74926899e-09,5.75000000e-09,1.14657142e-15,5.75000000e-09,-5.95431610e-16,5.75000000e-09,8.94396000e-19,5.75000000e-09,2.83957680e-16,5.75000000e-09,4.25402623e-16,5.75000000e-09,-2.45269763e-19,5.75000000e-09,7.16202537e-10,5.75000000e-09,8.29571102e-01,5.75000000e-09,5.07782056e-02,5.75000000e-09,5.87827136e-01,5.75000000e-09,5.87827134e-01,5.75000000e-09,1.39625308e+09,5.75000000e-09,9.22844782e+07,5.75000000e-09,1.46875309e+07,5.75000000e-09,1.84042085e+01,0.840,0.500,sky130
6.00000000e-09,1.09936169e-07,6.00000000e-09,5.99926616e-09,6.00000000e-09,1.15125049e-15,6.00000000e-09,-6.02271067e-16,6.00000000e-09,9.06789229e-19,6.00000000e-09,2.87065849e-16,6.00000000e-09,4.30061402e-16,6.00000000e-09,-2.50377836e-19,6.00000000e-09,7.44871567e-10,6.00000000e-09,8.29565390e-01,6.00000000e-09,5.08481013e-02,6.00000000e-09,5.90129301e-01,6.00000000e-09,5.90129299e-01,6.00000000e-09,1.34251332e+09,6.00000000e-09,9.54928315e+07,6.00000000e-09,1.51981562e+07,6.00000000e-09,1.83249362e+01,0.840,0.500,sky130
6.25000000e-09,1.14044644e-07,6.25000000e-09,6.24926266e-09,6.25000000e-09,1.15579896e-15,6.25000000e-09,-6.08906813e-16,6.25000000e-09,9.18812880e-19,6.25000000e-09,2.90079654e-16,6.25000000e-09,4.34578757e-16,6.25000000e-09,-2.55327802e-19,6.25000000e-09,7.73444225e-10,6.25000000e-09,8.29559888e-01,6.25000000e-09,5.09178012e-02,6.25000000e-09,5.92346795e-01,6.25000000e-09,5.92346793e-01,6.25000000e-09,1.29291805e+09,6.25000000e-09,9.86716967e+07,6.25000000e-09,1.57040883e+07,6.25000000e-09,1.82492960e+01,0.840,0.500,sky130
6.50000000e-09,1.18137210e-07,6.50000000e-09,6.49925987e-09,6.50000000e-09,1.16022512e-15,6.50000000e-09,-6.15352364e-16,6.50000000e-09,9.30491542e-19,6.50000000e-09,2.93005405e-16,6.50000000e-09,4.38964143e-16,6.50000000e-09,-2.60130388e-19,6.50000000e-09,8.01925184e-10,6.50000000e-09,8.29554581e-01,6.50000000e-09,5.09873075e-02,6.50000000e-09,5.94485940e-01,6.50000000e-09,5.94485938e-01,6.50000000e-09,1.24699912e+09,6.50000000e-09,1.01822661e+08,6.50000000e-09,1.62055798e+07,6.50000000e-09,1.81770251e+01,0.840,0.500,sky130
6.75000000e-09,1.22214794e-07,6.75000000e-09,6.74925738e-09,6.75000000e-09,1.16453644e-15,6.75000000e-09,-6.21619807e-16,6.75000000e-09,9.41847196e-19,6.75000000e-09,2.95848742e-16,6.75000000e-09,4.43226015e-16,6.75000000e-09,-2.64795171e-19,6.75000000e-09,8.30318562e-10,6.75000000e-09,8.29549454e-01,6.75000000e-09,5.10566222e-02,6.75000000e-09,5.96552348e-01,6.75000000e-09,5.96552345e-01,6.75000000e-09,1.20435703e+09,6.75000000e-09,1.04947162e+08,6.75000000e-09,1.67028596e+07,6.75000000e-09,1.81078876e+01,0.840,0.500,sky130
7.00000000e-09,1.26278247e-07,7.00000000e-09,6.99925436e-09,7.00000000e-09,1.16873964e-15,7.00000000e-09,-6.27720029e-16,7.00000000e-09,9.52899633e-19,7.00000000e-09,2.98614743e-16,7.00000000e-09,4.47371980e-16,7.00000000e-09,-2.69330758e-19,7.00000000e-09,8.58628116e-10,7.00000000e-09,8.29544495e-01,7.00000000e-09,5.11257470e-02,7.00000000e-09,5.98551028e-01,7.00000000e-09,5.98551026e-01,7.00000000e-09,1.16464856e+09,7.00000000e-09,1.08046517e+08,7.00000000e-09,1.71961373e+07,7.00000000e-09,1.80416714e+01,0.840,0.500,sky130
7.25000000e-09,1.30328387e-07,7.25000000e-09,7.24925210e-09,7.25000000e-09,1.17284086e-15,7.25000000e-09,-6.33662928e-16,7.25000000e-09,9.63666843e-19,7.25000000e-09,3.01308023e-16,7.25000000e-09,4.51408955e-16,7.25000000e-09,-2.73744965e-19,7.25000000e-09,8.86857559e-10,7.25000000e-09,8.29539692e-01,7.25000000e-09,5.11946840e-02,7.25000000e-09,6.00486499e-01,7.25000000e-09,6.00486496e-01,7.25000000e-09,1.12757679e+09,7.25000000e-09,1.11121970e+08,7.25000000e-09,1.76856108e+07,7.25000000e-09,1.79781839e+01,0.840,0.500,sky130
7.50000000e-09,1.34365935e-07,7.50000000e-09,7.49924964e-09,7.50000000e-09,1.17684568e-15,7.50000000e-09,-6.39457446e-16,7.50000000e-09,9.74165072e-19,7.50000000e-09,3.03932748e-16,7.50000000e-09,4.55343185e-16,7.50000000e-09,-2.78044837e-19,7.50000000e-09,9.15010095e-10,7.50000000e-09,8.29535037e-01,7.50000000e-09,5.12634349e-02,7.50000000e-09,6.02362811e-01,7.50000000e-09,6.02362808e-01,7.50000000e-09,1.09288412e+09,7.50000000e-09,1.14174643e+08,7.50000000e-09,1.81714588e+07,7.50000000e-09,1.79172506e+01,0.840,0.500,sky130
7.75000000e-09,1.38391585e-07,7.75000000e-09,7.74924761e-09,7.75000000e-09,1.18075919e-15,7.75000000e-09,-6.45111765e-16,7.75000000e-09,9.84409181e-19,7.75000000e-09,3.06492730e-16,7.75000000e-09,4.59180382e-16,7.75000000e-09,-2.82236815e-19,7.75000000e-09,9.43088878e-10,7.75000000e-09,8.29530519e-01,7.75000000e-09,5.13320015e-02,7.75000000e-09,6.04183642e-01,7.75000000e-09,6.04183639e-01,7.75000000e-09,1.06034545e+09,7.75000000e-09,1.17205597e+08,7.75000000e-09,1.86538501e+07,7.75000000e-09,1.78587125e+01,0.840,0.500,sky130
8.00000000e-09,1.42405970e-07,8.00000000e-09,7.99924578e-09,8.00000000e-09,1.18458606e-15,8.00000000e-09,-6.50633347e-16,8.00000000e-09,9.94412723e-19,8.00000000e-09,3.08991443e-16,8.00000000e-09,4.62925752e-16,8.00000000e-09,-2.86326761e-19,8.00000000e-09,9.71096761e-10,8.00000000e-09,8.29526131e-01,8.00000000e-09,5.14003856e-02,8.00000000e-09,6.05952324e-01,8.00000000e-09,6.05952321e-01,8.00000000e-09,1.02976350e+09,8.00000000e-09,1.20215808e+08,8.00000000e-09,1.91329400e+07,8.00000000e-09,1.78024246e+01,0.840,0.500,sky130
8.25000000e-09,1.46409663e-07,8.25000000e-09,8.24924303e-09,8.25000000e-09,1.18833058e-15,8.25000000e-09,-6.56029015e-16,8.25000000e-09,1.00418809e-18,8.25000000e-09,3.11432065e-16,8.25000000e-09,4.66584057e-16,8.25000000e-09,-2.90320033e-19,8.25000000e-09,9.99036307e-10,8.25000000e-09,8.29521864e-01,8.25000000e-09,5.14685884e-02,8.25000000e-09,6.07671884e-01,8.25000000e-09,6.07671881e-01,8.25000000e-09,1.00096462e+09,8.25000000e-09,1.23206173e+08,8.25000000e-09,1.96088715e+07,8.25000000e-09,1.77482543e+01,0.840,0.500,sky130
8.50000000e-09,1.50403247e-07,8.50000000e-09,8.49924131e-09,8.50000000e-09,1.19199672e-15,8.50000000e-09,-6.61305109e-16,8.50000000e-09,1.01374678e-18,8.50000000e-09,3.13817542e-16,8.50000000e-09,4.70159714e-16,8.50000000e-09,-2.94221594e-19,8.50000000e-09,1.02691025e-09,8.50000000e-09,8.29517713e-01,8.50000000e-09,5.15366123e-02,8.50000000e-09,6.09345107e-01,8.50000000e-09,6.09345104e-01,8.50000000e-09,9.73794933e+08,8.50000000e-09,1.26177568e+08,8.50000000e-09,2.00817836e+07,8.50000000e-09,1.76960791e+01,0.840,0.500,sky130
8.75000000e-09,1.54387203e-07,8.75000000e-09,8.74923855e-09,8.75000000e-09,1.19558812e-15,8.75000000e-09,-6.66467389e-16,8.75000000e-09,1.02309925e-18,8.75000000e-09,3.16150556e-16,8.75000000e-09,4.73656741e-16,8.75000000e-09,-2.98035957e-19,8.75000000e-09,1.05472073e-09,8.75000000e-09,8.29513670e-01,8.75000000e-09,5.16044582e-02,8.75000000e-09,6.10974517e-01,8.75000000e-09,6.10974514e-01,8.75000000e-09,9.48118279e+08,8.75000000e-09,1.29130760e+08,8.75000000e-09,2.05517988e+07,8.75000000e-09,1.76457873e+01,0.840,0.500,sky130
9.00000000e-09,1.58362052e-07,9.00000000e-09,8.99923724e-09,9.00000000e-09,1.19910820e-15,9.00000000e-09,-6.71521271e-16,9.00000000e-09,1.03225533e-18,9.00000000e-09,3.18433623e-16,9.00000000e-09,4.77078909e-16,9.00000000e-09,-3.01767351e-19,9.00000000e-09,1.08247023e-09,9.00000000e-09,8.29509730e-01,9.00000000e-09,5.16721283e-02,9.00000000e-09,6.12562460e-01,9.00000000e-09,6.12562457e-01,9.00000000e-09,9.23812939e+08,9.00000000e-09,1.32066525e+08,9.00000000e-09,2.10190402e+07,9.00000000e-09,1.75972750e+01,0.840,0.500,sky130
9.25000000e-09,1.62328216e-07,9.25000000e-09,9.24923550e-09,9.25000000e-09,1.20256007e-15,9.25000000e-09,-6.76471685e-16,9.25000000e-09,1.04122397e-18,9.25000000e-09,3.20669035e-16,9.25000000e-09,4.80429653e-16,9.25000000e-09,-3.05419629e-19,9.25000000e-09,1.11016063e-09,9.25000000e-09,8.29505888e-01,9.25000000e-09,5.17396237e-02,9.25000000e-09,6.14111071e-01,9.25000000e-09,6.14111068e-01,9.25000000e-09,9.00770552e+08,9.25000000e-09,1.34985535e+08,9.25000000e-09,2.14836152e+07,9.25000000e-09,1.75504468e+01,0.840,0.500,sky130
9.50000000e-09,1.66286128e-07,9.50000000e-09,9.49923413e-09,9.50000000e-09,1.20594669e-15,9.50000000e-09,-6.81323260e-16,9.50000000e-09,1.05001356e-18,9.50000000e-09,3.22858943e-16,9.50000000e-09,4.83712196e-16,9.50000000e-09,-3.08996399e-19,9.50000000e-09,1.13779399e-09,9.50000000e-09,8.29502138e-01,9.50000000e-09,5.18069462e-02,9.50000000e-09,6.15622332e-01,9.50000000e-09,6.15622329e-01,9.50000000e-09,8.78893729e+08,9.50000000e-09,1.37888457e+08,9.50000000e-09,2.19456295e+07,9.50000000e-09,1.75052142e+01,0.840,0.500,sky130
9.75000000e-09,1.70236178e-07,9.75000000e-09,9.74923264e-09,9.75000000e-09,1.20927076e-15,9.75000000e-09,-6.86080277e-16,9.75000000e-09,1.05863186e-18,9.75000000e-09,3.25005334e-16,9.75000000e-09,4.86929518e-16,9.75000000e-09,-3.12500998e-19,9.75000000e-09,1.16537211e-09,9.75000000e-09,8.29498476e-01,9.75000000e-09,5.18740971e-02,9.75000000e-09,6.17098072e-01,9.75000000e-09,6.17098068e-01,9.75000000e-09,8.58095019e+08,9.75000000e-09,1.40775899e+08,9.75000000e-09,2.24051802e+07,9.75000000e-09,1.74614951e+01,0.840,0.500,sky130
1.00000000e-08,1.74191486e-07,1.00000000e-08,1.00000402e-08,1.00000000e-08,1.21254530e-15,1.00000000e-08,-6.90761697e-16,1.00000000e-08,1.06711323e-18,1.00000000e-08,3.27116812e-16,1.00000000e-08,4.90094514e-16,1.00000000e-08,-3.15947549e-19,1.00000000e-08,1.19298575e-09,1.00000000e-08,8.29494887e-01,1.00000000e-08,5.19412943e-02,1.00000000e-08,6.18544599e-01,1.00000000e-08,6.18544595e-01,1.00000000e-08,8.38232983e+08,1.00000000e-08,1.43657715e+08,1.00000000e-08,2.28638354e+07,1.00000000e-08,1.74190786e+01,0.840,0.500,sky130
