isweep,gm,i_id,id,i_cgg,cgg,i_cgs,cgs,i_cgd,cgd,i_cds,cds,i_css,css,i_cdd,cdd,i_gds,gds,i_vth,vth,i_vdsat,vdsat,i_vgs,vgs,i_vds,vds,i_rds,rds,i_wt,wt,i_ft,ft,i_kgm,kgm,W,L,pdk
1.00000000e-12,2.01596926e-11,1.00000000e-12,9.04033285e-13,1.00000000e-12,9.14263052e-16,1.00000000e-12,-2.23252990e-17,1.00000000e-12,-5.62365250e-17,1.00000000e-12,-8.10925949e-18,1.00000000e-12,4.46486724e-17,1.00000000e-12,6.93187952e-17,1.00000000e-12,3.24481068e-11,1.00000000e-12,6.00078863e-01,1.00000000e-12,4.65946311e-02,1.00000000e-12,2.02491486e-02,1.00000000e-12,2.02491486e-02,1.00000000e-12,3.08184390e+10,1.00000000e-12,2.20502104e+04,1.00000000e-12,3.50939997e+03,1.00000000e-12,2.22997239e+01,1.0,.500,sky130
1.25000000e-12,2.53740096e-11,1.25000000e-12,1.13792882e-12,1.25000000e-12,9.12346132e-16,1.25000000e-12,-3.40142550e-17,1.25000000e-12,-4.50247401e-17,1.25000000e-12,4.49260589e-18,1.25000000e-12,5.19007168e-17,1.25000000e-12,5.59754444e-17,1.25000000e-12,3.06769179e-11,1.25000000e-12,6.00060495e-01,1.25000000e-12,4.65946513e-02,1.25000000e-12,2.45548091e-02,1.25000000e-12,2.45548091e-02,1.25000000e-12,3.25977989e+10,1.25000000e-12,2.78118235e+04,1.25000000e-12,4.42638919e+03,1.25000000e-12,2.22984156e+01,1.0,.500,sky130
1.50000000e-12,3.06318819e-11,1.50000000e-12,1.37380467e-12,1.50000000e-12,9.10805865e-16,1.50000000e-12,-4.27831885e-17,1.50000000e-12,-3.70648912e-17,1.50000000e-12,1.37293274e-17,1.50000000e-12,5.74258093e-17,1.50000000e-12,4.64202522e-17,1.50000000e-12,2.87937460e-11,1.50000000e-12,6.00043063e-01,1.50000000e-12,4.65946721e-02,1.50000000e-12,2.86409035e-02,1.50000000e-12,2.86409035e-02,1.50000000e-12,3.47297639e+10,1.50000000e-12,3.36316256e+04,1.50000000e-12,5.35263946e+03,1.50000000e-12,2.22971158e+01,1.0,.500,sky130
1.75000000e-12,3.59334471e-11,1.75000000e-12,1.61166727e-12,1.75000000e-12,9.09548182e-16,1.75000000e-12,-4.96809293e-17,1.75000000e-12,-3.12012547e-17,1.75000000e-12,2.07942217e-17,1.75000000e-12,6.18584206e-17,1.75000000e-12,3.93295362e-17,1.75000000e-12,2.68782460e-11,1.75000000e-12,6.00026456e-01,1.75000000e-12,4.65946935e-02,1.75000000e-12,3.25338228e-02,1.75000000e-12,3.25338228e-02,1.75000000e-12,3.72048087e+10,1.75000000e-12,3.95069199e+04,1.75000000e-12,6.28772158e+03,1.75000000e-12,2.22958223e+01,1.0,.500,sky130
2.00000000e-12,4.12604901e-11,2.00000000e-12,1.85069940e-12,2.00000000e-12,9.08514308e-16,2.00000000e-12,-5.53014041e-17,2.00000000e-12,-2.67661297e-17,2.00000000e-12,2.63727393e-17,2.00000000e-12,6.55503697e-17,2.00000000e-12,3.39323651e-17,2.00000000e-12,2.50065017e-11,2.00000000e-12,6.00010650e-01,2.00000000e-12,4.65947154e-02,2.00000000e-12,3.62387676e-02,2.00000000e-12,3.62387676e-02,2.00000000e-12,3.99896000e+10,2.00000000e-12,4.54153443e+04,2.00000000e-12,7.22807654e+03,2.00000000e-12,2.22945390e+01,1.0,.500,sky130
2.25000000e-12,4.66134663e-11,2.25000000e-12,2.09092133e-12,2.25000000e-12,9.07659513e-16,2.25000000e-12,-6.00285758e-17,2.25000000e-12,-2.33271462e-17,2.25000000e-12,3.09102867e-17,2.25000000e-12,6.87261484e-17,2.25000000e-12,2.97245801e-17,2.25000000e-12,2.32324894e-11,2.25000000e-12,5.99995586e-01,2.25000000e-12,4.65947378e-02,2.25000000e-12,3.97698767e-02,2.25000000e-12,3.97698767e-02,2.25000000e-12,4.30431703e+10,2.25000000e-12,5.13556742e+04,2.25000000e-12,8.17350940e+03,2.25000000e-12,2.22932664e+01,1.0,.500,sky130
2.50000000e-12,5.19777348e-11,2.50000000e-12,2.33167563e-12,2.50000000e-12,9.06953233e-16,2.50000000e-12,-6.40968326e-17,2.50000000e-12,-2.06118076e-17,2.50000000e-12,3.46840700e-17,2.50000000e-12,7.15194857e-17,2.50000000e-12,2.63864972e-17,2.50000000e-12,2.15972803e-11,2.50000000e-12,5.99981258e-01,2.50000000e-12,4.65947606e-02,2.50000000e-12,4.31285450e-02,2.50000000e-12,4.31285450e-02,2.50000000e-12,4.63021262e+10,2.50000000e-12,5.73102701e+04,2.50000000e-12,9.12121278e+03,2.50000000e-12,2.22920093e+01,1.0,.500,sky130
2.75000000e-12,5.73720557e-11,2.75000000e-12,2.57380383e-12,2.75000000e-12,9.06368280e-16,2.75000000e-12,-6.76839321e-17,2.75000000e-12,-1.84219994e-17,2.75000000e-12,3.79004770e-17,2.75000000e-12,7.40330571e-17,2.75000000e-12,2.36833776e-17,2.75000000e-12,2.01149670e-11,2.75000000e-12,5.99967577e-01,2.75000000e-12,4.65947839e-02,2.75000000e-12,4.63355298e-02,2.75000000e-12,4.63355298e-02,2.75000000e-12,4.97142252e+10,2.75000000e-12,6.32988345e+04,2.75000000e-12,1.00743224e+04,2.75000000e-12,2.22907647e+01,1.0,.500,sky130
3.00000000e-12,6.27796395e-11,3.00000000e-12,2.81655182e-12,3.00000000e-12,9.05887263e-16,3.00000000e-12,-7.08903640e-17,3.00000000e-12,-1.66344465e-17,3.00000000e-12,4.06824082e-17,3.00000000e-12,7.63217723e-17,3.00000000e-12,2.14688525e-17,3.00000000e-12,1.87963458e-11,3.00000000e-12,5.99954550e-01,3.00000000e-12,4.65948075e-02,3.00000000e-12,4.93889570e-02,3.00000000e-12,4.93889570e-02,3.00000000e-12,5.32018304e+10,3.00000000e-12,6.93018238e+04,3.00000000e-12,1.10297278e+04,3.00000000e-12,2.22895382e+01,1.0,.500,sky130
3.25000000e-12,6.81992176e-11,3.25000000e-12,3.05986199e-12,3.25000000e-12,9.05494412e-16,3.25000000e-12,-7.37959373e-17,3.25000000e-12,-1.51553249e-17,3.25000000e-12,4.31255258e-17,3.25000000e-12,7.84300788e-17,3.25000000e-12,1.96306474e-17,3.25000000e-12,1.76371398e-11,3.25000000e-12,5.99942145e-01,3.25000000e-12,4.65948314e-02,3.25000000e-12,5.22967565e-02,3.25000000e-12,5.22967565e-02,3.25000000e-12,5.66985356e+10,3.25000000e-12,7.53171049e+04,3.25000000e-12,1.19870895e+04,3.25000000e-12,2.22883313e+01,1.0,.500,sky130
3.50000000e-12,7.36272734e-11,3.50000000e-12,3.30357577e-12,3.50000000e-12,9.05176938e-16,3.50000000e-12,-7.64574328e-17,3.50000000e-12,-1.39169504e-17,3.50000000e-12,4.52985242e-17,3.50000000e-12,8.03892852e-17,3.50000000e-12,1.80873735e-17,3.50000000e-12,1.66270901e-11,3.50000000e-12,5.99930333e-01,3.50000000e-12,4.65948555e-02,3.50000000e-12,5.50657617e-02,3.50000000e-12,5.50657617e-02,3.50000000e-12,6.01428147e+10,3.50000000e-12,8.13402002e+04,3.50000000e-12,1.29456949e+04,3.50000000e-12,2.22871454e+01,1.0,.500,sky130
3.75000000e-12,7.90717626e-11,3.75000000e-12,3.54804971e-12,3.75000000e-12,9.04923687e-16,3.75000000e-12,-7.89220406e-17,3.75000000e-12,-1.28670220e-17,3.75000000e-12,4.72564433e-17,3.75000000e-12,8.22263926e-17,3.75000000e-12,1.67757567e-17,3.75000000e-12,1.57506924e-11,3.75000000e-12,5.99919059e-01,3.75000000e-12,4.65948798e-02,3.75000000e-12,5.77084690e-02,3.75000000e-12,5.77084690e-02,3.75000000e-12,6.34892725e+10,3.75000000e-12,8.73794815e+04,3.75000000e-12,1.39068764e+04,3.75000000e-12,2.22859793e+01,1.0,.500,sky130
4.00000000e-12,8.45238306e-11,4.00000000e-12,3.79288561e-12,4.00000000e-12,9.04726158e-16,4.00000000e-12,-8.12185993e-17,4.00000000e-12,-1.19693130e-17,4.00000000e-12,4.90353039e-17,4.00000000e-12,8.39568235e-17,4.00000000e-12,1.56518932e-17,4.00000000e-12,1.49942756e-11,4.00000000e-12,5.99908306e-01,4.00000000e-12,4.65949042e-02,4.00000000e-12,6.02288620e-02,4.00000000e-12,6.02288620e-02,4.00000000e-12,6.66921183e+10,4.00000000e-12,9.34247671e+04,4.00000000e-12,1.48690135e+04,4.00000000e-12,2.22848352e+01,1.0,.500,sky130
4.25000000e-12,8.99853309e-11,4.25000000e-12,4.03816607e-12,4.25000000e-12,9.04576710e-16,4.25000000e-12,-8.33735938e-17,4.25000000e-12,-1.11943423e-17,4.25000000e-12,5.06661596e-17,4.25000000e-12,8.55957256e-17,4.25000000e-12,1.46798546e-17,4.25000000e-12,1.43425810e-11,4.25000000e-12,5.99898037e-01,4.25000000e-12,4.65949288e-02,4.25000000e-12,6.26360290e-02,4.25000000e-12,6.26360290e-02,4.25000000e-12,6.97224580e+10,4.25000000e-12,9.94778331e+04,4.25000000e-12,1.58323889e+04,4.25000000e-12,2.22837123e+01,1.0,.500,sky130
4.50000000e-12,9.54504721e-11,4.50000000e-12,4.28363038e-12,4.50000000e-12,9.04469084e-16,4.50000000e-12,-8.54050791e-17,4.50000000e-12,-1.05203329e-17,4.50000000e-12,5.21711424e-17,4.50000000e-12,8.71530332e-17,4.50000000e-12,1.38330412e-17,4.50000000e-12,1.37823279e-11,4.50000000e-12,5.99888228e-01,4.50000000e-12,4.65949534e-02,4.50000000e-12,6.49353634e-02,4.50000000e-12,6.49353634e-02,4.50000000e-12,7.25566832e+10,4.50000000e-12,1.05532045e+05,4.50000000e-12,1.67959466e+04,4.50000000e-12,2.22826116e+01,1.0,.500,sky130
4.75000000e-12,1.00927145e-10,4.75000000e-12,4.52963242e-12,4.75000000e-12,9.04397719e-16,4.75000000e-12,-8.73321831e-17,4.75000000e-12,-9.92872107e-18,4.75000000e-12,5.35712269e-17,4.75000000e-12,8.86404149e-17,4.75000000e-12,1.30886576e-17,4.75000000e-12,1.33002590e-11,4.75000000e-12,5.99878833e-01,4.75000000e-12,4.65949782e-02,4.75000000e-12,6.71376030e-02,4.75000000e-12,6.71376030e-02,4.75000000e-12,7.51865058e+10,4.75000000e-12,1.11595975e+05,4.75000000e-12,1.77610510e+04,4.75000000e-12,2.22815310e+01,1.0,.500,sky130
5.00000000e-12,1.06405210e-10,5.00000000e-12,4.77571621e-12,5.00000000e-12,9.04358143e-16,5.00000000e-12,-8.91645038e-17,5.00000000e-12,-9.40669842e-18,5.00000000e-12,5.48789071e-17,5.00000000e-12,9.00629001e-17,5.00000000e-12,1.24309812e-17,5.00000000e-12,1.28863424e-11,5.00000000e-12,5.99869840e-01,5.00000000e-12,4.65950029e-02,5.00000000e-12,6.92456409e-02,5.00000000e-12,6.92456409e-02,5.00000000e-12,7.76015391e+10,5.00000000e-12,1.17658265e+05,5.00000000e-12,1.87258944e+04,5.00000000e-12,2.22804717e+01,1.0,.500,sky130
5.25000000e-12,1.11888310e-10,5.25000000e-12,5.02204528e-12,5.25000000e-12,9.04346285e-16,5.25000000e-12,-9.09141564e-17,5.25000000e-12,-8.94272647e-18,5.25000000e-12,5.61074157e-17,5.25000000e-12,9.14280329e-17,5.25000000e-12,1.18457731e-17,5.25000000e-12,1.25307646e-11,5.25000000e-12,5.99861215e-01,5.25000000e-12,4.65950277e-02,5.25000000e-12,7.12675021e-02,5.25000000e-12,7.12675021e-02,5.25000000e-12,7.98035900e+10,5.25000000e-12,1.23722861e+05,5.25000000e-12,1.96911049e+04,5.25000000e-12,2.22794307e+01,1.0,.500,sky130
5.50000000e-12,1.17379548e-10,5.50000000e-12,5.26875826e-12,5.50000000e-12,9.04358857e-16,5.50000000e-12,-9.25911516e-17,5.50000000e-12,-8.52764570e-18,5.50000000e-12,5.72674258e-17,5.50000000e-12,9.27420592e-17,5.50000000e-12,1.13217054e-17,5.50000000e-12,1.22252732e-11,5.50000000e-12,5.99852927e-01,5.50000000e-12,4.65950526e-02,5.50000000e-12,7.32102706e-02,5.50000000e-12,7.32102706e-02,5.50000000e-12,8.17977628e+10,5.50000000e-12,1.29793109e+05,5.50000000e-12,2.06572149e+04,5.50000000e-12,2.22784084e+01,1.0,.500,sky130
5.75000000e-12,1.22867360e-10,5.75000000e-12,5.51533513e-12,5.75000000e-12,9.04392912e-16,5.75000000e-12,-9.41996244e-17,5.75000000e-12,-8.15501657e-18,5.75000000e-12,5.83648758e-17,5.75000000e-12,9.40069856e-17,5.75000000e-12,1.08508210e-17,5.75000000e-12,1.19635608e-11,5.75000000e-12,5.99844969e-01,5.75000000e-12,4.65950774e-02,5.75000000e-12,7.50754890e-02,5.75000000e-12,7.50754890e-02,5.75000000e-12,8.35871541e+10,5.75000000e-12,1.35856174e+05,5.75000000e-12,2.16221816e+04,5.75000000e-12,2.22774061e+01,1.0,.500,sky130
6.00000000e-12,1.28365244e-10,6.00000000e-12,5.76238193e-12,6.00000000e-12,9.04446021e-16,6.00000000e-12,-9.57499945e-17,6.00000000e-12,-7.81795541e-18,6.00000000e-12,5.94094294e-17,6.00000000e-12,9.52300127e-17,6.00000000e-12,1.04245548e-17,6.00000000e-12,1.17391014e-11,6.00000000e-12,5.99837302e-01,6.00000000e-12,4.65951023e-02,6.00000000e-12,7.68728742e-02,6.00000000e-12,7.68728742e-02,6.00000000e-12,8.51853962e+10,6.00000000e-12,1.41926926e+05,6.00000000e-12,2.25883719e+04,6.00000000e-12,2.22764207e+01,1.0,.500,sky130
6.25000000e-12,1.33866013e-10,6.25000000e-12,6.00957544e-12,6.25000000e-12,9.04515976e-16,6.25000000e-12,-9.72456534e-17,6.25000000e-12,-7.51204540e-18,6.25000000e-12,6.04054846e-17,6.25000000e-12,9.64130160e-17,6.25000000e-12,1.00374242e-17,6.25000000e-12,1.15472636e-11,6.25000000e-12,5.99829914e-01,6.25000000e-12,4.65951272e-02,6.25000000e-12,7.86046507e-02,6.25000000e-12,7.86046507e-02,6.25000000e-12,8.66006038e+10,6.25000000e-12,1.47997401e+05,6.25000000e-12,2.35545179e+04,6.25000000e-12,2.22754527e+01,1.0,.500,sky130
6.50000000e-12,1.39371460e-10,6.50000000e-12,6.25699580e-12,6.50000000e-12,9.04600919e-16,6.50000000e-12,-9.86918330e-17,6.50000000e-12,-7.23310671e-18,6.50000000e-12,6.13583213e-17,6.50000000e-12,9.75594759e-17,6.50000000e-12,9.68422065e-18,6.50000000e-12,1.13837557e-11,6.50000000e-12,5.99822785e-01,6.50000000e-12,4.65951521e-02,6.50000000e-12,8.02756647e-02,6.50000000e-12,8.02756647e-02,6.50000000e-12,8.78444711e+10,6.50000000e-12,1.54069553e+05,6.50000000e-12,2.45209310e+04,6.50000000e-12,2.22745011e+01,1.0,.500,sky130
6.75000000e-12,1.44871812e-10,6.75000000e-12,6.50420353e-12,6.75000000e-12,9.04699032e-16,6.75000000e-12,-1.00090181e-16,6.75000000e-12,-6.97817288e-18,6.75000000e-12,6.22705642e-17,6.75000000e-12,9.86701554e-17,6.75000000e-12,9.36125168e-18,6.75000000e-12,1.12452204e-11,6.75000000e-12,5.99815911e-01,6.75000000e-12,4.65951769e-02,6.75000000e-12,8.18869929e-02,6.75000000e-12,8.18869929e-02,6.75000000e-12,8.89266696e+10,6.75000000e-12,1.60132604e+05,6.75000000e-12,2.54858955e+04,6.75000000e-12,2.22735668e+01,1.0,.500,sky130
7.00000000e-12,1.50386265e-10,7.00000000e-12,6.75206103e-12,7.00000000e-12,9.04809231e-16,7.00000000e-12,-1.01449152e-16,7.00000000e-12,-6.74349322e-18,7.00000000e-12,6.31490176e-17,7.00000000e-12,9.97513266e-17,7.00000000e-12,9.06381567e-18,7.00000000e-12,1.11281217e-11,7.00000000e-12,5.99809252e-01,7.00000000e-12,4.65952018e-02,7.00000000e-12,8.34478207e-02,7.00000000e-12,8.34478207e-02,7.00000000e-12,8.98624252e+10,7.00000000e-12,1.66207704e+05,7.00000000e-12,2.64527777e+04,7.00000000e-12,2.22726460e+01,1.0,.500,sky130
7.25000000e-12,1.55890567e-10,7.25000000e-12,6.99947795e-12,7.25000000e-12,9.04929768e-16,7.25000000e-12,-1.02765955e-16,7.25000000e-12,-6.52765657e-18,7.25000000e-12,6.39929902e-17,7.25000000e-12,1.00800404e-16,7.25000000e-12,8.79016367e-18,7.25000000e-12,1.10303453e-11,7.25000000e-12,5.99802824e-01,7.25000000e-12,4.65952267e-02,7.25000000e-12,8.49546105e-02,7.25000000e-12,8.49546105e-02,7.25000000e-12,9.06589933e+10,7.25000000e-12,1.72268139e+05,7.25000000e-12,2.74173258e+04,7.25000000e-12,2.22717420e+01,1.0,.500,sky130
7.50000000e-12,1.61403396e-10,7.50000000e-12,7.24729359e-12,7.50000000e-12,9.05059925e-16,7.50000000e-12,-1.04047941e-16,7.50000000e-12,-6.32781969e-18,7.50000000e-12,6.48081602e-17,7.50000000e-12,1.01822937e-16,7.50000000e-12,8.53672236e-18,7.50000000e-12,1.09492758e-11,7.50000000e-12,5.99796592e-01,7.50000000e-12,4.65952515e-02,7.50000000e-12,8.64156067e-02,7.50000000e-12,8.64156067e-02,7.50000000e-12,9.13302414e+10,7.50000000e-12,1.78334486e+05,7.50000000e-12,2.83828150e+04,7.50000000e-12,2.22708511e+01,1.0,.500,sky130
7.75000000e-12,1.66914844e-10,7.75000000e-12,7.49506225e-12,7.75000000e-12,9.05198496e-16,7.75000000e-12,-1.05295275e-16,7.75000000e-12,-6.14257413e-18,7.75000000e-12,6.55954541e-17,7.75000000e-12,1.02818805e-16,7.75000000e-12,8.30173027e-18,7.75000000e-12,1.08831375e-11,7.75000000e-12,5.99790554e-01,7.75000000e-12,4.65952763e-02,7.75000000e-12,8.78309418e-02,7.75000000e-12,8.78309418e-02,7.75000000e-12,9.18852678e+10,7.75000000e-12,1.84395848e+05,7.75000000e-12,2.93475107e+04,7.75000000e-12,2.22699744e+01,1.0,.500,sky130
8.00000000e-12,1.72431318e-10,8.00000000e-12,7.74307172e-12,8.00000000e-12,9.05344773e-16,8.00000000e-12,-1.06511648e-16,8.00000000e-12,-5.97016810e-18,8.00000000e-12,6.63579196e-17,8.00000000e-12,1.03790746e-16,8.00000000e-12,8.08298489e-18,8.00000000e-12,1.08301811e-11,8.00000000e-12,5.99784692e-01,8.00000000e-12,4.65953012e-02,8.00000000e-12,8.92048417e-02,8.00000000e-12,8.92048417e-02,8.00000000e-12,9.23345593e+10,8.00000000e-12,1.90459284e+05,8.00000000e-12,3.03125366e+04,8.00000000e-12,2.22691102e+01,1.0,.500,sky130
8.25000000e-12,1.77952610e-10,8.25000000e-12,7.99131248e-12,8.25000000e-12,9.05497992e-16,8.25000000e-12,-1.07698970e-16,8.25000000e-12,-5.80929936e-18,8.25000000e-12,6.70973741e-17,8.25000000e-12,1.04740112e-16,8.25000000e-12,7.87884958e-18,8.25000000e-12,1.07889823e-11,8.25000000e-12,5.99778998e-01,8.25000000e-12,4.65953260e-02,8.25000000e-12,9.05395614e-02,8.25000000e-12,9.05395614e-02,8.25000000e-12,9.26871479e+10,8.25000000e-12,1.96524577e+05,8.25000000e-12,3.12778578e+04,8.25000000e-12,2.22682582e+01,1.0,.500,sky130
8.50000000e-12,1.83467186e-10,8.50000000e-12,8.23926569e-12,8.50000000e-12,9.05657138e-16,8.50000000e-12,-1.08856614e-16,8.50000000e-12,-5.65913263e-18,8.50000000e-12,6.78139834e-17,8.50000000e-12,1.05666252e-16,8.50000000e-12,7.68827680e-18,8.50000000e-12,1.07583545e-11,8.50000000e-12,5.99773474e-01,8.50000000e-12,4.65953508e-02,8.50000000e-12,9.18345613e-02,8.50000000e-12,9.18345613e-02,8.50000000e-12,9.29510180e+10,8.50000000e-12,2.02579076e+05,8.50000000e-12,3.22414613e+04,8.50000000e-12,2.22674196e+01,1.0,.500,sky130
8.75000000e-12,1.88984744e-10,8.75000000e-12,8.48736714e-12,8.75000000e-12,9.05821867e-16,8.75000000e-12,-1.09988306e-16,8.75000000e-12,-5.51837646e-18,8.75000000e-12,6.85105456e-17,8.75000000e-12,1.06572023e-16,8.75000000e-12,7.50963735e-18,8.75000000e-12,1.07371303e-11,8.75000000e-12,5.99768100e-01,8.75000000e-12,4.65953756e-02,8.75000000e-12,9.30942139e-02,8.75000000e-12,9.30942139e-02,8.75000000e-12,9.31347552e+10,8.75000000e-12,2.08633454e+05,8.75000000e-12,3.32050454e+04,8.75000000e-12,2.22665924e+01,1.0,.500,sky130
9.00000000e-12,1.94507550e-10,9.00000000e-12,8.73571851e-12,9.00000000e-12,9.05991707e-16,9.00000000e-12,-1.11095961e-16,9.00000000e-12,-5.38610218e-18,9.00000000e-12,6.91886618e-17,9.00000000e-12,1.07458857e-16,9.00000000e-12,7.34176020e-18,9.00000000e-12,1.07243574e-11,9.00000000e-12,5.99762867e-01,9.00000000e-12,4.65954004e-02,9.00000000e-12,9.43208600e-02,9.00000000e-12,9.43208600e-02,9.00000000e-12,9.32456801e+10,9.00000000e-12,2.14690210e+05,9.00000000e-12,3.41690082e+04,9.00000000e-12,2.22657758e+01,1.0,.500,sky130
9.25000000e-12,2.00030396e-10,9.25000000e-12,8.98408548e-12,9.25000000e-12,9.06166011e-16,9.25000000e-12,-1.12179874e-16,9.25000000e-12,-5.26166157e-18,9.25000000e-12,6.98488900e-17,9.25000000e-12,1.08326902e-16,9.25000000e-12,7.18382859e-18,9.25000000e-12,1.07192140e-11,9.25000000e-12,5.99757772e-01,9.25000000e-12,4.65954251e-02,9.25000000e-12,9.55150584e-02,9.25000000e-12,9.55150584e-02,9.25000000e-12,9.32904218e+10,9.25000000e-12,2.20743654e+05,9.25000000e-12,3.51324437e+04,9.25000000e-12,2.22649703e+01,1.0,.500,sky130
9.50000000e-12,2.05552183e-10,9.50000000e-12,9.23241838e-12,9.50000000e-12,9.06344297e-16,9.50000000e-12,-1.13241095e-16,9.50000000e-12,-5.14438415e-18,9.50000000e-12,7.04922096e-17,9.50000000e-12,1.09176924e-16,9.50000000e-12,7.03499610e-18,9.50000000e-12,1.07209556e-11,9.50000000e-12,5.99752810e-01,9.50000000e-12,4.65954499e-02,9.50000000e-12,9.66782159e-02,9.50000000e-12,9.66782159e-02,9.50000000e-12,9.32752673e+10,9.50000000e-12,2.26792604e+05,9.50000000e-12,3.60951640e+04,9.50000000e-12,2.22641755e+01,1.0,.500,sky130
9.75000000e-12,2.11073615e-10,9.75000000e-12,9.48074865e-12,9.75000000e-12,9.06526188e-16,9.75000000e-12,-1.14280917e-16,9.75000000e-12,-5.03363845e-18,9.75000000e-12,7.11197104e-17,9.75000000e-12,1.10009900e-16,9.75000000e-12,6.89446472e-18,9.75000000e-12,1.07289244e-11,9.75000000e-12,5.99747973e-01,9.75000000e-12,4.65954746e-02,9.75000000e-12,9.78120108e-02,9.75000000e-12,9.78120108e-02,9.75000000e-12,9.32059879e+10,9.75000000e-12,2.32837857e+05,9.75000000e-12,3.70572958e+04,9.75000000e-12,2.22633911e+01,1.0,.500,sky130
1.00000000e-11,2.16598700e-10,1.00000000e-11,9.72925643e-12,1.00000000e-11,9.06711459e-16,1.00000000e-11,-1.15301137e-16,1.00000000e-11,-4.92880377e-18,1.00000000e-11,7.17327450e-17,1.00000000e-11,1.10827217e-16,1.00000000e-11,6.76144931e-18,1.00000000e-11,1.07425519e-11,1.00000000e-11,5.99743252e-01,1.00000000e-11,4.65954993e-02,1.00000000e-11,9.89186535e-02,1.00000000e-11,9.89186535e-02,1.00000000e-11,9.30877515e+10,1.00000000e-11,2.38883823e+05,1.00000000e-11,3.80195413e+04,1.00000000e-11,2.22626160e+01,1.0,.500,sky130
