isweep,gm,i_id,id,i_cgg,cgg,i_cgs,cgs,i_cgd,cgd,i_cds,cds,i_css,css,i_cdd,cdd,i_gds,gds,i_vth,vth,i_vdsat,vdsat,i_vgs,vgs,i_vds,vds,i_rds,rds,i_wt,wt,i_ft,ft,i_kgm,kgm,W,L,pdk
1.00000000e-12,2.35834005e-11,1.00000000e-12,7.59454757e-13,1.00000000e-12,8.29773543e-16,1.00000000e-12,-6.29369016e-17,1.00000000e-12,-4.43583388e-20,1.00000000e-12,4.04474704e-17,1.00000000e-12,6.04580394e-17,1.00000000e-12,1.80232884e-19,1.00000000e-12,2.82146036e-13,1.00000000e-12,7.14166435e-01,1.00000000e-12,3.29190405e-02,1.00000000e-12,2.40380183e-01,1.00000000e-12,2.40380183e-01,1.00000000e-12,3.54426387e+12,1.00000000e-12,2.84214900e+04,1.00000000e-12,4.52342063e+03,1.00000000e-12,3.10530683e+01,1.0,.500,sky130
1.25000000e-12,3.10920045e-11,1.25000000e-12,1.00143972e-12,1.25000000e-12,8.30172949e-16,1.25000000e-12,-6.82806434e-17,1.25000000e-12,-2.50062754e-20,1.25000000e-12,4.36662944e-17,1.25000000e-12,6.52707087e-17,1.25000000e-12,1.65288989e-19,1.25000000e-12,3.63893295e-13,1.25000000e-12,7.14134305e-01,1.25000000e-12,3.29190683e-02,1.25000000e-12,2.49183941e-01,1.25000000e-12,2.49183941e-01,1.25000000e-12,2.74805833e+12,1.25000000e-12,3.74524424e+04,1.25000000e-12,5.96074134e+03,1.25000000e-12,3.10473051e+01,1.0,.500,sky130
1.50000000e-12,3.86775539e-11,1.50000000e-12,1.24596827e-12,1.50000000e-12,8.30814778e-16,1.50000000e-12,-7.28686769e-17,1.50000000e-12,-9.25327595e-21,1.50000000e-12,4.63987564e-17,1.50000000e-12,6.93569437e-17,1.50000000e-12,1.53699425e-19,1.50000000e-12,4.45349064e-13,1.50000000e-12,7.14108917e-01,1.50000000e-12,3.29190949e-02,1.50000000e-12,2.56140580e-01,1.50000000e-12,2.56140580e-01,1.50000000e-12,2.24542967e+12,1.50000000e-12,4.65537625e+04,1.50000000e-12,7.40926142e+03,1.50000000e-12,3.10421660e+01,1.0,.500,sky130
1.75000000e-12,4.62241466e-11,1.75000000e-12,1.48929796e-12,1.75000000e-12,8.31566517e-16,1.75000000e-12,-7.68736786e-17,1.75000000e-12,3.99660199e-21,1.75000000e-12,4.87623686e-17,1.75000000e-12,7.28920450e-17,1.75000000e-12,1.44315233e-19,1.75000000e-12,5.25530768e-13,1.75000000e-12,7.14088179e-01,1.75000000e-12,3.29191204e-02,1.75000000e-12,2.61822752e-01,1.75000000e-12,2.61822752e-01,1.75000000e-12,1.90283816e+12,1.75000000e-12,5.55868300e+04,1.75000000e-12,8.84691876e+03,1.75000000e-12,3.10375410e+01,1.0,.500,sky130
2.00000000e-12,5.37984244e-11,2.00000000e-12,1.73357247e-12,2.00000000e-12,8.32376409e-16,2.00000000e-12,-8.04779515e-17,2.00000000e-12,1.55978528e-20,2.00000000e-12,5.08734356e-17,2.00000000e-12,7.60497393e-17,2.00000000e-12,1.36348637e-19,2.00000000e-12,6.05320752e-13,2.00000000e-12,7.14070519e-01,2.00000000e-12,3.29191454e-02,2.00000000e-12,2.66661766e-01,2.00000000e-12,2.66661766e-01,2.00000000e-12,1.65201672e+12,2.00000000e-12,6.46323272e+04,2.00000000e-12,1.02865544e+04,2.00000000e-12,3.10332711e+01,1.0,.500,sky130
2.25000000e-12,6.14232611e-11,2.25000000e-12,1.97952636e-12,2.25000000e-12,8.33217426e-16,2.25000000e-12,-8.37802243e-17,2.25000000e-12,2.60026409e-20,2.25000000e-12,5.27950597e-17,2.25000000e-12,7.89242909e-17,2.25000000e-12,1.29386667e-19,2.25000000e-12,6.85068985e-13,2.25000000e-12,7.14055089e-01,2.25000000e-12,3.29191701e-02,2.25000000e-12,2.70889871e-01,2.25000000e-12,2.70889871e-01,2.25000000e-12,1.45970701e+12,2.25000000e-12,7.37181666e+04,2.25000000e-12,1.17326106e+04,2.25000000e-12,3.10292716e+01,1.0,.500,sky130
2.50000000e-12,6.90401143e-11,2.50000000e-12,2.22526849e-12,2.50000000e-12,8.34066534e-16,2.50000000e-12,-8.68170477e-17,2.50000000e-12,3.54089476e-20,2.50000000e-12,5.45521696e-17,2.50000000e-12,8.15529130e-17,2.50000000e-12,1.23230943e-19,2.50000000e-12,7.64245443e-13,2.50000000e-12,7.14041476e-01,2.50000000e-12,3.29191944e-02,2.50000000e-12,2.74619928e-01,2.50000000e-12,2.74619928e-01,2.50000000e-12,1.30848016e+12,2.50000000e-12,8.27753080e+04,2.50000000e-12,1.31740994e+04,2.50000000e-12,3.10255210e+01,1.0,.500,sky130
2.75000000e-12,7.66994620e-11,2.75000000e-12,2.47242506e-12,2.75000000e-12,8.34919661e-16,2.75000000e-12,-8.96535534e-17,2.75000000e-12,4.40725433e-20,2.75000000e-12,5.61850875e-17,2.75000000e-12,8.39958753e-17,2.75000000e-12,1.17669500e-19,2.75000000e-12,8.43437942e-13,2.75000000e-12,7.14029221e-01,2.75000000e-12,3.29192185e-02,2.75000000e-12,2.77977760e-01,2.75000000e-12,2.77977760e-01,2.75000000e-12,1.18562368e+12,2.75000000e-12,9.18644818e+04,2.75000000e-12,1.46206864e+04,2.75000000e-12,3.10219562e+01,1.0,.500,sky130
3.00000000e-12,8.43453949e-11,3.00000000e-12,2.71918997e-12,3.00000000e-12,8.35764830e-16,3.00000000e-12,-9.23025887e-17,3.00000000e-12,5.20692778e-20,3.00000000e-12,5.77031595e-17,3.00000000e-12,8.62671236e-17,3.00000000e-12,1.12622463e-19,3.00000000e-12,9.22117738e-13,3.00000000e-12,7.14018150e-01,3.00000000e-12,3.29192423e-02,3.00000000e-12,2.81011349e-01,3.00000000e-12,2.81011349e-01,3.00000000e-12,1.08446021e+12,3.00000000e-12,1.00920010e+05,3.00000000e-12,1.60619184e+04,3.00000000e-12,3.10185739e+01,1.0,.500,sky130
3.25000000e-12,9.19907705e-11,3.25000000e-12,2.96597612e-12,3.25000000e-12,8.36600075e-16,3.25000000e-12,-9.47957460e-17,3.25000000e-12,5.95210749e-20,3.25000000e-12,5.91260314e-17,3.25000000e-12,8.83960237e-17,3.25000000e-12,1.07989575e-19,3.25000000e-12,1.00045949e-12,3.25000000e-12,7.14008038e-01,3.25000000e-12,3.29192660e-02,3.25000000e-12,2.83781933e-01,3.25000000e-12,2.83781933e-01,3.25000000e-12,9.99540721e+11,3.25000000e-12,1.09957880e+05,3.25000000e-12,1.75003401e+04,3.25000000e-12,3.10153443e+01,1.0,.500,sky130
3.50000000e-12,9.96634839e-11,3.50000000e-12,3.21368245e-12,3.50000000e-12,8.37426395e-16,3.50000000e-12,-9.71623173e-17,3.50000000e-12,6.65342613e-20,3.50000000e-12,6.04715794e-17,3.50000000e-12,9.04093024e-17,3.50000000e-12,1.03687856e-19,3.50000000e-12,1.07878116e-12,3.50000000e-12,7.13998701e-01,3.50000000e-12,3.29192895e-02,3.50000000e-12,2.86340482e-01,3.50000000e-12,2.86340482e-01,3.50000000e-12,9.26972067e+11,3.50000000e-12,1.19011634e+05,3.50000000e-12,1.89412899e+04,3.50000000e-12,3.10122377e+01,1.0,.500,sky130
3.75000000e-12,1.07324941e-10,3.75000000e-12,3.46106160e-12,3.75000000e-12,8.38238482e-16,3.75000000e-12,-9.94068002e-17,3.75000000e-12,7.31362834e-20,3.75000000e-12,6.17432916e-17,3.75000000e-12,9.23121638e-17,3.75000000e-12,9.96874745e-20,3.75000000e-12,1.15671592e-12,3.75000000e-12,7.13990067e-01,3.75000000e-12,3.29193129e-02,3.75000000e-12,2.88706290e-01,3.75000000e-12,2.88706290e-01,3.75000000e-12,8.64516499e+11,3.75000000e-12,1.28036284e+05,3.75000000e-12,2.03776075e+04,3.75000000e-12,3.10092547e+01,1.0,.500,sky130
4.00000000e-12,1.15004102e-10,4.00000000e-12,3.70904739e-12,4.00000000e-12,8.39038836e-16,4.00000000e-12,-1.01551291e-16,4.00000000e-12,7.94030401e-20,4.00000000e-12,6.29544523e-17,4.00000000e-12,9.41244729e-17,4.00000000e-12,9.59321788e-20,4.00000000e-12,1.23458178e-12,4.00000000e-12,7.13982009e-01,4.00000000e-12,3.29193361e-02,4.00000000e-12,2.90914226e-01,4.00000000e-12,2.90914226e-01,4.00000000e-12,8.09990896e+11,4.00000000e-12,1.37066482e+05,4.00000000e-12,2.18148082e+04,4.00000000e-12,3.10063716e+01,1.0,.500,sky130
4.25000000e-12,1.22681235e-10,4.25000000e-12,3.95700151e-12,4.25000000e-12,8.39825164e-16,4.25000000e-12,-1.03601339e-16,4.25000000e-12,8.53591584e-20,4.25000000e-12,6.41088168e-17,4.25000000e-12,9.58518398e-17,4.25000000e-12,9.23991441e-20,4.25000000e-12,1.31219811e-12,4.25000000e-12,7.13974473e-01,4.25000000e-12,3.29193593e-02,4.25000000e-12,2.92979230e-01,4.25000000e-12,2.92979230e-01,4.25000000e-12,7.62080051e+11,4.25000000e-12,1.46079494e+05,4.25000000e-12,2.32492735e+04,4.25000000e-12,3.10035855e+01,1.0,.500,sky130
4.50000000e-12,1.30357313e-10,4.50000000e-12,4.20495427e-12,4.50000000e-12,8.40597614e-16,4.50000000e-12,-1.05566794e-16,4.50000000e-12,9.10400264e-20,4.50000000e-12,6.52124598e-17,4.50000000e-12,9.75033464e-17,4.50000000e-12,8.90607426e-20,4.50000000e-12,1.38959231e-12,4.50000000e-12,7.13967394e-01,4.50000000e-12,3.29193824e-02,4.50000000e-12,2.94918921e-01,4.50000000e-12,2.94918921e-01,4.50000000e-12,7.19635532e+11,4.50000000e-12,1.55076948e+05,4.50000000e-12,2.46812629e+04,4.50000000e-12,3.10008871e+01,1.0,.500,sky130
4.75000000e-12,1.38048903e-10,4.75000000e-12,4.45343991e-12,4.75000000e-12,8.41358004e-16,4.75000000e-12,-1.07459753e-16,4.75000000e-12,9.64859679e-20,4.75000000e-12,6.62726111e-17,4.75000000e-12,9.90898055e-17,4.75000000e-12,8.58879500e-20,4.75000000e-12,1.46694602e-12,4.75000000e-12,7.13960706e-01,4.75000000e-12,3.29194054e-02,4.75000000e-12,2.96751487e-01,4.75000000e-12,2.96751487e-01,4.75000000e-12,6.81688340e+11,4.75000000e-12,1.64078670e+05,4.75000000e-12,2.61139314e+04,4.75000000e-12,3.09982632e+01,1.0,.500,sky130
5.00000000e-12,1.45728632e-10,5.00000000e-12,4.70157325e-12,5.00000000e-12,8.42103903e-16,5.00000000e-12,-1.09280338e-16,5.00000000e-12,1.01701728e-19,5.00000000e-12,6.72897143e-17,5.00000000e-12,1.00611876e-16,5.00000000e-12,8.28735459e-20,5.00000000e-12,1.54399713e-12,5.00000000e-12,7.13954389e-01,5.00000000e-12,3.29194283e-02,5.00000000e-12,2.98482335e-01,5.00000000e-12,2.98482335e-01,5.00000000e-12,6.47669596e+11,5.00000000e-12,1.73053030e+05,5.00000000e-12,2.75422451e+04,5.00000000e-12,3.09957165e+01,1.0,.500,sky130
5.25000000e-12,1.53413655e-10,5.25000000e-12,4.94990770e-12,5.25000000e-12,8.42837336e-16,5.25000000e-12,-1.11038669e-16,5.25000000e-12,1.06719963e-19,5.25000000e-12,6.82697508e-17,5.25000000e-12,1.02078503e-16,5.25000000e-12,7.99948821e-20,5.25000000e-12,1.62092975e-12,5.25000000e-12,7.13948392e-01,5.25000000e-12,3.29194512e-02,5.25000000e-12,3.00125623e-01,5.25000000e-12,3.00125623e-01,5.25000000e-12,6.16929883e+11,5.25000000e-12,1.82020478e+05,5.25000000e-12,2.89694588e+04,5.25000000e-12,3.09932355e+01,1.0,.500,sky130
5.50000000e-12,1.61095191e-10,5.50000000e-12,5.19815871e-12,5.50000000e-12,8.43557839e-16,5.50000000e-12,-1.12737893e-16,5.50000000e-12,1.11552666e-19,5.50000000e-12,6.92147546e-17,5.50000000e-12,1.03492728e-16,5.50000000e-12,7.72419322e-20,5.50000000e-12,1.69766634e-12,5.50000000e-12,7.13942689e-01,5.50000000e-12,3.29194740e-02,5.50000000e-12,3.01688107e-01,5.50000000e-12,3.01688107e-01,5.50000000e-12,5.89043899e+11,5.50000000e-12,1.90971127e+05,5.50000000e-12,3.03939988e+04,5.50000000e-12,3.09908181e+01,1.0,.500,sky130
5.75000000e-12,1.68790676e-10,5.75000000e-12,5.44688917e-12,5.75000000e-12,8.44267415e-16,5.75000000e-12,-1.14386296e-16,5.75000000e-12,1.16225904e-19,5.75000000e-12,7.01295742e-17,5.75000000e-12,1.04861804e-16,5.75000000e-12,7.45971959e-20,5.75000000e-12,1.77439013e-12,5.75000000e-12,7.13937242e-01,5.75000000e-12,3.29194968e-02,5.75000000e-12,3.03180650e-01,5.75000000e-12,3.03180650e-01,5.75000000e-12,5.63573919e+11,5.75000000e-12,1.99925608e+05,5.75000000e-12,3.18191488e+04,5.75000000e-12,3.09884543e+01,1.0,.500,sky130
6.00000000e-12,1.76461673e-10,6.00000000e-12,5.69485594e-12,6.00000000e-12,8.44962945e-16,6.00000000e-12,-1.15979744e-16,6.00000000e-12,1.20730122e-19,6.00000000e-12,7.10121324e-17,6.00000000e-12,1.06182619e-16,6.00000000e-12,7.20637456e-20,6.00000000e-12,1.85072659e-12,6.00000000e-12,7.13932053e-01,6.00000000e-12,3.29195194e-02,6.00000000e-12,3.04602395e-01,6.00000000e-12,3.04602395e-01,6.00000000e-12,5.40328326e+11,6.00000000e-12,2.08839540e+05,6.00000000e-12,3.32378451e+04,6.00000000e-12,3.09861521e+01,1.0,.500,sky130
6.25000000e-12,1.84156619e-10,6.25000000e-12,5.94362423e-12,6.25000000e-12,8.45649219e-16,6.25000000e-12,-1.17531850e-16,6.25000000e-12,1.25105630e-19,6.25000000e-12,7.18701589e-17,6.25000000e-12,1.07466738e-16,6.25000000e-12,6.96169154e-20,6.25000000e-12,1.92716536e-12,6.25000000e-12,7.13927070e-01,6.25000000e-12,3.29195421e-02,6.25000000e-12,3.05967974e-01,6.25000000e-12,3.05967974e-01,6.25000000e-12,5.18896831e+11,6.25000000e-12,2.17769514e+05,6.25000000e-12,3.46590945e+04,6.25000000e-12,3.09838933e+01,1.0,.500,sky130
6.50000000e-12,1.91857111e-10,6.50000000e-12,6.19259858e-12,6.50000000e-12,8.46324922e-16,6.50000000e-12,-1.19041803e-16,6.50000000e-12,1.29351641e-19,6.50000000e-12,7.27033635e-17,6.50000000e-12,1.08713725e-16,6.50000000e-12,6.72554942e-20,6.50000000e-12,2.00352976e-12,6.50000000e-12,7.13922286e-01,6.50000000e-12,3.29195647e-02,6.50000000e-12,3.07278739e-01,6.50000000e-12,3.07278739e-01,6.50000000e-12,4.99119115e+11,6.50000000e-12,2.26694388e+05,6.50000000e-12,3.60795325e+04,6.50000000e-12,3.09816805e+01,1.0,.500,sky130
6.75000000e-12,1.99547100e-10,6.75000000e-12,6.44125956e-12,6.75000000e-12,8.46989040e-16,6.75000000e-12,-1.20509330e-16,6.75000000e-12,1.33468755e-19,6.75000000e-12,7.35117471e-17,6.75000000e-12,1.09923581e-16,6.75000000e-12,6.49776198e-20,6.75000000e-12,2.07966706e-12,6.75000000e-12,7.13917696e-01,6.75000000e-12,3.29195873e-02,6.75000000e-12,3.08536392e-01,6.75000000e-12,3.08536392e-01,6.75000000e-12,4.80846199e+11,6.75000000e-12,2.35595846e+05,6.75000000e-12,3.74962435e+04,6.75000000e-12,3.09795154e+01,1.0,.500,sky130
7.00000000e-12,2.07228470e-10,7.00000000e-12,6.68966746e-12,7.00000000e-12,8.47642142e-16,7.00000000e-12,-1.21937480e-16,7.00000000e-12,1.37466733e-19,7.00000000e-12,7.42971280e-17,7.00000000e-12,1.11099023e-16,7.00000000e-12,6.27765172e-20,7.00000000e-12,2.15560210e-12,7.00000000e-12,7.13913284e-01,7.00000000e-12,3.29196098e-02,7.00000000e-12,3.09745301e-01,7.00000000e-12,3.09745301e-01,7.00000000e-12,4.63907508e+11,7.00000000e-12,2.44476365e+05,7.00000000e-12,3.89096219e+04,7.00000000e-12,3.09773947e+01,1.0,.500,sky130
7.25000000e-12,2.14936360e-10,7.25000000e-12,6.93895829e-12,7.25000000e-12,8.48287538e-16,7.25000000e-12,-1.23334957e-16,7.25000000e-12,1.41370941e-19,7.25000000e-12,7.50644087e-17,7.25000000e-12,1.12247389e-16,7.25000000e-12,6.06370822e-20,7.25000000e-12,2.23168717e-12,7.25000000e-12,7.13909018e-01,7.25000000e-12,3.29196324e-02,7.25000000e-12,3.10914295e-01,7.25000000e-12,3.10914295e-01,7.25000000e-12,4.48091478e+11,7.25000000e-12,2.53376775e+05,7.25000000e-12,4.03261662e+04,7.25000000e-12,3.09753066e+01,1.0,.500,sky130
7.50000000e-12,2.22630561e-10,7.50000000e-12,7.18783112e-12,7.50000000e-12,8.48922177e-16,7.50000000e-12,-1.24696468e-16,7.50000000e-12,1.45167468e-19,7.50000000e-12,7.58107881e-17,7.50000000e-12,1.13364485e-16,7.50000000e-12,5.85659173e-20,7.50000000e-12,2.30752991e-12,7.50000000e-12,7.13904909e-01,7.50000000e-12,3.29196549e-02,7.50000000e-12,3.12040261e-01,7.50000000e-12,3.12040261e-01,7.50000000e-12,4.33363829e+11,7.50000000e-12,2.62250848e+05,7.50000000e-12,4.17385188e+04,7.50000000e-12,3.09732599e+01,1.0,.500,sky130
7.75000000e-12,2.30339957e-10,7.75000000e-12,7.43721983e-12,7.75000000e-12,8.49548769e-16,7.75000000e-12,-1.26029015e-16,7.75000000e-12,1.48876640e-19,7.75000000e-12,7.65402039e-17,7.75000000e-12,1.14456203e-16,7.75000000e-12,5.65510032e-20,7.75000000e-12,2.38341955e-12,7.75000000e-12,7.13900931e-01,7.75000000e-12,3.29196774e-02,7.75000000e-12,3.13130205e-01,7.75000000e-12,3.13130205e-01,7.75000000e-12,4.19565242e+11,7.75000000e-12,2.71132118e+05,7.75000000e-12,4.31520168e+04,7.75000000e-12,3.09712449e+01,1.0,.500,sky130
8.00000000e-12,2.38018053e-10,8.00000000e-12,7.68561988e-12,8.00000000e-12,8.50163875e-16,8.00000000e-12,-1.27326386e-16,8.00000000e-12,1.52481882e-19,8.00000000e-12,7.72493477e-17,8.00000000e-12,1.15517591e-16,8.00000000e-12,5.46004840e-20,8.00000000e-12,2.45890287e-12,8.00000000e-12,7.13897099e-01,8.00000000e-12,3.29196998e-02,8.00000000e-12,3.14180172e-01,8.00000000e-12,3.14180172e-01,8.00000000e-12,4.06685442e+11,8.00000000e-12,2.79967262e+05,8.00000000e-12,4.45581737e+04,8.00000000e-12,3.09692720e+01,1.0,.500,sky130
8.25000000e-12,2.45726438e-10,8.25000000e-12,7.93502341e-12,8.25000000e-12,8.50772731e-16,8.25000000e-12,-1.28600578e-16,8.25000000e-12,1.56017162e-19,8.25000000e-12,7.79448593e-17,8.25000000e-12,1.16558585e-16,8.25000000e-12,5.26952321e-20,8.25000000e-12,2.53458924e-12,8.25000000e-12,7.13893374e-01,8.25000000e-12,3.29197222e-02,8.25000000e-12,3.15200860e-01,8.25000000e-12,3.15200860e-01,8.25000000e-12,3.94541247e+11,8.25000000e-12,2.88827356e+05,8.25000000e-12,4.59683014e+04,8.25000000e-12,3.09673237e+01,1.0,.500,sky130
8.50000000e-12,2.53410603e-10,8.50000000e-12,8.18366638e-12,8.50000000e-12,8.51371308e-16,8.50000000e-12,-1.29843995e-16,8.50000000e-12,1.59461955e-19,8.50000000e-12,7.86226658e-17,8.50000000e-12,1.17573088e-16,8.50000000e-12,5.08456444e-20,8.50000000e-12,2.60994693e-12,8.50000000e-12,7.13889775e-01,8.50000000e-12,3.29197445e-02,8.50000000e-12,3.16187065e-01,8.50000000e-12,3.16187065e-01,8.50000000e-12,3.83149554e+11,8.50000000e-12,2.97649922e+05,8.50000000e-12,4.73724563e+04,8.50000000e-12,3.09654122e+01,1.0,.500,sky130
8.75000000e-12,2.61107524e-10,8.75000000e-12,8.43274488e-12,8.75000000e-12,8.51962776e-16,8.75000000e-12,-1.31064016e-16,8.75000000e-12,1.62837215e-19,8.75000000e-12,7.92868601e-17,8.75000000e-12,1.18567226e-16,8.75000000e-12,4.90398453e-20,8.75000000e-12,2.68534211e-12,8.75000000e-12,7.13886277e-01,8.75000000e-12,3.29197669e-02,8.75000000e-12,3.17145474e-01,8.75000000e-12,3.17145474e-01,8.75000000e-12,3.72392030e+11,8.75000000e-12,3.06477620e+05,8.75000000e-12,4.87774281e+04,8.75000000e-12,3.09635270e+01,1.0,.500,sky130
9.00000000e-12,2.68817549e-10,9.00000000e-12,8.68226996e-12,9.00000000e-12,8.52547382e-16,9.00000000e-12,-1.32261806e-16,9.00000000e-12,1.66146585e-19,9.00000000e-12,7.99381340e-17,9.00000000e-12,1.19542033e-16,9.00000000e-12,4.72753647e-20,9.00000000e-12,2.76078091e-12,9.00000000e-12,7.13882875e-01,9.00000000e-12,3.29197893e-02,9.00000000e-12,3.18077697e-01,9.00000000e-12,3.18077697e-01,9.00000000e-12,3.62216355e+11,9.00000000e-12,3.15310978e+05,9.00000000e-12,5.01833008e+04,9.00000000e-12,3.09616667e+01,1.0,.500,sky130
9.25000000e-12,2.76487260e-10,9.25000000e-12,8.93051235e-12,9.25000000e-12,8.53121364e-16,9.25000000e-12,-1.33430327e-16,9.25000000e-12,1.69371049e-19,9.25000000e-12,8.05727238e-17,9.25000000e-12,1.20491876e-16,9.25000000e-12,4.55618067e-20,9.25000000e-12,2.83574403e-12,9.25000000e-12,7.13879586e-01,9.25000000e-12,3.29198115e-02,9.25000000e-12,3.18978979e-01,9.25000000e-12,3.18978979e-01,9.25000000e-12,3.52641137e+11,9.25000000e-12,3.24089012e+05,9.25000000e-12,5.15803683e+04,9.25000000e-12,3.09598430e+01,1.0,.500,sky130
9.50000000e-12,2.84200147e-10,9.50000000e-12,9.18017401e-12,9.50000000e-12,8.53691205e-16,9.50000000e-12,-1.34583345e-16,9.50000000e-12,1.72548957e-19,9.50000000e-12,8.11981583e-17,9.50000000e-12,1.21428023e-16,9.50000000e-12,4.38783359e-20,9.50000000e-12,2.91105019e-12,9.50000000e-12,7.13876368e-01,9.50000000e-12,3.29198338e-02,9.50000000e-12,3.19860555e-01,9.50000000e-12,3.19860555e-01,9.50000000e-12,3.43518639e+11,9.50000000e-12,3.32907432e+05,9.50000000e-12,5.29838634e+04,9.50000000e-12,3.09580348e+01,1.0,.500,sky130
9.75000000e-12,2.91899764e-10,9.75000000e-12,9.42942770e-12,9.75000000e-12,8.54252916e-16,9.75000000e-12,-1.35713277e-16,9.75000000e-12,1.75659714e-19,9.75000000e-12,8.18103690e-17,9.75000000e-12,1.22344383e-16,9.75000000e-12,4.22354730e-20,9.75000000e-12,2.98615044e-12,9.75000000e-12,7.13873242e-01,9.75000000e-12,3.29198561e-02,9.75000000e-12,3.20717152e-01,9.75000000e-12,3.20717152e-01,9.75000000e-12,3.34879311e+11,9.75000000e-12,3.41701805e+05,9.75000000e-12,5.43835314e+04,9.75000000e-12,3.09562545e+01,1.0,.500,sky130
1.00000000e-11,2.99593593e-10,1.00000000e-11,9.67851524e-12,1.00000000e-11,8.54807286e-16,1.00000000e-11,-1.36822213e-16,1.00000000e-11,1.78709388e-19,1.00000000e-11,8.24105367e-17,1.00000000e-11,1.23242724e-16,1.00000000e-11,4.06296099e-20,1.00000000e-11,3.06112046e-12,1.00000000e-11,7.13870199e-01,1.00000000e-11,3.29198784e-02,1.00000000e-11,3.21550907e-01,1.00000000e-11,3.21550907e-01,1.00000000e-11,3.26677768e+11,1.00000000e-11,3.50480861e+05,1.00000000e-11,5.57807615e+04,1.00000000e-11,3.09544993e+01,1.0,.500,sky130
