isweep,gm,i_id,id,i_cgg,cgg,i_cgs,cgs,i_cgd,cgd,i_cds,cds,i_css,css,i_cdd,cdd,i_gds,gds,i_vth,vth,i_vdsat,vdsat,i_vgs,vgs,i_vds,vds,i_rds,rds,i_wt,wt,i_ft,ft,i_kgm,kgm,W,L,pdk
1.00000000e-12,2.45680605e-11,1.00000000e-12,7.85281681e-13,1.00000000e-12,8.46214065e-16,1.00000000e-12,-6.31674805e-17,1.00000000e-12,-9.12283150e-20,1.00000000e-12,4.02733466e-17,1.00000000e-12,6.01990714e-17,1.00000000e-12,2.64581108e-19,1.00000000e-12,3.38889906e-13,1.00000000e-12,6.88567465e-01,1.00000000e-12,3.31384953e-02,1.00000000e-12,2.14277184e-01,1.00000000e-12,2.14277184e-01,1.00000000e-12,2.95081082e+12,1.00000000e-12,2.90329144e+04,1.00000000e-12,4.62073184e+03,1.00000000e-12,3.12856661e+01,1.0,.500,sky130
1.25000000e-12,3.21627230e-11,1.25000000e-12,1.02820598e-12,1.25000000e-12,8.46473017e-16,1.25000000e-12,-6.83726456e-17,1.25000000e-12,-6.54943001e-20,1.25000000e-12,4.33936708e-17,1.25000000e-12,6.48600115e-17,1.25000000e-12,2.42856712e-19,1.25000000e-12,4.32193317e-13,1.25000000e-12,6.88531203e-01,1.25000000e-12,3.31385200e-02,1.25000000e-12,2.22777254e-01,1.25000000e-12,2.22777254e-01,1.25000000e-12,2.31377941e+12,1.25000000e-12,3.79961586e+04,1.25000000e-12,6.04727646e+03,1.25000000e-12,3.12804279e+01,1.0,.500,sky130
1.50000000e-12,3.97953236e-11,1.50000000e-12,1.27240117e-12,1.50000000e-12,8.46995144e-16,1.50000000e-12,-7.28405761e-17,1.50000000e-12,-4.49148401e-20,1.50000000e-12,4.60416464e-17,1.50000000e-12,6.88166319e-17,1.50000000e-12,2.26311137e-19,1.50000000e-12,5.24533252e-13,1.50000000e-12,6.88502521e-01,1.50000000e-12,3.31385434e-02,1.50000000e-12,2.29500538e-01,1.50000000e-12,2.29500538e-01,1.50000000e-12,1.90645683e+12,1.50000000e-12,4.69841225e+04,1.50000000e-12,7.47775534e+03,1.50000000e-12,3.12757679e+01,1.0,.500,sky130
1.75000000e-12,4.74040444e-11,1.75000000e-12,1.51588372e-12,1.75000000e-12,8.47647632e-16,1.75000000e-12,-7.67627539e-17,1.75000000e-12,-2.77332263e-20,1.75000000e-12,4.83449011e-17,1.75000000e-12,7.22589145e-17,1.75000000e-12,2.13030946e-19,1.75000000e-12,6.15497521e-13,1.75000000e-12,6.88478944e-01,1.75000000e-12,3.31385657e-02,1.75000000e-12,2.35026969e-01,1.75000000e-12,2.35026969e-01,1.75000000e-12,1.62470191e+12,1.75000000e-12,5.59242339e+04,1.75000000e-12,8.90061826e+03,1.75000000e-12,3.12715573e+01,1.0,.500,sky130
2.00000000e-12,5.50463678e-11,2.00000000e-12,1.76048876e-12,2.00000000e-12,8.48373249e-16,2.00000000e-12,-8.03040489e-17,2.00000000e-12,-1.27936851e-20,2.00000000e-12,5.04085670e-17,2.00000000e-12,7.53436205e-17,2.00000000e-12,2.01855838e-19,2.00000000e-12,7.05989428e-13,2.00000000e-12,6.88458796e-01,2.00000000e-12,3.31385875e-02,2.00000000e-12,2.39749990e-01,2.00000000e-12,2.39749990e-01,2.00000000e-12,1.41645181e+12,2.00000000e-12,6.48846105e+04,2.00000000e-12,1.03267065e+04,2.00000000e-12,3.12676621e+01,1.0,.500,sky130
2.25000000e-12,6.27341709e-11,2.25000000e-12,2.00659370e-12,2.25000000e-12,8.49140642e-16,2.25000000e-12,-8.35527095e-17,2.25000000e-12,5.11553494e-22,2.25000000e-12,5.22892025e-17,2.25000000e-12,7.81550918e-17,2.25000000e-12,1.92177909e-19,2.25000000e-12,7.96288125e-13,2.25000000e-12,6.88441167e-01,2.25000000e-12,3.31386088e-02,2.25000000e-12,2.43882252e-01,2.25000000e-12,2.43882252e-01,2.25000000e-12,1.25582684e+12,2.25000000e-12,7.38795999e+04,2.25000000e-12,1.17583035e+04,2.25000000e-12,3.12640128e+01,1.0,.500,sky130
2.50000000e-12,7.04197452e-11,2.50000000e-12,2.25266878e-12,2.50000000e-12,8.49926170e-16,2.50000000e-12,-8.65473152e-17,2.50000000e-12,1.24864419e-20,2.50000000e-12,5.40127275e-17,2.50000000e-12,8.07319518e-17,2.50000000e-12,1.83676494e-19,2.50000000e-12,8.85938126e-13,2.50000000e-12,6.88425578e-01,2.50000000e-12,3.31386298e-02,2.50000000e-12,2.47536284e-01,2.50000000e-12,2.47536284e-01,2.50000000e-12,1.12874700e+12,2.50000000e-12,8.28539557e+04,2.50000000e-12,1.31866166e+04,2.50000000e-12,3.12605856e+01,1.0,.500,sky130
2.75000000e-12,7.81205805e-11,2.75000000e-12,2.49927173e-12,2.75000000e-12,8.50720178e-16,2.75000000e-12,-8.93384105e-17,2.75000000e-12,2.34294270e-20,2.75000000e-12,5.56108603e-17,2.75000000e-12,8.31215385e-17,2.75000000e-12,1.76071311e-19,2.75000000e-12,9.75226191e-13,2.75000000e-12,6.88411576e-01,2.75000000e-12,3.31386505e-02,2.75000000e-12,2.50818477e-01,2.75000000e-12,2.50818477e-01,2.75000000e-12,1.02540314e+12,2.75000000e-12,9.18287617e+04,2.75000000e-12,1.46150013e+04,2.75000000e-12,3.12573377e+01,1.0,.500,sky130
3.00000000e-12,8.58121297e-11,3.00000000e-12,2.74561451e-12,3.00000000e-12,8.51513093e-16,3.00000000e-12,-9.19499233e-17,3.00000000e-12,3.34998543e-20,3.00000000e-12,5.70992552e-17,3.00000000e-12,8.53472005e-17,3.00000000e-12,1.69203472e-19,3.00000000e-12,1.06393274e-12,3.00000000e-12,6.88398903e-01,3.00000000e-12,3.31386708e-02,3.00000000e-12,2.53789138e-01,3.00000000e-12,2.53789138e-01,3.00000000e-12,9.39909040e+11,3.00000000e-12,1.00776054e+05,3.00000000e-12,1.60390072e+04,3.00000000e-12,3.12542526e+01,1.0,.500,sky130
3.25000000e-12,9.35528126e-11,3.25000000e-12,2.99356673e-12,3.25000000e-12,8.52306471e-16,3.25000000e-12,-9.44259968e-17,3.25000000e-12,4.29134614e-20,3.25000000e-12,5.85045278e-17,3.25000000e-12,8.74486960e-17,3.25000000e-12,1.62891433e-19,3.25000000e-12,1.15278088e-12,3.25000000e-12,6.88387245e-01,3.25000000e-12,3.31386912e-02,3.25000000e-12,2.56521856e-01,3.25000000e-12,2.56521856e-01,3.25000000e-12,8.67467543e+11,3.25000000e-12,1.09764288e+05,3.25000000e-12,1.74695289e+04,3.25000000e-12,3.12512869e+01,1.0,.500,sky130
3.50000000e-12,1.01274540e-10,3.50000000e-12,3.24094599e-12,3.50000000e-12,8.53090495e-16,3.50000000e-12,-9.67641632e-17,3.50000000e-12,5.16941872e-20,3.50000000e-12,5.98264239e-17,3.50000000e-12,8.94256144e-17,3.50000000e-12,1.57093267e-19,3.50000000e-12,1.24102986e-12,3.50000000e-12,6.88376538e-01,3.50000000e-12,3.31387112e-02,3.50000000e-12,2.59031814e-01,3.50000000e-12,2.59031814e-01,3.50000000e-12,8.05782388e+11,3.50000000e-12,1.18714885e+05,3.50000000e-12,1.88940607e+04,3.50000000e-12,3.12484503e+01,1.0,.500,sky130
3.75000000e-12,1.08994827e-10,3.75000000e-12,3.48831196e-12,3.75000000e-12,8.53865211e-16,3.75000000e-12,-9.89864522e-17,3.75000000e-12,5.99507372e-20,3.75000000e-12,6.10783621e-17,3.75000000e-12,9.12979991e-17,3.75000000e-12,1.51716488e-19,3.75000000e-12,1.32891721e-12,3.75000000e-12,6.88366617e-01,3.75000000e-12,3.31387311e-02,3.75000000e-12,2.61357294e-01,3.75000000e-12,2.61357294e-01,3.75000000e-12,7.52492326e+11,3.75000000e-12,1.27648750e+05,3.75000000e-12,2.03159295e+04,3.75000000e-12,3.12457223e+01,1.0,.500,sky130
4.00000000e-12,1.16732657e-10,4.00000000e-12,3.73627177e-12,4.00000000e-12,8.54631417e-16,4.00000000e-12,-1.01111228e-16,4.00000000e-12,6.77706118e-20,4.00000000e-12,6.22714403e-17,4.00000000e-12,9.30824295e-17,4.00000000e-12,1.46688441e-19,4.00000000e-12,1.41668822e-12,4.00000000e-12,6.88357353e-01,4.00000000e-12,3.31387510e-02,4.00000000e-12,2.63528723e-01,4.00000000e-12,2.63528723e-01,4.00000000e-12,7.05871613e+11,4.00000000e-12,1.36588305e+05,4.00000000e-12,2.17387039e+04,4.00000000e-12,3.12430851e+01,1.0,.500,sky130
4.25000000e-12,1.24469736e-10,4.25000000e-12,3.98423822e-12,4.25000000e-12,8.55386645e-16,4.25000000e-12,-1.03144131e-16,4.25000000e-12,7.51895798e-20,4.25000000e-12,6.34094434e-17,4.25000000e-12,9.47845524e-17,4.25000000e-12,1.41973668e-19,4.25000000e-12,1.50416019e-12,4.25000000e-12,6.88348684e-01,4.25000000e-12,3.31387707e-02,4.25000000e-12,2.65560904e-01,4.25000000e-12,2.65560904e-01,4.25000000e-12,6.64822808e+11,4.25000000e-12,1.45512836e+05,4.25000000e-12,2.31590871e+04,4.25000000e-12,3.12405356e+01,1.0,.500,sky130
4.50000000e-12,1.32232302e-10,4.50000000e-12,4.23305136e-12,4.50000000e-12,8.56133089e-16,4.50000000e-12,-1.05100895e-16,4.50000000e-12,8.22769184e-20,4.50000000e-12,6.45016914e-17,4.50000000e-12,9.64182961e-17,4.50000000e-12,1.37518126e-19,4.50000000e-12,1.59165071e-12,4.50000000e-12,6.88340510e-01,4.50000000e-12,3.31387903e-02,4.50000000e-12,2.67476922e-01,4.50000000e-12,2.67476922e-01,4.50000000e-12,6.28278551e+11,4.50000000e-12,1.54452975e+05,4.50000000e-12,2.45819544e+04,4.50000000e-12,3.12380576e+01,1.0,.500,sky130
4.75000000e-12,1.39971685e-10,4.75000000e-12,4.48115030e-12,4.75000000e-12,8.56865955e-16,4.75000000e-12,-1.06977056e-16,4.75000000e-12,8.90261940e-20,4.75000000e-12,6.55461372e-17,4.75000000e-12,9.79805890e-17,4.75000000e-12,1.33317482e-19,4.75000000e-12,1.67863050e-12,4.75000000e-12,6.88332824e-01,4.75000000e-12,3.31388098e-02,4.75000000e-12,2.69278655e-01,4.75000000e-12,2.69278655e-01,4.75000000e-12,5.95723717e+11,4.75000000e-12,1.63353071e+05,4.75000000e-12,2.59984488e+04,4.75000000e-12,3.12356596e+01,1.0,.500,sky130
5.00000000e-12,1.47697832e-10,5.00000000e-12,4.72885287e-12,5.00000000e-12,8.57586299e-16,5.00000000e-12,-1.08782235e-16,5.00000000e-12,9.54802585e-20,5.00000000e-12,6.65485340e-17,5.00000000e-12,9.94800284e-17,5.00000000e-12,1.29337836e-19,5.00000000e-12,1.76523003e-12,5.00000000e-12,6.88325562e-01,5.00000000e-12,3.31388292e-02,5.00000000e-12,2.70980823e-01,5.00000000e-12,2.70980823e-01,5.00000000e-12,5.66498408e+11,5.00000000e-12,1.72225037e+05,5.00000000e-12,2.74104660e+04,5.00000000e-12,3.12333322e+01,1.0,.500,sky130
5.25000000e-12,1.55454047e-10,5.25000000e-12,4.97754676e-12,5.25000000e-12,8.58298253e-16,5.25000000e-12,-1.10532122e-16,5.25000000e-12,1.01701616e-19,5.25000000e-12,6.75179116e-17,5.25000000e-12,1.00930115e-16,5.25000000e-12,1.25534964e-19,5.25000000e-12,1.85194891e-12,5.25000000e-12,6.88318644e-01,5.25000000e-12,3.31388486e-02,5.25000000e-12,2.72602550e-01,5.25000000e-12,2.72602550e-01,5.25000000e-12,5.39971700e+11,5.25000000e-12,1.81118914e+05,5.25000000e-12,2.88259704e+04,5.25000000e-12,3.12310572e+01,1.0,.500,sky130
5.50000000e-12,1.63184788e-10,5.50000000e-12,5.22545039e-12,5.50000000e-12,8.58996903e-16,5.50000000e-12,-1.12219158e-16,5.50000000e-12,1.07668777e-19,5.50000000e-12,6.84503599e-17,5.50000000e-12,1.02324995e-16,5.50000000e-12,1.21917144e-19,5.50000000e-12,1.93817924e-12,5.50000000e-12,6.88312082e-01,5.50000000e-12,3.31388679e-02,5.50000000e-12,2.74140577e-01,5.50000000e-12,2.74140577e-01,5.50000000e-12,5.15948153e+11,5.50000000e-12,1.89971334e+05,5.50000000e-12,3.02348769e+04,5.50000000e-12,3.12288464e+01,1.0,.500,sky130
5.75000000e-12,1.70930647e-10,5.75000000e-12,5.47386479e-12,5.75000000e-12,8.59686176e-16,5.75000000e-12,-1.13856727e-16,5.75000000e-12,1.13433713e-19,5.75000000e-12,6.93535269e-17,5.75000000e-12,1.03676103e-16,5.75000000e-12,1.18448635e-19,5.75000000e-12,2.02438613e-12,5.75000000e-12,6.88305812e-01,5.75000000e-12,3.31388871e-02,5.75000000e-12,2.75610407e-01,5.75000000e-12,2.75610407e-01,5.75000000e-12,4.93976908e+11,5.75000000e-12,1.98829122e+05,5.75000000e-12,3.16446375e+04,5.75000000e-12,3.12266842e+01,1.0,.500,sky130
6.00000000e-12,1.78709713e-10,6.00000000e-12,5.72336965e-12,6.00000000e-12,8.60367846e-16,6.00000000e-12,-1.15452080e-16,6.00000000e-12,1.19025582e-19,6.00000000e-12,7.02316098e-17,6.00000000e-12,1.04989715e-16,6.00000000e-12,1.15108548e-19,6.00000000e-12,2.11077984e-12,6.00000000e-12,6.88299793e-01,6.00000000e-12,3.31389064e-02,6.00000000e-12,2.77021166e-01,6.00000000e-12,2.77021166e-01,6.00000000e-12,4.73758551e+11,6.00000000e-12,2.07713147e+05,6.00000000e-12,3.30585741e+04,6.00000000e-12,3.12245624e+01,1.0,.500,sky130
6.25000000e-12,1.86439255e-10,6.25000000e-12,5.97131089e-12,6.25000000e-12,8.61034976e-16,6.25000000e-12,-1.16991857e-16,6.25000000e-12,1.24400934e-19,6.25000000e-12,7.10774510e-17,6.25000000e-12,1.06255119e-16,6.25000000e-12,1.11919667e-19,6.25000000e-12,2.19645185e-12,6.25000000e-12,6.88294067e-01,6.25000000e-12,3.31389255e-02,6.25000000e-12,2.78363561e-01,6.25000000e-12,2.78363561e-01,6.25000000e-12,4.55279728e+11,6.25000000e-12,2.16529247e+05,6.25000000e-12,3.44617000e+04,6.25000000e-12,3.12225002e+01,1.0,.500,sky130
6.50000000e-12,1.94184687e-10,6.50000000e-12,6.21978606e-12,6.50000000e-12,8.61693563e-16,6.50000000e-12,-1.18492462e-16,6.50000000e-12,1.29620008e-19,6.50000000e-12,7.19002406e-17,6.50000000e-12,1.07486061e-16,6.50000000e-12,1.08843420e-19,6.50000000e-12,2.28213704e-12,6.50000000e-12,6.88288561e-01,6.50000000e-12,3.31389446e-02,6.50000000e-12,2.79654175e-01,6.50000000e-12,2.79654175e-01,6.50000000e-12,4.38185780e+11,6.50000000e-12,2.25352370e+05,6.50000000e-12,3.58659437e+04,6.50000000e-12,3.12204769e+01,1.0,.500,sky130
6.75000000e-12,2.01965166e-10,6.75000000e-12,6.46940948e-12,6.75000000e-12,8.62345431e-16,6.75000000e-12,-1.19959963e-16,6.75000000e-12,1.34706184e-19,6.75000000e-12,7.27034423e-17,6.75000000e-12,1.08687720e-16,6.75000000e-12,1.05863867e-19,6.75000000e-12,2.36805381e-12,6.75000000e-12,6.88283246e-01,6.75000000e-12,3.31389637e-02,6.75000000e-12,2.80899960e-01,6.75000000e-12,2.80899960e-01,6.75000000e-12,4.22287702e+11,6.75000000e-12,2.34204483e+05,6.75000000e-12,3.72748012e+04,6.75000000e-12,3.12184855e+01,1.0,.500,sky130
7.00000000e-12,2.09715017e-10,7.00000000e-12,6.71807364e-12,7.00000000e-12,8.62985355e-16,7.00000000e-12,-1.21384431e-16,7.00000000e-12,1.39627163e-19,7.00000000e-12,7.34817546e-17,7.00000000e-12,1.09852162e-16,7.00000000e-12,1.02997869e-19,7.00000000e-12,2.45348412e-12,7.00000000e-12,6.88278152e-01,7.00000000e-12,3.31389827e-02,7.00000000e-12,2.82094161e-01,7.00000000e-12,2.82094161e-01,7.00000000e-12,4.07583645e+11,7.00000000e-12,2.43011096e+05,7.00000000e-12,3.86764171e+04,7.00000000e-12,3.12165403e+01,1.0,.500,sky130
7.25000000e-12,2.17468346e-10,7.25000000e-12,6.96687234e-12,7.25000000e-12,8.63616485e-16,7.25000000e-12,-1.22774576e-16,7.25000000e-12,1.44414994e-19,7.25000000e-12,7.42400659e-17,7.25000000e-12,1.10986700e-16,7.25000000e-12,1.00224840e-19,7.25000000e-12,2.53881146e-12,7.25000000e-12,6.88273239e-01,7.25000000e-12,3.31390017e-02,7.25000000e-12,2.83245665e-01,7.25000000e-12,2.83245665e-01,7.25000000e-12,3.93885098e+11,7.25000000e-12,2.51811250e+05,7.25000000e-12,4.00770051e+04,7.25000000e-12,3.12146306e+01,1.0,.500,sky130
7.50000000e-12,2.25208766e-10,7.50000000e-12,7.21527919e-12,7.50000000e-12,8.64237779e-16,7.50000000e-12,-1.24129553e-16,7.50000000e-12,1.49068425e-19,7.50000000e-12,7.49780264e-17,7.50000000e-12,1.12090806e-16,7.50000000e-12,9.75438618e-20,7.50000000e-12,2.62386189e-12,7.50000000e-12,6.88268506e-01,7.50000000e-12,3.31390206e-02,7.50000000e-12,2.84355133e-01,7.50000000e-12,2.84355133e-01,7.50000000e-12,3.81117621e+11,7.50000000e-12,2.60586579e+05,7.50000000e-12,4.14736421e+04,7.50000000e-12,3.12127584e+01,1.0,.500,sky130
7.75000000e-12,2.32982033e-10,7.75000000e-12,7.46476238e-12,7.75000000e-12,8.64853146e-16,7.75000000e-12,-1.25459103e-16,7.75000000e-12,1.53622307e-19,7.75000000e-12,7.57010362e-17,7.75000000e-12,1.13172560e-16,7.75000000e-12,9.49334606e-20,7.75000000e-12,2.70914339e-12,7.75000000e-12,6.88263913e-01,7.75000000e-12,3.31390396e-02,7.75000000e-12,2.85431699e-01,7.75000000e-12,2.85431699e-01,7.75000000e-12,3.69120366e+11,7.75000000e-12,2.69389126e+05,7.75000000e-12,4.28746111e+04,7.75000000e-12,3.12109109e+01,1.0,.500,sky130
8.00000000e-12,2.40725194e-10,8.00000000e-12,7.71330101e-12,8.00000000e-12,8.65457858e-16,8.00000000e-12,-1.26754130e-16,8.00000000e-12,1.58046759e-19,8.00000000e-12,7.64042386e-17,8.00000000e-12,1.14224693e-16,8.00000000e-12,9.24094798e-20,8.00000000e-12,2.79397050e-12,8.00000000e-12,6.88259488e-01,8.00000000e-12,3.31390585e-02,8.00000000e-12,2.86469075e-01,8.00000000e-12,2.86469075e-01,8.00000000e-12,3.57913586e+11,8.00000000e-12,2.78147795e+05,8.00000000e-12,4.42685964e+04,8.00000000e-12,3.12091015e+01,1.0,.500,sky130
8.25000000e-12,2.48470730e-10,8.25000000e-12,7.96193717e-12,8.25000000e-12,8.66054747e-16,8.25000000e-12,-1.28021769e-16,8.25000000e-12,1.62367356e-19,8.25000000e-12,7.70915953e-17,8.25000000e-12,1.15253132e-16,8.25000000e-12,8.99561047e-20,8.25000000e-12,2.87870461e-12,8.25000000e-12,6.88255201e-01,8.25000000e-12,3.31390773e-02,8.25000000e-12,2.87474016e-01,8.25000000e-12,2.87474016e-01,8.25000000e-12,3.47378468e+11,8.25000000e-12,2.86899565e+05,8.25000000e-12,4.56614839e+04,8.25000000e-12,3.12073211e+01,1.0,.500,sky130
8.50000000e-12,2.56243033e-10,8.50000000e-12,8.21145371e-12,8.50000000e-12,8.66645890e-16,8.50000000e-12,-1.29267281e-16,8.50000000e-12,1.66602989e-19,8.50000000e-12,7.77660287e-17,8.50000000e-12,1.16262247e-16,8.50000000e-12,8.75616242e-20,8.50000000e-12,2.96361650e-12,8.50000000e-12,6.88251031e-01,8.50000000e-12,3.31390962e-02,8.50000000e-12,2.88451524e-01,8.50000000e-12,2.88451524e-01,8.50000000e-12,3.37425575e+11,8.50000000e-12,2.95672126e+05,8.50000000e-12,4.70576804e+04,8.50000000e-12,3.12055626e+01,1.0,.500,sky130
8.75000000e-12,2.64016253e-10,8.75000000e-12,8.46102049e-12,8.75000000e-12,8.67229516e-16,8.75000000e-12,-1.30487698e-16,8.75000000e-12,1.70744431e-19,8.75000000e-12,7.84259960e-17,8.75000000e-12,1.17249730e-16,8.75000000e-12,8.52303610e-20,8.75000000e-12,3.04842740e-12,8.75000000e-12,6.88246984e-01,8.75000000e-12,3.31391150e-02,8.75000000e-12,2.89400028e-01,8.75000000e-12,2.89400028e-01,8.75000000e-12,3.28037991e+11,8.75000000e-12,3.04436425e+05,8.75000000e-12,4.84525619e+04,8.75000000e-12,3.12038310e+01,1.0,.500,sky130
9.00000000e-12,2.71751130e-10,9.00000000e-12,8.70937655e-12,9.00000000e-12,8.67802955e-16,9.00000000e-12,-1.31678242e-16,9.00000000e-12,1.74776355e-19,9.00000000e-12,7.90689838e-17,9.00000000e-12,1.18211818e-16,9.00000000e-12,8.29700126e-20,9.00000000e-12,3.13271372e-12,9.00000000e-12,6.88243074e-01,9.00000000e-12,3.31391337e-02,9.00000000e-12,2.90316621e-01,9.00000000e-12,2.90316621e-01,9.00000000e-12,3.19212060e+11,9.00000000e-12,3.13148426e+05,9.00000000e-12,4.98391199e+04,9.00000000e-12,3.12021335e+01,1.0,.500,sky130
9.25000000e-12,2.79514389e-10,9.25000000e-12,8.95866406e-12,9.25000000e-12,8.68371384e-16,9.25000000e-12,-1.32850349e-16,9.25000000e-12,1.78738243e-19,9.25000000e-12,7.97012279e-17,9.25000000e-12,1.19157841e-16,9.25000000e-12,8.07576459e-20,9.25000000e-12,3.21720653e-12,9.25000000e-12,6.88239259e-01,9.25000000e-12,3.31391525e-02,9.25000000e-12,2.91210800e-01,9.25000000e-12,2.91210800e-01,9.25000000e-12,3.10828662e+11,9.25000000e-12,3.21883464e+05,9.25000000e-12,5.12293443e+04,9.25000000e-12,3.12004543e+01,1.0,.500,sky130
9.50000000e-12,2.87280762e-10,9.50000000e-12,9.20807144e-12,9.50000000e-12,8.68933117e-16,9.50000000e-12,-1.34001103e-16,9.50000000e-12,1.82620866e-19,9.50000000e-12,8.03212049e-17,9.50000000e-12,1.20085520e-16,9.50000000e-12,7.85977562e-20,9.50000000e-12,3.30163367e-12,9.50000000e-12,6.88235547e-01,9.50000000e-12,3.31391713e-02,9.50000000e-12,2.92080909e-01,9.50000000e-12,2.92080909e-01,9.50000000e-12,3.02880361e+11,9.50000000e-12,3.30613204e+05,9.50000000e-12,5.26187257e+04,9.50000000e-12,3.11987982e+01,1.0,.500,sky130
9.75000000e-12,2.95018219e-10,9.75000000e-12,9.45656972e-12,9.75000000e-12,8.69486070e-16,9.75000000e-12,-1.35126827e-16,9.75000000e-12,1.86412456e-19,9.75000000e-12,8.09269874e-17,9.75000000e-12,1.20991968e-16,9.75000000e-12,7.64961981e-20,9.75000000e-12,3.38565073e-12,9.75000000e-12,6.88231947e-01,9.75000000e-12,3.31391900e-02,9.75000000e-12,2.92924776e-01,9.75000000e-12,2.92924776e-01,9.75000000e-12,2.95364194e+11,9.75000000e-12,3.39301836e+05,9.75000000e-12,5.40015643e+04,9.75000000e-12,3.11971707e+01,1.0,.500,sky130
1.00000000e-11,3.02774687e-10,1.00000000e-11,9.70569782e-12,1.00000000e-11,8.70033871e-16,1.00000000e-11,-1.36235430e-16,1.00000000e-11,1.90140214e-19,1.00000000e-11,8.15228784e-17,1.00000000e-11,1.21883624e-16,1.00000000e-11,7.44372855e-20,1.00000000e-11,3.46978140e-12,1.00000000e-11,6.88228432e-01,1.00000000e-11,3.31392087e-02,1.00000000e-11,2.93748865e-01,1.00000000e-11,2.93748865e-01,1.00000000e-11,2.88202594e+11,1.00000000e-11,3.48003334e+05,1.00000000e-11,5.53864507e+04,1.00000000e-11,3.11955609e+01,1.0,.500,sky130
