isweep,gm,i_id,id,i_cgg,cgg,i_cgs,cgs,i_cgd,cgd,i_cds,cds,i_css,css,i_cdd,cdd,i_gds,gds,i_vth,vth,i_vdsat,vdsat,i_vgs,vgs,i_vds,vds,i_rds,rds,i_wt,wt,i_ft,ft,i_kgm,kgm,W,L,pdk
1.00000000e-12,2.55672192e-11,1.00000000e-12,8.11900588e-13,1.00000000e-12,8.65621114e-16,1.00000000e-12,-6.40763833e-17,1.00000000e-12,-1.78915945e-19,1.00000000e-12,4.05250735e-17,1.00000000e-12,6.05982987e-17,1.00000000e-12,4.08510820e-19,1.00000000e-12,4.15941986e-13,1.00000000e-12,6.61906082e-01,1.00000000e-12,3.33641457e-02,1.00000000e-12,1.87786732e-01,1.00000000e-12,1.87786732e-01,1.00000000e-12,2.40418143e+12,1.00000000e-12,2.95362703e+04,1.00000000e-12,4.70084341e+03,1.00000000e-12,3.14905785e+01,1.0,.500,sky130
1.25000000e-12,3.32040000e-11,1.25000000e-12,1.05457076e-12,1.25000000e-12,8.65772009e-16,1.25000000e-12,-6.91848788e-17,1.25000000e-12,-1.42290164e-19,1.25000000e-12,4.35722924e-17,1.25000000e-12,6.51420404e-17,1.25000000e-12,3.74595256e-19,1.25000000e-12,5.23135142e-13,1.25000000e-12,6.61865131e-01,1.25000000e-12,3.33641684e-02,1.25000000e-12,1.95960934e-01,1.25000000e-12,1.95960934e-01,1.25000000e-12,1.91155195e+12,1.25000000e-12,3.83518982e+04,1.25000000e-12,6.10389418e+03,1.25000000e-12,3.14857960e+01,1.0,.500,sky130
1.50000000e-12,4.09083335e-11,1.50000000e-12,1.29943986e-12,1.50000000e-12,8.66205991e-16,1.50000000e-12,-7.36079657e-17,1.50000000e-12,-1.13407764e-19,1.50000000e-12,4.61801852e-17,1.50000000e-12,6.90329905e-17,1.50000000e-12,3.49061370e-19,1.50000000e-12,6.29438557e-13,1.50000000e-12,6.61832416e-01,1.50000000e-12,3.33641898e-02,1.50000000e-12,2.02491258e-01,1.50000000e-12,2.02491258e-01,1.50000000e-12,1.58871742e+12,1.50000000e-12,4.72270268e+04,1.50000000e-12,7.51641476e+03,1.50000000e-12,3.14815136e+01,1.0,.500,sky130
1.75000000e-12,4.85739173e-11,1.75000000e-12,1.54312425e-12,1.75000000e-12,8.66785659e-16,1.75000000e-12,-7.74958676e-17,1.75000000e-12,-8.96800564e-20,1.75000000e-12,4.84510900e-17,1.75000000e-12,7.24225150e-17,1.75000000e-12,3.28882382e-19,1.75000000e-12,7.33805096e-13,1.75000000e-12,6.61805474e-01,1.75000000e-12,3.33642100e-02,1.75000000e-12,2.07869181e-01,1.75000000e-12,2.07869181e-01,1.75000000e-12,1.36275968e+12,1.75000000e-12,5.60391335e+04,1.75000000e-12,8.91890510e+03,1.75000000e-12,3.14776450e+01,1.0,.500,sky130
2.00000000e-12,5.62785257e-11,2.00000000e-12,1.78809237e-12,2.00000000e-12,8.67450950e-16,2.00000000e-12,-8.10172715e-17,2.00000000e-12,-6.92670993e-20,2.00000000e-12,5.04918176e-17,2.00000000e-12,7.54693706e-17,2.00000000e-12,3.12087272e-19,2.00000000e-12,8.37572861e-13,2.00000000e-12,6.61782370e-01,2.00000000e-12,3.33642296e-02,2.00000000e-12,2.12481085e-01,2.00000000e-12,2.12481085e-01,2.00000000e-12,1.19392598e+12,2.00000000e-12,6.48780496e+04,2.00000000e-12,1.03256623e+04,2.00000000e-12,3.14740596e+01,1.0,.500,sky130
2.25000000e-12,6.40018101e-11,2.25000000e-12,2.03369458e-12,2.25000000e-12,8.68164962e-16,2.25000000e-12,-8.42430163e-17,2.25000000e-12,-5.13164898e-20,2.25000000e-12,5.23485767e-17,2.25000000e-12,7.82421825e-17,2.25000000e-12,2.97737843e-19,2.25000000e-12,9.40649706e-13,2.25000000e-12,6.61762181e-01,2.25000000e-12,3.33642487e-02,2.25000000e-12,2.16510936e-01,2.25000000e-12,2.16510936e-01,2.25000000e-12,1.06309500e+12,2.25000000e-12,7.37207938e+04,2.25000000e-12,1.17330287e+04,2.25000000e-12,3.14707090e+01,1.0,.500,sky130
2.50000000e-12,7.17431173e-11,2.50000000e-12,2.27990783e-12,2.50000000e-12,8.68906821e-16,2.50000000e-12,-8.72294469e-17,2.50000000e-12,-3.52417614e-20,2.50000000e-12,5.40573949e-17,2.50000000e-12,8.07945255e-17,2.50000000e-12,2.85210570e-19,2.50000000e-12,1.04316317e-12,2.50000000e-12,6.61744250e-01,2.50000000e-12,3.33642674e-02,2.50000000e-12,2.20090137e-01,2.50000000e-12,2.20090137e-01,2.50000000e-12,9.58622803e+11,2.50000000e-12,8.25671011e+04,2.50000000e-12,1.31409623e+04,2.50000000e-12,3.14675517e+01,1.0,.500,sky130
2.75000000e-12,7.95076808e-11,2.75000000e-12,2.52689672e-12,2.75000000e-12,8.69664232e-16,2.75000000e-12,-9.00194188e-17,2.75000000e-12,-2.06352767e-20,2.75000000e-12,5.56453725e-17,2.75000000e-12,8.31667289e-17,2.75000000e-12,2.74082724e-19,2.75000000e-12,1.14528527e-12,2.75000000e-12,6.61728108e-01,2.75000000e-12,3.33642858e-02,2.75000000e-12,2.23312326e-01,2.75000000e-12,2.23312326e-01,2.75000000e-12,8.73144910e+11,2.75000000e-12,9.14234228e+04,2.75000000e-12,1.45504896e+04,2.75000000e-12,3.14645550e+01,1.0,.500,sky130
3.00000000e-12,8.72595062e-11,3.00000000e-12,2.77351454e-12,3.00000000e-12,8.70425503e-16,3.00000000e-12,-9.26316362e-17,3.00000000e-12,-7.27668596e-21,3.00000000e-12,5.71251177e-17,3.00000000e-12,8.53775242e-17,3.00000000e-12,2.64110771e-19,3.00000000e-12,1.24662638e-12,3.00000000e-12,6.61713490e-01,3.00000000e-12,3.33643039e-02,3.00000000e-12,2.26230228e-01,3.00000000e-12,2.26230228e-01,3.00000000e-12,8.02164959e+11,3.00000000e-12,1.00249253e+05,3.00000000e-12,1.59551641e+04,3.00000000e-12,3.14617086e+01,1.0,.500,sky130
3.25000000e-12,9.50490500e-11,3.25000000e-12,3.02136509e-12,3.25000000e-12,8.71190266e-16,3.25000000e-12,-9.51071601e-17,3.25000000e-12,5.13007196e-21,3.25000000e-12,5.85213803e-17,3.25000000e-12,8.74638151e-17,3.25000000e-12,2.55018667e-19,3.25000000e-12,1.34791189e-12,3.25000000e-12,6.61700051e-01,3.25000000e-12,3.33643218e-02,3.25000000e-12,2.28912723e-01,3.25000000e-12,2.28912723e-01,3.25000000e-12,7.41888256e+11,3.25000000e-12,1.09102516e+05,3.25000000e-12,1.73642047e+04,3.25000000e-12,3.14589754e+01,1.0,.500,sky130
3.50000000e-12,1.02824997e-10,3.50000000e-12,3.26881438e-12,3.50000000e-12,8.71949974e-16,3.50000000e-12,-9.74486209e-17,3.50000000e-12,1.66608107e-20,3.50000000e-12,5.98368090e-17,3.50000000e-12,8.94295056e-17,3.50000000e-12,2.46709578e-19,3.50000000e-12,1.44852806e-12,3.50000000e-12,6.61687690e-01,3.50000000e-12,3.33643396e-02,3.50000000e-12,2.31380213e-01,3.50000000e-12,2.31380213e-01,3.50000000e-12,6.90355973e+11,3.50000000e-12,1.17925340e+05,3.50000000e-12,1.87684008e+04,3.50000000e-12,3.14563586e+01,1.0,.500,sky130
3.75000000e-12,1.10591292e-10,3.75000000e-12,3.51598654e-12,3.75000000e-12,8.72702723e-16,3.75000000e-12,-9.96735405e-17,3.75000000e-12,2.74504428e-20,3.75000000e-12,6.10822245e-17,3.75000000e-12,9.12907230e-17,3.75000000e-12,2.39053309e-19,3.75000000e-12,1.54857456e-12,3.75000000e-12,6.61676241e-01,3.75000000e-12,3.33643571e-02,3.75000000e-12,2.33665477e-01,3.75000000e-12,2.33665477e-01,3.75000000e-12,6.45755151e+11,3.75000000e-12,1.26722753e+05,3.75000000e-12,2.01685525e+04,3.75000000e-12,3.14538438e+01,1.0,.500,sky130
4.00000000e-12,1.18391557e-10,4.00000000e-12,3.76426899e-12,4.00000000e-12,8.73451186e-16,4.00000000e-12,-1.01806841e-16,4.00000000e-12,3.76556622e-20,4.00000000e-12,6.22723324e-17,4.00000000e-12,9.30694132e-17,4.00000000e-12,2.31913811e-19,4.00000000e-12,1.64865056e-12,4.00000000e-12,6.61665522e-01,4.00000000e-12,3.33643745e-02,4.00000000e-12,2.35805007e-01,4.00000000e-12,2.35805007e-01,4.00000000e-12,6.06556674e+11,4.00000000e-12,1.35544560e+05,4.00000000e-12,2.15725867e+04,4.00000000e-12,3.14514071e+01,1.0,.500,sky130
4.25000000e-12,1.26181679e-10,4.25000000e-12,4.01225675e-12,4.25000000e-12,8.74190109e-16,4.25000000e-12,-1.03846749e-16,4.25000000e-12,4.72959059e-20,4.25000000e-12,6.34067654e-17,4.25000000e-12,9.47650025e-17,4.25000000e-12,2.25257682e-19,4.25000000e-12,1.74822173e-12,4.25000000e-12,6.61655499e-01,4.25000000e-12,3.33643918e-02,4.25000000e-12,2.37805823e-01,4.25000000e-12,2.37805823e-01,4.25000000e-12,5.72009822e+11,4.25000000e-12,1.44341234e+05,4.25000000e-12,2.29726209e+04,4.25000000e-12,3.14490540e+01,1.0,.500,sky130
4.50000000e-12,1.33968804e-10,4.50000000e-12,4.26017632e-12,4.50000000e-12,8.74919575e-16,4.50000000e-12,-1.05804393e-16,4.50000000e-12,5.64467236e-20,4.50000000e-12,6.44922559e-17,4.50000000e-12,9.63875333e-17,4.50000000e-12,2.19016111e-19,4.50000000e-12,1.84740918e-12,4.50000000e-12,6.61646078e-01,4.50000000e-12,3.33644090e-02,4.50000000e-12,2.39686368e-01,4.50000000e-12,2.39686368e-01,4.50000000e-12,5.41298598e+11,4.50000000e-12,1.53121279e+05,4.50000000e-12,2.43700085e+04,4.50000000e-12,3.14467746e+01,1.0,.500,sky130
4.75000000e-12,1.41777306e-10,4.75000000e-12,4.50880295e-12,4.75000000e-12,8.75641477e-16,4.75000000e-12,-1.07693303e-16,4.75000000e-12,6.51892816e-20,4.75000000e-12,6.55367487e-17,4.75000000e-12,9.79488649e-17,4.75000000e-12,2.13120526e-19,4.75000000e-12,1.94654731e-12,4.75000000e-12,6.61637164e-01,4.75000000e-12,3.33644261e-02,4.75000000e-12,2.41465668e-01,4.75000000e-12,2.41465668e-01,4.75000000e-12,5.13730129e+11,4.75000000e-12,1.61912506e+05,4.75000000e-12,2.57691756e+04,4.75000000e-12,3.14445557e+01,1.0,.500,sky130
5.00000000e-12,1.49571308e-10,5.00000000e-12,4.75699366e-12,5.00000000e-12,8.76352309e-16,5.00000000e-12,-1.09511288e-16,5.00000000e-12,7.35281845e-20,5.00000000e-12,6.65394131e-17,5.00000000e-12,9.94477422e-17,5.00000000e-12,2.07556746e-19,5.00000000e-12,2.04520223e-12,5.00000000e-12,6.61628742e-01,5.00000000e-12,3.33644431e-02,5.00000000e-12,2.43146777e-01,5.00000000e-12,2.43146777e-01,5.00000000e-12,4.88949203e+11,5.00000000e-12,1.70674860e+05,5.00000000e-12,2.71637477e+04,5.00000000e-12,3.14424022e+01,1.0,.500,sky130
5.25000000e-12,1.57357426e-10,5.25000000e-12,5.00495827e-12,5.25000000e-12,8.77052669e-16,5.25000000e-12,-1.11265858e-16,5.25000000e-12,8.15104304e-20,5.25000000e-12,6.75047327e-17,5.25000000e-12,1.00890856e-16,5.25000000e-12,2.02283818e-19,5.25000000e-12,2.14347834e-12,5.25000000e-12,6.61620755e-01,5.25000000e-12,3.33644600e-02,5.25000000e-12,2.44741144e-01,5.25000000e-12,2.44741144e-01,5.25000000e-12,4.66531423e+11,5.25000000e-12,1.79416165e+05,5.25000000e-12,2.85549695e+04,5.25000000e-12,3.14403073e+01,1.0,.500,sky130
5.50000000e-12,1.65162251e-10,5.50000000e-12,5.25354305e-12,5.50000000e-12,8.77744970e-16,5.50000000e-12,-1.12967833e-16,5.50000000e-12,8.91953032e-20,5.50000000e-12,6.84389429e-17,5.50000000e-12,1.02287520e-16,5.50000000e-12,1.97254794e-19,5.50000000e-12,2.24172796e-12,5.50000000e-12,6.61613134e-01,5.50000000e-12,3.33644768e-02,5.50000000e-12,2.46262278e-01,5.50000000e-12,2.46262278e-01,5.50000000e-12,4.46084457e+11,5.50000000e-12,1.88166559e+05,5.50000000e-12,2.99476380e+04,5.50000000e-12,3.14382597e+01,1.0,.500,sky130
5.75000000e-12,1.72989432e-10,5.75000000e-12,5.50286383e-12,5.75000000e-12,8.78429566e-16,5.75000000e-12,-1.14621938e-16,5.75000000e-12,9.66122773e-20,5.75000000e-12,6.93448708e-17,5.75000000e-12,1.03641951e-16,5.75000000e-12,1.92443999e-19,5.75000000e-12,2.34001049e-12,5.75000000e-12,6.61605844e-01,5.75000000e-12,3.33644937e-02,5.75000000e-12,2.47717433e-01,5.75000000e-12,2.47717433e-01,5.75000000e-12,4.27348511e+11,5.75000000e-12,1.96930338e+05,5.75000000e-12,3.13424368e+04,5.75000000e-12,3.14362552e+01,1.0,.500,sky130
6.00000000e-12,1.80767003e-10,6.00000000e-12,5.75062761e-12,6.00000000e-12,8.79100363e-16,6.00000000e-12,-1.16217068e-16,6.00000000e-12,1.03719080e-19,6.00000000e-12,7.02166651e-17,6.00000000e-12,1.04945396e-16,6.00000000e-12,1.87872853e-19,6.00000000e-12,2.43743744e-12,6.00000000e-12,6.61598919e-01,6.00000000e-12,3.33645104e-02,6.00000000e-12,2.49099749e-01,6.00000000e-12,2.49099749e-01,6.00000000e-12,4.10266940e+11,6.00000000e-12,2.05627265e+05,6.00000000e-12,3.27265957e+04,6.00000000e-12,3.14343086e+01,1.0,.500,sky130
6.25000000e-12,1.88577524e-10,6.25000000e-12,5.99946379e-12,6.25000000e-12,8.79764692e-16,6.25000000e-12,-1.17773722e-16,6.25000000e-12,1.10613382e-19,6.25000000e-12,7.10657286e-17,6.25000000e-12,1.06214896e-16,6.25000000e-12,1.83473406e-19,6.25000000e-12,2.53505627e-12,6.25000000e-12,6.61592257e-01,6.25000000e-12,3.33645270e-02,6.25000000e-12,2.50429494e-01,6.25000000e-12,2.50429494e-01,6.25000000e-12,3.94468561e+11,6.25000000e-12,2.14349957e+05,6.25000000e-12,3.41148552e+04,6.25000000e-12,3.14323963e+01,1.0,.500,sky130
6.50000000e-12,1.96392143e-10,6.50000000e-12,6.24845290e-12,6.50000000e-12,8.80420236e-16,6.50000000e-12,-1.19288874e-16,6.50000000e-12,1.17286822e-19,6.50000000e-12,7.18905724e-17,6.50000000e-12,1.07448222e-16,6.50000000e-12,1.79246895e-19,6.50000000e-12,2.63251622e-12,6.50000000e-12,6.61585862e-01,6.50000000e-12,3.33645437e-02,6.50000000e-12,2.51706086e-01,6.50000000e-12,2.51706086e-01,6.50000000e-12,3.79864705e+11,6.50000000e-12,2.23066366e+05,6.50000000e-12,3.55021148e+04,6.50000000e-12,3.14305230e+01,1.0,.500,sky130
6.75000000e-12,2.04183322e-10,6.75000000e-12,6.49671699e-12,6.75000000e-12,8.81064929e-16,6.75000000e-12,-1.20760065e-16,6.75000000e-12,1.23733302e-19,6.75000000e-12,7.26900165e-17,6.75000000e-12,1.08643603e-16,6.75000000e-12,1.75193262e-19,6.75000000e-12,2.72948499e-12,6.75000000e-12,6.61579733e-01,6.75000000e-12,3.33645602e-02,6.75000000e-12,2.52929404e-01,6.75000000e-12,2.52929404e-01,6.75000000e-12,3.66369481e+11,6.75000000e-12,2.31746056e+05,6.75000000e-12,3.68835303e+04,6.75000000e-12,3.14286928e+01,1.0,.500,sky130
7.00000000e-12,2.11993411e-10,7.00000000e-12,6.74560505e-12,7.00000000e-12,8.81702507e-16,7.00000000e-12,-1.22197781e-16,7.00000000e-12,1.30002802e-19,7.00000000e-12,7.34698982e-17,7.00000000e-12,1.09809765e-16,7.00000000e-12,1.71277709e-19,7.00000000e-12,2.82649928e-12,7.00000000e-12,6.61573820e-01,7.00000000e-12,3.33645768e-02,7.00000000e-12,2.54109854e-01,7.00000000e-12,2.54109854e-01,7.00000000e-12,3.53794536e+11,7.00000000e-12,2.40436439e+05,7.00000000e-12,3.82666478e+04,7.00000000e-12,3.14268935e+01,1.0,.500,sky130
7.25000000e-12,2.19803072e-10,7.25000000e-12,6.99450052e-12,7.25000000e-12,8.82331582e-16,7.25000000e-12,-1.23600551e-16,7.25000000e-12,1.36092304e-19,7.25000000e-12,7.42295388e-17,7.25000000e-12,1.10945689e-16,7.25000000e-12,1.67499261e-19,7.25000000e-12,2.92332691e-12,7.25000000e-12,6.61568120e-01,7.25000000e-12,3.33645933e-02,7.25000000e-12,2.55247665e-01,7.25000000e-12,2.55247665e-01,7.25000000e-12,3.42076009e+11,7.25000000e-12,2.49116179e+05,7.25000000e-12,3.96480713e+04,7.25000000e-12,3.14251277e+01,1.0,.500,sky130
7.50000000e-12,2.27604809e-10,7.50000000e-12,7.24316406e-12,7.50000000e-12,8.82951788e-16,7.50000000e-12,-1.24969098e-16,7.50000000e-12,1.42008062e-19,7.50000000e-12,7.49694434e-17,7.50000000e-12,1.12052127e-16,7.50000000e-12,1.63851377e-19,7.50000000e-12,3.01988322e-12,7.50000000e-12,6.61562623e-01,7.50000000e-12,3.33646097e-02,7.50000000e-12,2.56344777e-01,7.50000000e-12,2.56344777e-01,7.50000000e-12,3.31138633e+11,7.50000000e-12,2.57777165e+05,7.50000000e-12,4.10265100e+04,7.50000000e-12,3.14233954e+01,1.0,.500,sky130
7.75000000e-12,2.35427139e-10,7.75000000e-12,7.49250436e-12,7.75000000e-12,8.83565596e-16,7.75000000e-12,-1.26310182e-16,7.75000000e-12,1.47781966e-19,7.75000000e-12,7.56933665e-17,7.75000000e-12,1.13134692e-16,7.75000000e-12,1.60312103e-19,7.75000000e-12,3.11652815e-12,7.75000000e-12,6.61557298e-01,7.75000000e-12,3.33646261e-02,7.75000000e-12,2.57407781e-01,7.75000000e-12,2.57407781e-01,7.75000000e-12,3.20869876e+11,7.75000000e-12,2.66451230e+05,7.75000000e-12,4.24070303e+04,7.75000000e-12,3.14216887e+01,1.0,.500,sky130
8.00000000e-12,2.43242138e-10,8.00000000e-12,7.74163091e-12,8.00000000e-12,8.84171013e-16,8.00000000e-12,-1.27620616e-16,8.00000000e-12,1.53402648e-19,8.00000000e-12,7.63996771e-17,8.00000000e-12,1.14190941e-16,8.00000000e-12,1.56886364e-19,8.00000000e-12,3.21292309e-12,8.00000000e-12,6.61552151e-01,8.00000000e-12,3.33646425e-02,8.00000000e-12,2.58435201e-01,8.00000000e-12,2.58435201e-01,8.00000000e-12,3.11243055e+11,8.00000000e-12,2.75107569e+05,8.00000000e-12,4.37847295e+04,8.00000000e-12,3.14200122e+01,1.0,.500,sky130
8.25000000e-12,2.51067172e-10,8.25000000e-12,7.99109709e-12,8.25000000e-12,8.84769595e-16,8.25000000e-12,-1.28904840e-16,8.25000000e-12,1.58891292e-19,8.25000000e-12,7.70908521e-17,8.25000000e-12,1.15224578e-16,8.25000000e-12,1.53559371e-19,8.25000000e-12,3.30928858e-12,8.25000000e-12,6.61547160e-01,8.25000000e-12,3.33646589e-02,8.25000000e-12,2.59431492e-01,8.25000000e-12,2.59431492e-01,8.25000000e-12,3.02179752e+11,8.25000000e-12,2.83765597e+05,8.25000000e-12,4.51626974e+04,8.25000000e-12,3.14183608e+01,1.0,.500,sky130
8.50000000e-12,2.58871276e-10,8.50000000e-12,8.23991532e-12,8.50000000e-12,8.85359198e-16,8.50000000e-12,-1.30159240e-16,8.50000000e-12,1.64234413e-19,8.50000000e-12,7.77650259e-17,8.50000000e-12,1.16232809e-16,8.50000000e-12,1.50337564e-19,8.50000000e-12,3.40524947e-12,8.50000000e-12,6.61542334e-01,8.50000000e-12,3.33646752e-02,8.50000000e-12,2.60394759e-01,8.50000000e-12,2.60394759e-01,8.50000000e-12,2.93664241e+11,8.50000000e-12,2.92391242e+05,8.50000000e-12,4.65355115e+04,8.50000000e-12,3.14167398e+01,1.0,.500,sky130
8.75000000e-12,2.66688364e-10,8.75000000e-12,8.48916657e-12,8.75000000e-12,8.85942600e-16,8.75000000e-12,-1.31390609e-16,8.75000000e-12,1.69462691e-19,8.75000000e-12,7.84259213e-17,8.75000000e-12,1.17221201e-16,8.75000000e-12,1.47200884e-19,8.75000000e-12,3.50122852e-12,8.75000000e-12,6.61537643e-01,8.75000000e-12,3.33646915e-02,8.75000000e-12,2.61331043e-01,8.75000000e-12,2.61331043e-01,8.75000000e-12,2.85614034e+11,8.75000000e-12,3.01022170e+05,8.75000000e-12,4.79091663e+04,8.75000000e-12,3.14151409e+01,1.0,.500,sky130
9.00000000e-12,2.74475570e-10,9.00000000e-12,8.73748369e-12,9.00000000e-12,8.86516820e-16,9.00000000e-12,-1.32593468e-16,9.00000000e-12,1.74554458e-19,9.00000000e-12,7.90706658e-17,9.00000000e-12,1.18185456e-16,9.00000000e-12,1.44160896e-19,9.00000000e-12,3.59670499e-12,9.00000000e-12,6.61533105e-01,9.00000000e-12,3.33647078e-02,9.00000000e-12,2.62236939e-01,9.00000000e-12,2.62236939e-01,9.00000000e-12,2.78032255e+11,9.00000000e-12,3.09611238e+05,9.00000000e-12,4.92761590e+04,9.00000000e-12,3.14135717e+01,1.0,.500,sky130
9.25000000e-12,2.82280012e-10,9.25000000e-12,8.98636885e-12,9.25000000e-12,8.87085539e-16,9.25000000e-12,-1.33776258e-16,9.25000000e-12,1.79546877e-19,9.25000000e-12,7.97038461e-17,9.25000000e-12,1.19132432e-16,9.25000000e-12,1.41194118e-19,9.25000000e-12,3.69226169e-12,9.25000000e-12,6.61528684e-01,9.25000000e-12,3.33647240e-02,9.25000000e-12,2.63119498e-01,9.25000000e-12,2.63119498e-01,9.25000000e-12,2.70836707e+11,9.25000000e-12,3.18210590e+05,9.25000000e-12,5.06447883e+04,9.25000000e-12,3.14120216e+01,1.0,.500,sky130
9.50000000e-12,2.90115775e-10,9.50000000e-12,9.23627110e-12,9.50000000e-12,8.87649906e-16,9.50000000e-12,-1.34941937e-16,9.50000000e-12,1.84453553e-19,9.50000000e-12,8.03270925e-17,9.50000000e-12,1.20064566e-16,9.50000000e-12,1.38291442e-19,9.50000000e-12,3.78807439e-12,9.50000000e-12,6.61524365e-01,9.50000000e-12,3.33647403e-02,9.50000000e-12,2.63981468e-01,9.50000000e-12,2.63981468e-01,9.50000000e-12,2.63986368e+11,9.50000000e-12,3.26835809e+05,9.50000000e-12,5.20175345e+04,9.50000000e-12,3.14104872e+01,1.0,.500,sky130
9.75000000e-12,2.97928610e-10,9.75000000e-12,9.48546015e-12,9.75000000e-12,8.88206180e-16,9.75000000e-12,-1.36083358e-16,9.75000000e-12,1.89245532e-19,9.75000000e-12,8.09366345e-17,9.75000000e-12,1.20976218e-16,9.75000000e-12,1.35468961e-19,9.75000000e-12,3.88348380e-12,9.75000000e-12,6.61520174e-01,9.75000000e-12,3.33647565e-02,9.75000000e-12,2.64818120e-01,9.75000000e-12,2.64818120e-01,9.75000000e-12,2.57500752e+11,9.75000000e-12,3.35427310e+05,9.75000000e-12,5.33849145e+04,9.75000000e-12,3.14089781e+01,1.0,.500,sky130
1.00000000e-11,3.05717736e-10,1.00000000e-11,9.73391064e-12,1.00000000e-11,8.88754536e-16,1.00000000e-11,-1.37201481e-16,1.00000000e-11,1.93927997e-19,1.00000000e-11,8.15330387e-17,1.00000000e-11,1.21868235e-16,1.00000000e-11,1.32722552e-19,1.00000000e-11,3.97848545e-12,1.00000000e-11,6.61516103e-01,1.00000000e-11,3.33647726e-02,1.00000000e-11,2.65630748e-01,1.00000000e-11,2.65630748e-01,1.00000000e-11,2.51351931e+11,1.00000000e-11,3.43984445e+05,1.00000000e-11,5.47468248e+04,1.00000000e-11,3.14074936e+01,1.0,.500,sky130
