isweep,gm,i_id,id,i_cgg,cgg,i_cgs,cgs,i_cgd,cgd,i_cds,cds,i_css,css,i_cdd,cdd,i_gds,gds,i_vth,vth,i_vdsat,vdsat,i_vgs,vgs,i_vds,vds,i_rds,rds,i_wt,wt,i_ft,ft,i_kgm,kgm,W,L,pdk
1.00000000e-09,2.09310408e-08,1.00000000e-09,9.99268486e-10,1.00000000e-09,2.24749439e-15,1.00000000e-09,-9.13160952e-16,1.00000000e-09,-4.34079551e-19,1.00000000e-09,4.64697678e-16,1.00000000e-09,6.96161255e-16,1.00000000e-09,4.77706227e-19,1.00000000e-09,3.48711395e-11,1.00000000e-09,8.78773315e-01,1.00000000e-09,5.37421390e-02,1.00000000e-09,5.71497788e-01,1.00000000e-09,5.71497788e-01,1.00000000e-09,2.86770096e+10,1.00000000e-09,9.31305586e+06,1.00000000e-09,1.48221888e+06,1.00000000e-09,2.09463634e+01,1.0,1.000,sky130
1.50000000e-09,3.03765310e-08,1.50000000e-09,1.50392379e-09,1.50000000e-09,2.31546018e-15,1.50000000e-09,-1.01888612e-15,1.50000000e-09,-4.46876475e-19,1.50000000e-09,5.15722101e-16,1.50000000e-09,7.72637060e-16,1.50000000e-09,4.91967063e-19,1.50000000e-09,5.08802313e-11,1.50000000e-09,8.78773315e-01,1.50000000e-09,5.39863926e-02,1.50000000e-09,5.91334825e-01,1.50000000e-09,5.91334824e-01,1.50000000e-09,1.96539987e+10,1.50000000e-09,1.31190038e+07,1.50000000e-09,2.08795431e+06,1.50000000e-09,2.01981851e+01,1.0,1.000,sky130
2.00000000e-09,3.94779852e-08,2.00000000e-09,2.00967153e-09,2.00000000e-09,2.37017879e-15,2.00000000e-09,-1.10200072e-15,2.00000000e-09,-4.57210878e-19,2.00000000e-09,5.55636929e-16,2.00000000e-09,8.32463110e-16,2.00000000e-09,5.03469325e-19,2.00000000e-09,6.65111650e-11,2.00000000e-09,8.78773315e-01,2.00000000e-09,5.42288631e-02,2.00000000e-09,6.05862617e-01,2.00000000e-09,6.05862617e-01,2.00000000e-09,1.50350697e+10,2.00000000e-09,1.66561212e+07,2.00000000e-09,2.65090403e+06,2.00000000e-09,1.96439988e+01,1.0,1.000,sky130
2.50000000e-09,4.81155110e-08,2.50000000e-09,2.50372250e-09,2.50000000e-09,2.41561693e-15,2.50000000e-09,-1.16994835e-15,2.50000000e-09,-4.65800551e-19,2.50000000e-09,5.88147912e-16,2.50000000e-09,8.81192770e-16,2.50000000e-09,5.13022621e-19,2.50000000e-09,8.14850118e-11,2.50000000e-09,8.78773315e-01,2.50000000e-09,5.44635825e-02,2.50000000e-09,6.17156201e-01,2.50000000e-09,6.17156201e-01,2.50000000e-09,1.22721956e+10,2.50000000e-09,1.99185188e+07,2.50000000e-09,3.17013072e+06,2.50000000e-09,1.92175894e+01,1.0,1.000,sky130
3.00000000e-09,5.66139908e-08,3.00000000e-09,3.00079015e-09,3.00000000e-09,2.45577577e-15,3.00000000e-09,-1.22932257e-15,3.00000000e-09,-4.73395185e-19,3.00000000e-09,6.16472799e-16,3.00000000e-09,9.23648570e-16,3.00000000e-09,5.21465022e-19,3.00000000e-09,9.63149989e-11,3.00000000e-09,8.78773316e-01,3.00000000e-09,5.46976713e-02,3.00000000e-09,6.26650845e-01,3.00000000e-09,6.26650844e-01,3.00000000e-09,1.03825989e+10,3.00000000e-09,2.30534039e+07,3.00000000e-09,3.66906319e+06,3.00000000e-09,1.88663612e+01,1.0,1.000,sky130
3.50000000e-09,6.49988167e-08,3.50000000e-09,3.50010646e-09,3.50000000e-09,2.49192923e-15,3.50000000e-09,-1.28230047e-15,3.50000000e-09,-4.80234461e-19,3.50000000e-09,6.41682934e-16,3.50000000e-09,9.61436110e-16,3.50000000e-09,5.29064923e-19,3.50000000e-09,1.11013702e-10,3.50000000e-09,8.78773316e-01,3.50000000e-09,5.49307999e-02,3.50000000e-09,6.34859942e-01,3.50000000e-09,6.34859941e-01,3.50000000e-09,9.00789707e+09,3.50000000e-09,2.60837331e+07,3.50000000e-09,4.15135505e+06,3.50000000e-09,1.85705256e+01,1.0,1.000,sky130
4.00000000e-09,7.32671365e-08,4.00000000e-09,3.99978335e-09,4.00000000e-09,2.52482794e-15,4.00000000e-09,-1.33016089e-15,4.00000000e-09,-4.86460327e-19,4.00000000e-09,6.64408297e-16,4.00000000e-09,9.95499525e-16,4.00000000e-09,5.35981198e-19,4.00000000e-09,1.25551986e-10,4.00000000e-09,8.78773316e-01,4.00000000e-09,5.51621298e-02,4.00000000e-09,6.42083020e-01,4.00000000e-09,6.42083019e-01,4.00000000e-09,7.96482819e+09,4.00000000e-09,2.90186651e+07,4.00000000e-09,4.61846399e+06,4.00000000e-09,1.83177762e+01,1.0,1.000,sky130
4.50000000e-09,8.14371878e-08,4.50000000e-09,4.49957743e-09,4.50000000e-09,2.55508287e-15,4.50000000e-09,-1.37390983e-15,4.50000000e-09,-4.92188578e-19,4.50000000e-09,6.85141508e-16,4.50000000e-09,1.02657711e-15,4.50000000e-09,5.42343203e-19,4.50000000e-09,1.39943473e-10,4.50000000e-09,8.78773316e-01,4.50000000e-09,5.53916001e-02,4.50000000e-09,6.48538607e-01,4.50000000e-09,6.48538605e-01,4.50000000e-09,7.14574233e+09,4.50000000e-09,3.18726210e+07,4.50000000e-09,5.07268518e+06,4.50000000e-09,1.80988524e+01,1.0,1.000,sky130
5.00000000e-09,8.95255253e-08,5.00000000e-09,4.99945214e-09,5.00000000e-09,2.58314474e-15,5.00000000e-09,-1.41427899e-15,5.00000000e-09,-4.97504710e-19,5.00000000e-09,7.04240065e-16,5.00000000e-09,1.05520467e-15,5.00000000e-09,5.48246368e-19,5.00000000e-09,1.54203278e-10,5.00000000e-09,8.78773316e-01,5.00000000e-09,5.56192439e-02,5.00000000e-09,6.54380256e-01,5.00000000e-09,6.54380254e-01,5.00000000e-09,6.48494645e+09,5.00000000e-09,3.46575721e+07,5.00000000e-09,5.51592392e+06,5.00000000e-09,1.79070672e+01,1.0,1.000,sky130
5.50000000e-09,9.75450159e-08,5.50000000e-09,5.49937077e-09,5.50000000e-09,2.60935029e-15,5.50000000e-09,-1.45180962e-15,5.50000000e-09,-5.02472590e-19,5.50000000e-09,7.21968027e-16,5.50000000e-09,1.08177796e-15,5.50000000e-09,5.53761940e-19,5.50000000e-09,1.68343297e-10,5.50000000e-09,8.78773316e-01,5.50000000e-09,5.58450916e-02,5.50000000e-09,6.59718732e-01,5.50000000e-09,6.59718731e-01,5.50000000e-09,5.94024247e+09,5.50000000e-09,3.73828751e+07,5.50000000e-09,5.94966935e+06,5.50000000e-09,1.77374867e+01,1.0,1.000,sky130
6.00000000e-09,1.05506150e-07,6.00000000e-09,5.99931712e-09,6.00000000e-09,2.63395975e-15,6.00000000e-09,-1.48691630e-15,6.00000000e-09,-5.07141548e-19,6.00000000e-09,7.38527358e-16,6.00000000e-09,1.10659966e-15,6.00000000e-09,5.58944925e-19,6.00000000e-09,1.82373678e-10,6.00000000e-09,8.78773316e-01,6.00000000e-09,5.60691810e-02,6.00000000e-09,6.64636883e-01,6.00000000e-09,6.64636881e-01,6.00000000e-09,5.48324741e+09,6.00000000e-09,4.00560982e+07,6.00000000e-09,6.37512602e+06,6.00000000e-09,1.75863600e+01,1.0,1.000,sky130
6.50000000e-09,1.13417422e-07,6.50000000e-09,6.49927782e-09,6.50000000e-09,2.65717860e-15,6.50000000e-09,-1.51992384e-15,6.50000000e-09,-5.11550494e-19,6.50000000e-09,7.54076095e-16,6.50000000e-09,1.12990665e-15,6.50000000e-09,5.63838691e-19,6.50000000e-09,1.96302904e-10,6.50000000e-09,8.78773316e-01,6.50000000e-09,5.62915490e-02,6.50000000e-09,6.69198267e-01,6.50000000e-09,6.69198265e-01,6.50000000e-09,5.09416814e+09,6.50000000e-09,4.26834018e+07,6.50000000e-09,6.79327438e+06,6.50000000e-09,1.74507730e+01,1.0,1.000,sky130
7.00000000e-09,1.21285909e-07,7.00000000e-09,6.99924934e-09,7.00000000e-09,2.67917273e-15,7.00000000e-09,-1.55109265e-15,7.00000000e-09,-5.15730807e-19,7.00000000e-09,7.68740774e-16,7.00000000e-09,1.15188857e-15,7.00000000e-09,5.68478199e-19,7.00000000e-09,2.10138384e-10,7.00000000e-09,8.78773316e-01,7.00000000e-09,5.65122348e-02,7.00000000e-09,6.73452831e-01,7.00000000e-09,6.73452829e-01,7.00000000e-09,4.75876886e+09,7.00000000e-09,4.52699102e+07,7.00000000e-09,7.20492998e+06,7.00000000e-09,1.73284166e+01,1.0,1.000,sky130
7.50000000e-09,1.29117457e-07,7.50000000e-09,7.49922793e-09,7.50000000e-09,2.70007802e-15,7.50000000e-09,-1.58063473e-15,7.50000000e-09,-5.19708152e-19,7.50000000e-09,7.82624292e-16,7.50000000e-09,1.17269965e-15,7.50000000e-09,5.72892037e-19,7.50000000e-09,2.23886466e-10,7.50000000e-09,8.78773316e-01,7.50000000e-09,5.67312760e-02,7.50000000e-09,6.77440516e-01,7.50000000e-09,6.77440514e-01,7.50000000e-09,4.46654957e+09,7.50000000e-09,4.78198985e+07,7.50000000e-09,7.61077323e+06,7.50000000e-09,1.72174333e+01,1.0,1.000,sky130
8.00000000e-09,1.36916944e-07,8.00000000e-09,7.99921032e-09,8.00000000e-09,2.72000745e-15,8.00000000e-09,-1.60872534e-15,8.00000000e-09,-5.23503841e-19,8.00000000e-09,7.95811632e-16,8.00000000e-09,1.19246725e-15,8.00000000e-09,5.77103936e-19,8.00000000e-09,2.37552666e-10,8.00000000e-09,8.78773316e-01,8.00000000e-09,5.69487086e-02,8.00000000e-09,6.81193793e-01,8.00000000e-09,6.81193791e-01,8.00000000e-09,4.20959282e+09,8.00000000e-09,5.03369740e+07,8.00000000e-09,8.01137823e+06,8.00000000e-09,1.71163076e+01,1.0,1.000,sky130
8.50000000e-09,1.44688506e-07,8.50000000e-09,8.49919580e-09,8.50000000e-09,2.73905624e-15,8.50000000e-09,-1.63551143e-15,8.50000000e-09,-5.27135805e-19,8.50000000e-09,8.08373960e-16,8.50000000e-09,1.21129803e-15,8.50000000e-09,5.81133859e-19,8.50000000e-09,2.51141884e-10,8.50000000e-09,8.78773316e-01,8.50000000e-09,5.71645683e-02,8.50000000e-09,6.84739451e-01,8.50000000e-09,6.84739449e-01,8.50000000e-09,3.98181292e+09,8.50000000e-09,5.28242187e+07,8.50000000e-09,8.40723551e+06,8.50000000e-09,1.70237878e+01,1.0,1.000,sky130
9.00000000e-09,1.52435657e-07,9.00000000e-09,8.99918488e-09,9.00000000e-09,2.75730546e-15,9.00000000e-09,-1.66111752e-15,9.00000000e-09,-5.30619295e-19,9.00000000e-09,8.20371538e-16,9.00000000e-09,1.22928233e-15,9.00000000e-09,5.84998781e-19,9.00000000e-09,2.64658486e-10,9.00000000e-09,8.78773316e-01,9.00000000e-09,5.73788898e-02,9.00000000e-09,6.88099860e-01,9.00000000e-09,6.88099858e-01,9.00000000e-09,3.77845431e+09,9.00000000e-09,5.52842836e+07,9.00000000e-09,8.79876701e+06,9.00000000e-09,1.69388294e+01,1.0,1.000,sky130
9.50000000e-09,1.60161348e-07,9.50000000e-09,9.49917520e-09,9.50000000e-09,2.77482472e-15,9.50000000e-09,-1.68565004e-15,9.50000000e-09,-5.33967377e-19,9.50000000e-09,8.31855815e-16,9.50000000e-09,1.24649725e-15,9.50000000e-09,5.88713242e-19,9.50000000e-09,2.78106290e-10,9.50000000e-09,8.78773316e-01,9.50000000e-09,5.75917054e-02,9.50000000e-09,6.91293877e-01,9.50000000e-09,6.91293874e-01,9.50000000e-09,3.59574751e+09,9.50000000e-09,5.77194470e+07,9.50000000e-09,9.18633530e+06,9.50000000e-09,1.68605531e+01,1.0,1.000,sky130
1.00000000e-08,1.67867923e-07,1.00000000e-08,9.99915311e-09,1.00000000e-08,2.79167396e-15,1.00000000e-08,-1.70920036e-15,1.00000000e-08,-5.37191291e-19,1.00000000e-08,8.42870930e-16,1.00000000e-08,1.26300895e-15,1.00000000e-08,5.92289749e-19,1.00000000e-08,2.91488416e-10,1.00000000e-08,8.78773316e-01,1.00000000e-08,5.78030411e-02,1.00000000e-08,6.94337499e-01,1.00000000e-08,6.94337496e-01,1.00000000e-08,3.43066807e+09,1.00000000e-08,6.01316361e+07,1.00000000e-08,9.57024713e+06,1.00000000e-08,1.67882140e+01,1.0,1.000,sky130
1.50000000e-08,2.45015202e-07,1.50000000e-08,1.50488872e-08,1.50000000e-08,2.93366313e-15,1.50000000e-08,-1.90612850e-15,1.50000000e-08,-5.64542857e-19,1.50000000e-08,9.34631978e-16,1.50000000e-08,1.40056101e-15,1.50000000e-08,6.22626018e-19,1.50000000e-08,4.23572928e-10,1.50000000e-08,8.78773316e-01,1.50000000e-08,5.98612926e-02,1.50000000e-08,7.19036116e-01,1.50000000e-08,7.19036112e-01,1.50000000e-08,2.36086854e+09,1.50000000e-08,8.35185197e+07,1.50000000e-08,1.32923852e+07,1.50000000e-08,1.62812837e+01,1.0,1.000,sky130
2.00000000e-08,3.21796115e-07,2.00000000e-08,2.01174895e-08,2.00000000e-08,3.04219051e-15,2.00000000e-08,-2.05507177e-15,2.00000000e-08,-5.85730221e-19,2.00000000e-08,1.00363973e-15,2.00000000e-08,1.50400746e-15,2.00000000e-08,6.46118933e-19,2.00000000e-08,5.51784815e-10,2.00000000e-08,8.78773317e-01,2.00000000e-08,6.18049911e-02,2.00000000e-08,7.36998212e-01,2.00000000e-08,7.36998206e-01,2.00000000e-08,1.81230069e+09,2.00000000e-08,1.05777766e+08,2.00000000e-08,1.68350543e+07,2.00000000e-08,1.59958386e+01,1.0,1.000,sky130
2.50000000e-08,3.96260040e-07,2.50000000e-08,2.50538049e-08,2.50000000e-08,3.12793029e-15,2.50000000e-08,-2.17193983e-15,2.50000000e-08,-6.02688815e-19,2.50000000e-08,1.05756026e-15,2.50000000e-08,1.58483854e-15,2.50000000e-08,6.64919870e-19,2.50000000e-08,6.73518208e-10,2.50000000e-08,8.78773317e-01,2.50000000e-08,6.35988998e-02,2.50000000e-08,7.50772589e-01,2.50000000e-08,7.50772582e-01,2.50000000e-08,1.48474085e+09,2.50000000e-08,1.26684422e+08,2.50000000e-08,2.01624519e+07,2.50000000e-08,1.58163617e+01,1.0,1.000,sky130
3.00000000e-08,4.70906177e-07,3.00000000e-08,3.00185178e-08,3.00000000e-08,3.20064517e-15,3.00000000e-08,-2.27056922e-15,3.00000000e-08,-6.17250133e-19,3.00000000e-08,1.10291593e-15,3.00000000e-08,1.65283103e-15,3.00000000e-08,6.81061366e-19,3.00000000e-08,7.93476215e-10,3.00000000e-08,8.78773317e-01,3.00000000e-08,6.53185467e-02,3.00000000e-08,7.62231492e-01,3.00000000e-08,7.62231483e-01,3.00000000e-08,1.26027722e+09,3.00000000e-08,1.47128517e+08,3.00000000e-08,2.34162307e+07,3.00000000e-08,1.56871895e+01,1.0,1.000,sky130
3.50000000e-08,5.45698948e-07,3.50000000e-08,3.50102159e-08,3.50000000e-08,3.26379906e-15,3.50000000e-08,-2.35590450e-15,3.50000000e-08,-6.30047153e-19,3.50000000e-08,1.14204988e-15,3.50000000e-08,1.71149715e-15,3.50000000e-08,6.95246007e-19,3.50000000e-08,9.12018797e-10,3.50000000e-08,8.78773318e-01,3.50000000e-08,6.69730484e-02,3.50000000e-08,7.72052672e-01,3.50000000e-08,7.72052662e-01,3.50000000e-08,1.09646863e+09,3.50000000e-08,1.67197471e+08,3.50000000e-08,2.66103040e+07,3.50000000e-08,1.55868490e+01,1.0,1.000,sky130
4.00000000e-08,6.20266455e-07,4.00000000e-08,4.00064262e-08,4.00000000e-08,3.31940151e-15,4.00000000e-08,-2.43080574e-15,4.00000000e-08,-6.41441375e-19,4.00000000e-08,1.17631741e-15,4.00000000e-08,1.76286841e-15,4.00000000e-08,7.07875001e-19,4.00000000e-08,1.02890991e-09,4.00000000e-08,8.78773318e-01,4.00000000e-08,6.85631523e-02,4.00000000e-08,7.80619821e-01,4.00000000e-08,7.80619809e-01,4.00000000e-08,9.71902388e+08,4.00000000e-08,1.86860931e+08,4.00000000e-08,2.97398408e+07,4.00000000e-08,1.55041705e+01,1.0,1.000,sky130
4.50000000e-08,6.94523763e-07,4.50000000e-08,4.50039471e-08,4.50000000e-08,3.36902894e-15,4.50000000e-08,-2.49748850e-15,4.50000000e-08,-6.51720314e-19,4.50000000e-08,1.20676162e-15,4.50000000e-08,1.80850839e-15,4.50000000e-08,7.19267332e-19,4.50000000e-08,1.14431191e-09,4.50000000e-08,8.78773319e-01,4.50000000e-08,7.00950058e-02,4.50000000e-08,7.88217030e-01,4.50000000e-08,7.88217016e-01,4.50000000e-08,8.73887613e+08,4.50000000e-08,2.06149539e+08,4.50000000e-08,3.28097182e+07,4.50000000e-08,1.54325078e+01,1.0,1.000,sky130
5.00000000e-08,7.68431603e-07,5.00000000e-08,5.00024281e-08,5.00000000e-08,3.41382941e-15,5.00000000e-08,-2.55755620e-15,5.00000000e-08,-6.61094153e-19,5.00000000e-08,1.23413508e-15,5.00000000e-08,1.84954518e-15,5.00000000e-08,7.29656147e-19,5.00000000e-08,1.25840347e-09,5.00000000e-08,8.78773319e-01,5.00000000e-08,7.15744966e-02,5.00000000e-08,7.95044743e-01,5.00000000e-08,7.95044729e-01,5.00000000e-08,7.94657695e+08,5.00000000e-08,2.25093732e+08,5.00000000e-08,3.58247802e+07,5.00000000e-08,1.53678858e+01,1.0,1.000,sky130
5.50000000e-08,8.41954906e-07,5.50000000e-08,5.50014671e-08,5.50000000e-08,3.45464852e-15,5.50000000e-08,-2.61218458e-15,5.50000000e-08,-6.69717980e-19,5.50000000e-08,1.25898838e-15,5.50000000e-08,1.88680411e-15,5.50000000e-08,7.39213457e-19,5.50000000e-08,1.37132537e-09,5.50000000e-08,8.78773319e-01,5.50000000e-08,7.30065492e-02,5.50000000e-08,8.01247168e-01,5.50000000e-08,8.01247152e-01,5.50000000e-08,7.29221544e+08,5.50000000e-08,2.43716517e+08,5.50000000e-08,3.87886884e+07,5.50000000e-08,1.53078627e+01,1.0,1.000,sky130
6.00000000e-08,9.15066308e-07,6.00000000e-08,6.00008282e-08,6.00000000e-08,3.49212884e-15,6.00000000e-08,-2.66226363e-15,6.00000000e-08,-6.77709942e-19,6.00000000e-08,1.28173747e-15,6.00000000e-08,1.92090868e-15,6.00000000e-08,7.48070288e-19,6.00000000e-08,1.48319512e-09,6.00000000e-08,8.78773320e-01,6.00000000e-08,7.43953868e-02,6.00000000e-08,8.06931713e-01,6.00000000e-08,8.06931696e-01,6.00000000e-08,6.74220125e+08,6.00000000e-08,2.62036812e+08,6.00000000e-08,4.17044539e+07,6.00000000e-08,1.52508946e+01,1.0,1.000,sky130
6.50000000e-08,9.87744950e-07,6.50000000e-08,6.50003886e-08,6.50000000e-08,3.52677006e-15,6.50000000e-08,-2.70848318e-15,6.50000000e-08,-6.85162169e-19,6.50000000e-08,1.30270413e-15,6.50000000e-08,1.95234128e-15,6.50000000e-08,7.56328806e-19,6.50000000e-08,1.59411230e-09,6.50000000e-08,8.78773320e-01,6.50000000e-08,7.57446602e-02,6.50000000e-08,8.12180498e-01,6.50000000e-08,8.12180479e-01,6.50000000e-08,6.27308378e+08,6.50000000e-08,2.80070697e+08,6.50000000e-08,4.45746359e+07,6.50000000e-08,1.51959853e+01,1.0,1.000,sky130
7.00000000e-08,1.05997494e-06,7.00000000e-08,7.00000762e-08,7.00000000e-08,3.55896820e-15,7.00000000e-08,-2.75138835e-15,7.00000000e-08,-6.92147888e-19,7.00000000e-08,1.32214226e-15,7.00000000e-08,1.98148248e-15,7.00000000e-08,7.64070206e-19,7.00000000e-08,1.70416165e-09,7.00000000e-08,8.78773320e-01,7.00000000e-08,7.70575414e-02,7.00000000e-08,8.17057663e-01,7.00000000e-08,8.17057642e-01,7.00000000e-08,5.86798793e+08,7.00000000e-08,2.97832090e+08,7.00000000e-08,4.74014493e+07,7.00000000e-08,1.51424826e+01,1.0,1.000,sky130
7.50000000e-08,1.13174438e-06,7.50000000e-08,7.49998480e-08,7.50000000e-08,3.58904234e-15,7.50000000e-08,-2.79141728e-15,7.50000000e-08,-6.98726271e-19,7.50000000e-08,1.34025560e-15,7.50000000e-08,2.00863773e-15,7.50000000e-08,7.71360098e-19,7.50000000e-08,1.81341598e-09,7.50000000e-08,8.78773321e-01,7.50000000e-08,7.83368041e-02,7.50000000e-08,8.21614239e-01,7.50000000e-08,8.21614218e-01,7.50000000e-08,5.51445454e+08,7.50000000e-08,3.15333248e+08,7.50000000e-08,5.01868451e+07,7.50000000e-08,1.50899556e+01,1.0,1.000,sky130
8.00000000e-08,1.20304464e-06,8.00000000e-08,7.99996768e-08,8.00000000e-08,3.61725330e-15,8.00000000e-08,-2.82892726e-15,8.00000000e-08,-7.04945825e-19,8.00000000e-08,1.35721009e-15,8.00000000e-08,2.03405575e-15,8.00000000e-08,7.78252262e-19,8.00000000e-08,1.92193833e-09,8.00000000e-08,8.78773321e-01,8.00000000e-08,7.95848888e-02,8.00000000e-08,8.25891480e-01,8.00000000e-08,8.25891456e-01,8.00000000e-08,5.20308059e+08,8.00000000e-08,3.32585124e+08,8.00000000e-08,5.29325665e+07,8.00000000e-08,1.50381187e+01,1.0,1.000,sky130
8.50000000e-08,1.27386976e-06,8.50000000e-08,8.49995475e-08,8.50000000e-08,3.64381693e-15,8.50000000e-08,-2.86421343e-15,8.50000000e-08,-7.10846819e-19,8.50000000e-08,1.37314263e-15,8.50000000e-08,2.05794176e-15,8.50000000e-08,7.84791342e-19,8.50000000e-08,2.02978373e-09,8.50000000e-08,8.78773322e-01,8.50000000e-08,8.08039563e-02,8.50000000e-08,8.29923195e-01,8.50000000e-08,8.29923171e-01,8.50000000e-08,4.92663324e+08,8.50000000e-08,3.49597628e+08,8.50000000e-08,5.56401906e+07,8.50000000e-08,1.49867828e+01,1.0,1.000,sky130
9.00000000e-08,1.34421589e-06,9.00000000e-08,8.99994475e-08,9.00000000e-08,3.66891388e-15,9.00000000e-08,-2.89752229e-15,9.00000000e-08,-7.16463049e-19,9.00000000e-08,1.38816742e-15,9.00000000e-08,2.08046697e-15,9.00000000e-08,7.91014806e-19,9.00000000e-08,2.13700051e-09,9.00000000e-08,8.78773322e-01,9.00000000e-08,8.19959288e-02,9.00000000e-08,8.33737436e-01,9.00000000e-08,8.33737410e-01,9.00000000e-08,4.67945607e+08,9.00000000e-08,3.66379788e+08,9.00000000e-08,5.83111543e+07,9.00000000e-08,1.49358238e+01,1.0,1.000,sky130
9.50000000e-08,1.41408095e-06,9.50000000e-08,9.49993673e-08,9.50000000e-08,3.69269678e-15,9.50000000e-08,-2.92906183e-15,9.50000000e-08,-7.21823158e-19,9.50000000e-08,1.40238071e-15,9.50000000e-08,2.10177565e-15,9.50000000e-08,7.96954406e-19,9.50000000e-08,2.24363136e-09,9.50000000e-08,8.78773322e-01,9.50000000e-08,8.31625253e-02,9.50000000e-08,8.37357724e-01,9.50000000e-08,8.37357697e-01,9.50000000e-08,4.45706018e+08,9.50000000e-08,3.82939904e+08,9.50000000e-08,6.09467786e+07,9.50000000e-08,1.48851617e+01,1.0,1.000,sky130
1.00000000e-07,1.48346017e-06,1.00000000e-07,9.99990001e-08,1.00000000e-07,3.71529446e-15,1.00000000e-07,-2.95900736e-15,1.00000000e-07,-7.26951339e-19,1.00000000e-07,1.41586357e-15,1.00000000e-07,2.12198934e-15,1.00000000e-07,8.02636962e-19,1.00000000e-07,2.34970794e-09,1.00000000e-07,8.78773323e-01,1.00000000e-07,8.43052230e-02,1.00000000e-07,8.40803775e-01,1.00000000e-07,8.40803746e-01,1.00000000e-07,4.25584807e+08,1.00000000e-07,3.99284682e+08,1.00000000e-07,6.35481309e+07,1.00000000e-07,1.48347500e+01,1.0,1.000,sky130
