isweep,gm,i_id,id,i_cgg,cgg,i_cgs,cgs,i_cgd,cgd,i_cds,cds,i_css,css,i_cdd,cdd,i_gds,gds,i_vth,vth,i_vdsat,vdsat,i_vgs,vgs,i_vds,vds,i_rds,rds,i_wt,wt,i_ft,ft,i_kgm,kgm,W,L,pdk
1.00000000e-09,2.35871918e-08,1.00000000e-09,9.99161384e-10,1.00000000e-09,2.23098156e-15,1.00000000e-09,-1.02148650e-15,1.00000000e-09,-1.12430105e-19,1.00000000e-09,5.07299154e-16,1.00000000e-09,7.60371262e-16,1.00000000e-09,1.28425049e-19,1.00000000e-09,2.77206830e-11,1.00000000e-09,1.07221654e+00,1.00000000e-09,3.72652521e-02,1.00000000e-09,8.38168495e-01,1.00000000e-09,8.38168495e-01,1.00000000e-09,3.60741473e+10,1.00000000e-09,1.05725624e+07,1.00000000e-09,1.68267557e+06,1.00000000e-09,2.36069890e+01,1.0,1.000,sky130
1.50000000e-09,3.38929059e-08,1.50000000e-09,1.50344495e-09,1.50000000e-09,2.32905849e-15,1.50000000e-09,-1.15841275e-15,1.50000000e-09,-1.22496687e-19,1.50000000e-09,5.72438290e-16,1.50000000e-09,8.58024063e-16,1.50000000e-09,1.39944839e-19,1.50000000e-09,4.10307662e-11,1.50000000e-09,1.07221654e+00,1.50000000e-09,3.75327719e-02,1.50000000e-09,8.55864557e-01,1.50000000e-09,8.55864557e-01,1.50000000e-09,2.43719553e+10,1.50000000e-09,1.45521918e+07,1.50000000e-09,2.31605326e+06,1.50000000e-09,2.25434964e+01,1.0,1.000,sky130
2.00000000e-09,4.39321521e-08,2.00000000e-09,2.00905691e-09,2.00000000e-09,2.40801385e-15,2.00000000e-09,-1.26720729e-15,2.00000000e-09,-1.30465169e-19,2.00000000e-09,6.23920947e-16,2.00000000e-09,9.35204843e-16,2.00000000e-09,1.49064098e-19,2.00000000e-09,5.41493023e-11,2.00000000e-09,1.07221654e+00,2.00000000e-09,3.77971991e-02,2.00000000e-09,8.68909132e-01,2.00000000e-09,8.68909131e-01,2.00000000e-09,1.84674586e+10,2.00000000e-09,1.82441443e+07,2.00000000e-09,2.90364575e+06,2.00000000e-09,2.18670521e+01,1.0,1.000,sky130
2.50000000e-09,5.36009100e-08,2.50000000e-09,2.50362639e-09,2.50000000e-09,2.47334056e-15,2.50000000e-09,-1.35644749e-15,2.50000000e-09,-1.37003129e-19,2.50000000e-09,6.65982560e-16,2.50000000e-09,9.98262547e-16,2.50000000e-09,1.56546522e-19,2.50000000e-09,6.68064377e-11,2.50000000e-09,1.07221654e+00,2.50000000e-09,3.80523470e-02,2.50000000e-09,8.79069628e-01,2.50000000e-09,8.79069628e-01,2.50000000e-09,1.49686173e+10,2.50000000e-09,2.16714637e+07,2.50000000e-09,3.44912057e+06,2.50000000e-09,2.14093086e+01,1.0,1.000,sky130
3.00000000e-09,6.32370574e-08,3.00000000e-09,3.00079846e-09,3.00000000e-09,2.53061363e-15,3.00000000e-09,-1.43419589e-15,3.00000000e-09,-1.42711903e-19,3.00000000e-09,7.02511184e-16,3.00000000e-09,1.05302573e-15,3.00000000e-09,1.63080172e-19,3.00000000e-09,7.93829500e-11,3.00000000e-09,1.07221654e+00,3.00000000e-09,3.83054958e-02,3.00000000e-09,8.87588052e-01,3.00000000e-09,8.87588051e-01,3.00000000e-09,1.25971635e+10,3.00000000e-09,2.49888235e+07,3.00000000e-09,3.97709479e+06,3.00000000e-09,2.10734104e+01,1.0,1.000,sky130
3.50000000e-09,7.28683221e-08,3.50000000e-09,3.50009729e-09,3.50000000e-09,2.58172898e-15,3.50000000e-09,-1.50324535e-15,3.50000000e-09,-1.47798957e-19,3.50000000e-09,7.34865663e-16,3.50000000e-09,1.10153139e-15,3.50000000e-09,1.68902416e-19,3.50000000e-09,9.18833744e-11,3.50000000e-09,1.07221654e+00,3.50000000e-09,3.85564928e-02,3.50000000e-09,8.94927750e-01,3.50000000e-09,8.94927749e-01,3.50000000e-09,1.08833617e+10,3.50000000e-09,2.82246210e+07,3.50000000e-09,4.49208795e+06,3.50000000e-09,2.08189419e+01,1.0,1.000,sky130
4.00000000e-09,8.24834870e-08,4.00000000e-09,3.99976010e-09,4.00000000e-09,2.62782160e-15,4.00000000e-09,-1.56526282e-15,4.00000000e-09,-1.52386332e-19,4.00000000e-09,7.63857782e-16,4.00000000e-09,1.14499644e-15,4.00000000e-09,1.74152882e-19,4.00000000e-09,1.04276466e-10,4.00000000e-09,1.07221654e+00,4.00000000e-09,3.88045543e-02,4.00000000e-09,9.01360420e-01,4.00000000e-09,9.01360419e-01,4.00000000e-09,9.58989151e+09,4.00000000e-09,3.13885414e+07,4.00000000e-09,4.99564151e+06,4.00000000e-09,2.06221085e+01,1.0,1.000,sky130
4.50000000e-09,9.20923401e-08,4.50000000e-09,4.49954240e-09,4.50000000e-09,2.66981356e-15,4.50000000e-09,-1.62157665e-15,4.50000000e-09,-1.56570241e-19,4.50000000e-09,7.90129932e-16,4.50000000e-09,1.18438389e-15,4.50000000e-09,1.78941654e-19,4.50000000e-09,1.16566746e-10,4.50000000e-09,1.07221654e+00,4.50000000e-09,3.90496722e-02,4.50000000e-09,9.07084629e-01,4.50000000e-09,9.07084628e-01,4.50000000e-09,8.57877595e+09,4.50000000e-09,3.44939217e+07,4.50000000e-09,5.48987815e+06,4.50000000e-09,2.04670457e+01,1.0,1.000,sky130
5.00000000e-09,1.01703485e-07,5.00000000e-09,4.99940668e-09,5.00000000e-09,2.70839427e-15,5.00000000e-09,-1.67317104e-15,5.00000000e-09,-1.60421381e-19,5.00000000e-09,8.14156665e-16,5.00000000e-09,1.22040513e-15,5.00000000e-09,1.83349626e-19,5.00000000e-09,1.28761862e-10,5.00000000e-09,1.07221654e+00,5.00000000e-09,3.92919357e-02,5.00000000e-09,9.12241025e-01,5.00000000e-09,9.12241023e-01,5.00000000e-09,7.76627479e+09,5.00000000e-09,3.75512112e+07,5.00000000e-09,5.97646089e+06,5.00000000e-09,2.03431110e+01,1.0,1.000,sky130
5.50000000e-09,1.11322304e-07,5.50000000e-09,5.49931751e-09,5.50000000e-09,2.74408530e-15,5.50000000e-09,-1.72078580e-15,5.50000000e-09,-1.63992516e-19,5.50000000e-09,8.36293922e-16,5.50000000e-09,1.25359375e-15,5.50000000e-09,1.87437170e-19,5.50000000e-09,1.40868036e-10,5.50000000e-09,1.07221654e+00,5.50000000e-09,3.95314293e-02,5.50000000e-09,9.16931744e-01,5.50000000e-09,9.16931742e-01,5.50000000e-09,7.09884247e+09,5.50000000e-09,4.05680916e+07,5.50000000e-09,6.45661231e+06,5.50000000e-09,2.02429308e+01,1.0,1.000,sky130
6.00000000e-09,1.20952378e-07,6.00000000e-09,5.99925653e-09,6.00000000e-09,2.77729346e-15,6.00000000e-09,-1.76499463e-15,6.00000000e-09,-1.67324324e-19,6.00000000e-09,8.56817145e-16,6.00000000e-09,1.28436269e-15,6.00000000e-09,1.91250834e-19,6.00000000e-09,1.52890816e-10,6.00000000e-09,1.07221654e+00,6.00000000e-09,3.97682396e-02,6.00000000e-09,9.21233532e-01,6.00000000e-09,9.21233531e-01,6.00000000e-09,6.54061523e+09,6.00000000e-09,4.35504492e+07,6.00000000e-09,6.93126926e+06,6.00000000e-09,2.01612278e+01,1.0,1.000,sky130
6.50000000e-09,1.30596007e-07,6.50000000e-09,6.49921293e-09,6.50000000e-09,2.80834280e-15,6.50000000e-09,-1.80625223e-15,6.50000000e-09,-1.70448896e-19,6.50000000e-09,8.75944242e-16,6.50000000e-09,1.31303860e-15,6.50000000e-09,1.94827336e-19,6.50000000e-09,1.64835088e-10,6.50000000e-09,1.07221654e+00,6.50000000e-09,4.00024517e-02,6.50000000e-09,9.25205533e-01,6.50000000e-09,9.25205531e-01,6.50000000e-09,6.06666950e+09,6.50000000e-09,4.65028725e+07,6.50000000e-09,7.40116202e+06,6.50000000e-09,2.00941266e+01,1.0,1.000,sky130
7.00000000e-09,1.40254606e-07,7.00000000e-09,6.99918047e-09,7.00000000e-09,2.83749619e-15,7.00000000e-09,-1.84492587e-15,7.00000000e-09,-1.73392045e-19,7.00000000e-09,8.93850896e-16,7.00000000e-09,1.33988486e-15,7.00000000e-09,1.98196216e-19,7.00000000e-09,1.76705189e-10,7.00000000e-09,1.07221654e+00,7.00000000e-09,4.02341479e-02,7.00000000e-09,9.28894315e-01,7.00000000e-09,9.28894313e-01,7.00000000e-09,5.65914338e+09,7.00000000e-09,4.94290024e+07,7.00000000e-09,7.86687006e+06,7.00000000e-09,2.00387183e+01,1.0,1.000,sky130
7.50000000e-09,1.49928975e-07,7.50000000e-09,7.49915632e-09,7.50000000e-09,2.86497020e-15,7.50000000e-09,-1.88131691e-15,7.50000000e-09,-1.76174888e-19,7.50000000e-09,9.10681037e-16,7.50000000e-09,1.36511724e-15,7.50000000e-09,2.01381636e-19,7.50000000e-09,1.88505007e-10,7.50000000e-09,1.07221654e+00,7.50000000e-09,4.04634072e-02,7.50000000e-09,9.32337218e-01,7.50000000e-09,9.32337216e-01,7.50000000e-09,5.30489887e+09,7.50000000e-09,5.23317748e+07,7.50000000e-09,8.32886064e+06,7.50000000e-09,1.99927791e+01,1.0,1.000,sky130
8.00000000e-09,1.59619427e-07,8.00000000e-09,7.99913703e-09,8.00000000e-09,2.89094545e-15,8.00000000e-09,-1.91567582e-15,8.00000000e-09,-1.78814928e-19,8.00000000e-09,9.26554108e-16,8.00000000e-09,1.38891479e-15,8.00000000e-09,2.04403626e-19,8.00000000e-09,2.00237984e-10,8.00000000e-09,1.07221654e+00,8.00000000e-09,4.06903043e-02,8.00000000e-09,9.35564637e-01,8.00000000e-09,9.35564634e-01,8.00000000e-09,4.99405748e+09,8.00000000e-09,5.52135727e+07,8.00000000e-09,8.78751301e+06,8.00000000e-09,1.99545809e+01,1.0,1.000,sky130
8.50000000e-09,1.69325985e-07,8.50000000e-09,8.49912183e-09,8.50000000e-09,2.91557449e-15,8.50000000e-09,-1.94821347e-15,8.50000000e-09,-1.81326870e-19,8.50000000e-09,9.41570518e-16,8.50000000e-09,1.41142806e-15,8.50000000e-09,2.07279013e-19,8.50000000e-09,2.11907264e-10,8.50000000e-09,1.07221654e+00,8.50000000e-09,4.09149110e-02,8.50000000e-09,9.38601664e-01,8.50000000e-09,9.38601662e-01,8.50000000e-09,4.71904541e+09,8.50000000e-09,5.80763709e+07,8.50000000e-09,9.24314150e+06,8.50000000e-09,1.99227625e+01,1.0,1.000,sky130
9.00000000e-09,1.79048408e-07,9.00000000e-09,8.99910857e-09,9.00000000e-09,2.93898727e-15,9.00000000e-09,-1.97910900e-15,9.00000000e-09,-1.83723184e-19,9.00000000e-09,9.55815452e-16,9.00000000e-09,1.43278474e-15,9.00000000e-09,2.10022068e-19,9.00000000e-09,2.23515658e-10,9.00000000e-09,1.07221654e+00,9.00000000e-09,4.11372950e-02,9.00000000e-09,9.41469246e-01,9.00000000e-09,9.41469244e-01,9.00000000e-09,4.47395949e+09,9.00000000e-09,6.09218047e+07,9.00000000e-09,9.69600637e+06,9.00000000e-09,1.98962383e+01,1.0,1.000,sky130
9.50000000e-09,1.88786319e-07,9.50000000e-09,9.49909693e-09,9.50000000e-09,2.96129563e-15,9.50000000e-09,-2.00851613e-15,9.50000000e-09,-1.86014560e-19,9.50000000e-09,9.69361926e-16,9.50000000e-09,1.45309430e-15,9.50000000e-09,2.12645023e-19,9.50000000e-09,2.35065765e-10,9.50000000e-09,1.07221654e+00,9.50000000e-09,4.13575212e-02,9.50000000e-09,9.44185063e-01,9.50000000e-09,9.44185061e-01,9.50000000e-09,4.25412863e+09,9.50000000e-09,6.37512571e+07,9.50000000e-09,1.01463277e+07,9.50000000e-09,1.98741333e+01,1.0,1.000,sky130
1.00000000e-08,1.98538567e-07,1.00000000e-08,9.99905327e-09,1.00000000e-08,2.98259510e-15,1.00000000e-08,-2.03656598e-15,1.00000000e-08,-1.88210087e-19,1.00000000e-08,9.82272152e-16,1.00000000e-08,1.47244999e-15,1.00000000e-08,2.15158279e-19,1.00000000e-08,2.46559198e-10,1.00000000e-08,1.07221654e+00,1.00000000e-08,4.15756369e-02,1.00000000e-08,9.46764005e-01,1.00000000e-08,9.46764002e-01,1.00000000e-08,4.05582111e+09,1.00000000e-08,6.65657123e+07,1.00000000e-08,1.05942622e+07,1.00000000e-08,1.98557365e+01,1.0,1.000,sky130
1.50000000e-08,2.98000164e-07,1.50000000e-08,1.50623716e-08,1.50000000e-08,3.15657363e-15,1.50000000e-08,-2.26477168e-15,1.50000000e-08,-2.06475694e-19,1.50000000e-08,1.08691598e-15,1.50000000e-08,1.62933885e-15,1.50000000e-08,2.36067974e-19,1.50000000e-08,3.60234522e-10,1.50000000e-08,1.07221654e+00,1.50000000e-08,4.36786409e-02,1.50000000e-08,9.67420617e-01,1.50000000e-08,9.67420613e-01,1.50000000e-08,2.77596938e+09,1.50000000e-08,9.44062134e+07,1.50000000e-08,1.50252155e+07,1.50000000e-08,1.97844120e+01,1.0,1.000,sky130
2.00000000e-08,3.98764386e-07,2.00000000e-08,2.01515839e-08,2.00000000e-08,3.28286831e-15,2.00000000e-08,-2.42953889e-15,2.00000000e-08,-2.20185469e-19,2.00000000e-08,1.16205010e-15,2.00000000e-08,1.74198619e-15,2.00000000e-08,2.51763185e-19,2.00000000e-08,4.70472702e-10,2.00000000e-08,1.07221654e+00,2.00000000e-08,4.56290494e-02,2.00000000e-08,9.82116041e-01,2.00000000e-08,9.82116035e-01,2.00000000e-08,2.12552183e+09,2.00000000e-08,1.21468286e+08,2.00000000e-08,1.93322781e+07,2.00000000e-08,1.97882403e+01,1.0,1.000,sky130
2.50000000e-08,4.96351774e-07,2.50000000e-08,2.50690349e-08,2.50000000e-08,3.37815885e-15,2.50000000e-08,-2.55343157e-15,2.50000000e-08,-2.30837390e-19,2.50000000e-08,1.21831913e-15,2.50000000e-08,1.82635018e-15,2.50000000e-08,2.63958175e-19,2.50000000e-08,5.74048910e-10,2.50000000e-08,1.07221654e+00,2.50000000e-08,4.73891154e-02,2.50000000e-08,9.93134334e-01,2.50000000e-08,9.93134327e-01,2.50000000e-08,1.74201184e+09,2.50000000e-08,1.46929673e+08,2.50000000e-08,2.33845837e+07,2.50000000e-08,1.97993970e+01,1.0,1.000,sky130
3.00000000e-08,5.94487009e-07,3.00000000e-08,3.00213743e-08,3.00000000e-08,3.45680905e-15,3.00000000e-08,-2.65544197e-15,3.00000000e-08,-2.39858834e-19,3.00000000e-08,1.26450545e-15,3.00000000e-08,1.89559768e-15,3.00000000e-08,2.74286802e-19,3.00000000e-08,6.76003950e-10,3.00000000e-08,1.07221654e+00,3.00000000e-08,4.90595949e-02,3.00000000e-08,1.00222800e+00,3.00000000e-08,1.00222799e+00,3.00000000e-08,1.47928130e+09,3.00000000e-08,1.71975657e+08,3.00000000e-08,2.73707760e+07,3.00000000e-08,1.98021251e+01,1.0,1.000,sky130
3.50000000e-08,6.92969082e-07,3.50000000e-08,3.50113951e-08,3.50000000e-08,3.52369252e-15,3.50000000e-08,-2.74202918e-15,3.50000000e-08,-2.47712662e-19,3.50000000e-08,1.30360674e-15,3.50000000e-08,1.95422291e-15,3.50000000e-08,2.83278855e-19,3.50000000e-08,7.76744172e-10,3.50000000e-08,1.07221654e+00,3.50000000e-08,5.06552659e-02,3.50000000e-08,1.00998566e+00,3.50000000e-08,1.00998565e+00,3.50000000e-08,1.28742517e+09,3.50000000e-08,1.96659918e+08,3.50000000e-08,3.12993980e+07,3.50000000e-08,1.97926727e+01,1.0,1.000,sky130
4.00000000e-08,7.90987265e-07,4.00000000e-08,4.00071909e-08,4.00000000e-08,3.58146751e-15,4.00000000e-08,-2.81671315e-15,4.00000000e-08,-2.54644218e-19,4.00000000e-08,1.33725736e-15,4.00000000e-08,2.00467611e-15,4.00000000e-08,2.91215145e-19,4.00000000e-08,8.75899499e-10,4.00000000e-08,1.07221654e+00,4.00000000e-08,5.21772144e-02,4.00000000e-08,1.01672056e+00,4.00000000e-08,1.01672055e+00,4.00000000e-08,1.14168349e+09,4.00000000e-08,2.20855630e+08,4.00000000e-08,3.51502653e+07,4.00000000e-08,1.97711273e+01,1.0,1.000,sky130
4.50000000e-08,8.88332064e-07,4.50000000e-08,4.50043332e-08,4.50000000e-08,3.63220763e-15,4.50000000e-08,-2.88222319e-15,4.50000000e-08,-2.60853289e-19,4.50000000e-08,1.36671670e-15,4.50000000e-08,2.04884543e-15,4.50000000e-08,2.98324358e-19,4.50000000e-08,9.73609498e-10,4.50000000e-08,1.07221654e+00,4.50000000e-08,5.36337201e-02,4.50000000e-08,1.02267163e+00,4.50000000e-08,1.02267162e+00,4.50000000e-08,1.02710584e+09,4.50000000e-08,2.44570838e+08,4.50000000e-08,3.89246578e+07,4.50000000e-08,1.97388118e+01,1.0,1.000,sky130
5.00000000e-08,9.84915484e-07,5.00000000e-08,5.00026020e-08,5.00000000e-08,3.67738869e-15,5.00000000e-08,-2.94049617e-15,5.00000000e-08,-2.66484327e-19,5.00000000e-08,1.39287593e-15,5.00000000e-08,2.08806696e-15,5.00000000e-08,3.04771846e-19,5.00000000e-08,1.07005112e-09,5.00000000e-08,1.07221654e+00,5.00000000e-08,5.50325213e-02,5.00000000e-08,1.02800664e+00,5.00000000e-08,1.02800662e+00,5.00000000e-08,9.34534787e+08,5.00000000e-08,2.67830128e+08,5.00000000e-08,4.26264888e+07,5.00000000e-08,1.96972846e+01,1.0,1.000,sky130
5.50000000e-08,1.08067183e-06,5.50000000e-08,5.50015306e-08,5.50000000e-08,3.71807006e-15,5.50000000e-08,-2.99291963e-15,5.50000000e-08,-2.71641968e-19,5.50000000e-08,1.41637225e-15,5.50000000e-08,2.12329603e-15,5.50000000e-08,3.10677389e-19,5.50000000e-08,1.16536171e-09,5.50000000e-08,1.07221654e+00,5.50000000e-08,5.63798644e-02,5.50000000e-08,1.03284474e+00,5.50000000e-08,1.03284472e+00,5.50000000e-08,8.58102678e+08,5.50000000e-08,2.90653972e+08,5.50000000e-08,4.62590164e+07,5.50000000e-08,1.96480320e+01,1.0,1.000,sky130
6.00000000e-08,1.17555835e-06,6.00000000e-08,6.00008320e-08,6.00000000e-08,3.75503944e-15,6.00000000e-08,-3.04052356e-15,6.00000000e-08,-2.76404775e-19,6.00000000e-08,1.43767781e-15,6.00000000e-08,2.15524050e-15,6.00000000e-08,3.16130918e-19,6.00000000e-08,1.25965610e-09,6.00000000e-08,1.07221654e+00,6.00000000e-08,5.76809667e-02,6.00000000e-08,1.03727385e+00,6.00000000e-08,1.03727383e+00,6.00000000e-08,7.93867470e+08,6.00000000e-08,3.13061518e+08,6.00000000e-08,4.98252880e+07,6.00000000e-08,1.95923674e+01,1.0,1.000,sky130
6.50000000e-08,1.26954900e-06,6.50000000e-08,6.50003570e-08,6.50000000e-08,3.78889783e-15,6.50000000e-08,-3.08409259e-15,6.50000000e-08,-2.80833245e-19,6.50000000e-08,1.45715171e-15,6.50000000e-08,2.18443879e-15,6.50000000e-08,3.21201687e-19,6.50000000e-08,1.35303188e-09,6.50000000e-08,1.07221654e+00,6.50000000e-08,5.89402400e-02,6.50000000e-08,1.04136066e+00,6.50000000e-08,1.04136064e+00,6.50000000e-08,7.39080887e+08,6.50000000e-08,3.35070792e+08,6.50000000e-08,5.33281729e+07,6.50000000e-08,1.95314157e+01,1.0,1.000,sky130
7.00000000e-08,1.36262933e-06,7.00000000e-08,7.00000250e-08,7.00000000e-08,3.82011347e-15,7.00000000e-08,-3.12423728e-15,7.00000000e-08,-2.84974932e-19,7.00000000e-08,1.47507302e-15,7.00000000e-08,2.21130927e-15,7.00000000e-08,3.25944134e-19,7.00000000e-08,1.44557233e-09,7.00000000e-08,1.07221655e+00,7.00000000e-08,6.01614465e-02,7.00000000e-08,1.04515687e+00,7.00000000e-08,1.04515685e+00,7.00000000e-08,6.91767532e+08,7.00000000e-08,3.56698652e+08,7.00000000e-08,5.67703537e+07,7.00000000e-08,1.94661263e+01,1.0,1.000,sky130
7.50000000e-08,1.45479304e-06,7.50000000e-08,7.49997867e-08,7.50000000e-08,3.84905788e-15,7.50000000e-08,-3.16144152e-15,7.50000000e-08,-2.88867880e-19,7.50000000e-08,1.49166261e-15,7.50000000e-08,2.23618309e-15,7.50000000e-08,3.30401810e-19,7.50000000e-08,1.53734893e-09,7.50000000e-08,1.07221655e+00,7.50000000e-08,6.13478201e-02,7.50000000e-08,1.04870336e+00,7.50000000e-08,1.04870334e+00,7.50000000e-08,6.50470416e+08,7.50000000e-08,3.77960813e+08,7.50000000e-08,6.01543317e+07,7.50000000e-08,1.93972958e+01,1.0,1.000,sky130
8.00000000e-08,1.54603978e-06,8.00000000e-08,7.99996096e-08,8.00000000e-08,3.87603048e-15,8.00000000e-08,-3.19609491e-15,8.00000000e-08,-2.92542994e-19,8.00000000e-08,1.50709809e-15,8.00000000e-08,2.25932657e-15,8.00000000e-08,3.34610095e-19,8.00000000e-08,1.62842353e-09,8.00000000e-08,1.07221655e+00,8.00000000e-08,6.25021635e-02,8.00000000e-08,1.05203300e+00,8.00000000e-08,1.05203298e+00,8.00000000e-08,6.14090858e+08,8.00000000e-08,3.98871935e+08,8.00000000e-08,6.34824401e+07,8.00000000e-08,1.93255915e+01,1.0,1.000,sky130
8.50000000e-08,1.63637361e-06,8.50000000e-08,8.49994768e-08,8.50000000e-08,3.90127602e-15,8.50000000e-08,-3.22851560e-15,8.50000000e-08,-2.96025729e-19,8.50000000e-08,1.52152439e-15,8.50000000e-08,2.28095695e-15,8.50000000e-08,3.38598130e-19,8.50000000e-08,1.71885007e-09,8.50000000e-08,1.07221655e+00,8.50000000e-08,6.36269246e-02,8.50000000e-08,1.05517258e+00,8.50000000e-08,1.05517255e+00,8.50000000e-08,5.81784310e+08,8.50000000e-08,4.19445740e+08,8.50000000e-08,6.67568630e+07,8.50000000e-08,1.92515728e+01,1.0,1.000,sky130
9.00000000e-08,1.72580178e-06,9.00000000e-08,8.99993745e-08,9.00000000e-08,3.92499694e-15,9.00000000e-08,-3.25896655e-15,9.00000000e-08,-2.99337291e-19,9.00000000e-08,1.53506114e-15,9.00000000e-08,2.30125362e-15,9.00000000e-08,3.42390192e-19,9.00000000e-08,1.80867585e-09,9.00000000e-08,1.07221655e+00,9.00000000e-08,6.47242548e-02,9.00000000e-08,1.05814423e+00,9.00000000e-08,1.05814421e+00,9.00000000e-08,5.52890669e+08,9.00000000e-08,4.39695062e+08,9.00000000e-08,6.99796426e+07,9.00000000e-08,1.91757086e+01,1.0,1.000,sky130
9.50000000e-08,1.81433392e-06,9.50000000e-08,9.49992958e-08,9.50000000e-08,3.94736254e-15,9.50000000e-08,-3.28766750e-15,9.50000000e-08,-3.02495540e-19,9.50000000e-08,1.54780823e-15,9.50000000e-08,2.32036635e-15,9.50000000e-08,3.46006726e-19,9.50000000e-08,1.89794268e-09,9.50000000e-08,1.07221655e+00,9.50000000e-08,6.57960578e-02,9.50000000e-08,1.06096645e+00,9.50000000e-08,1.06096643e+00,9.50000000e-08,5.26886302e+08,9.50000000e-08,4.59631944e+08,9.50000000e-08,7.31526958e+07,9.50000000e-08,1.90983933e+01,1.0,1.000,sky130
1.00000000e-07,1.90201194e-06,1.00000000e-07,1.00000986e-07,1.00000000e-07,3.96852298e-15,1.00000000e-07,-3.31481310e-15,1.00000000e-07,-3.05516690e-19,1.00000000e-07,1.55985397e-15,1.00000000e-07,2.33842753e-15,1.00000000e-07,3.49466295e-19,1.00000000e-07,1.98671868e-09,1.00000000e-07,1.07221655e+00,1.00000000e-07,6.68443900e-02,1.00000000e-07,1.06365576e+00,1.00000000e-07,1.06365573e+00,1.00000000e-07,5.03342527e+08,1.00000000e-07,4.79274518e+08,1.00000000e-07,7.62789086e+07,1.00000000e-07,1.90199317e+01,1.0,1.000,sky130
