isweep,gm,i_id,id,i_cgg,cgg,i_cgs,cgs,i_cgd,cgd,i_cds,cds,i_css,css,i_cdd,cdd,i_gds,gds,i_vth,vth,i_vdsat,vdsat,i_vgs,vgs,i_vds,vds,i_rds,rds,i_wt,wt,i_ft,ft,i_kgm,kgm,W,L,pdk
1.00000000e-09,2.96688975e-08,1.00000000e-09,9.99602289e-10,1.00000000e-09,5.36648023e-16,1.00000000e-09,-1.18301252e-16,1.00000000e-09,1.97313906e-19,1.00000000e-09,7.18830819e-17,1.00000000e-09,1.07572313e-16,1.00000000e-09,-3.33507329e-20,1.00000000e-09,1.00896389e-09,1.00000000e-09,7.31693693e-01,1.00000000e-09,4.19295357e-02,1.00000000e-09,3.97044112e-01,1.00000000e-09,3.97044111e-01,1.00000000e-09,9.91115743e+08,1.00000000e-09,5.52855804e+07,1.00000000e-09,8.79897341e+06,1.00000000e-09,2.96807018e+01,1.0,.200,sky130
1.50000000e-09,4.44160210e-08,1.50000000e-09,1.50573581e-09,1.50000000e-09,5.45668478e-16,1.50000000e-09,-1.31981048e-16,1.50000000e-09,2.16041314e-19,1.50000000e-09,7.95307990e-17,1.50000000e-09,1.19027354e-16,1.50000000e-09,-4.11348493e-20,1.50000000e-09,1.49299622e-09,1.50000000e-09,7.31692866e-01,1.50000000e-09,4.19373581e-02,1.50000000e-09,4.10435683e-01,1.50000000e-09,4.10435683e-01,1.50000000e-09,6.69794058e+08,1.50000000e-09,8.13974469e+07,1.50000000e-09,1.29548060e+07,1.50000000e-09,2.94978845e+01,1.0,.200,sky130
2.00000000e-09,5.91017192e-08,2.00000000e-09,2.01390872e-09,2.00000000e-09,5.52770223e-16,2.00000000e-09,-1.42539185e-16,2.00000000e-09,2.29500541e-19,2.00000000e-09,8.53781605e-17,2.00000000e-09,1.27786202e-16,2.00000000e-09,-4.64519062e-20,2.00000000e-09,1.97189606e-09,2.00000000e-09,7.31692276e-01,2.00000000e-09,4.19451292e-02,2.00000000e-09,4.19998451e-01,2.00000000e-09,4.19998450e-01,2.00000000e-09,5.07126122e+08,2.00000000e-09,1.06919144e+08,2.00000000e-09,1.70167103e+07,2.00000000e-09,2.93467715e+01,1.0,.200,sky130
2.50000000e-09,7.32242079e-08,2.50000000e-09,2.50596230e-09,2.50000000e-09,5.58510325e-16,2.50000000e-09,-1.50963550e-16,2.50000000e-09,2.39665152e-19,2.50000000e-09,9.00120644e-17,2.50000000e-09,1.34727644e-16,2.50000000e-09,-5.03076430e-20,2.50000000e-09,2.43063973e-09,2.50000000e-09,7.31691830e-01,2.50000000e-09,4.19525951e-02,2.50000000e-09,4.27222628e-01,2.50000000e-09,4.27222627e-01,2.50000000e-09,4.11414323e+08,2.50000000e-09,1.31106274e+08,2.50000000e-09,2.08662116e+07,2.50000000e-09,2.92199958e+01,1.0,.200,sky130
3.00000000e-09,8.73654957e-08,3.00000000e-09,3.00163136e-09,3.00000000e-09,5.63518803e-16,3.00000000e-09,-1.58246101e-16,3.00000000e-09,2.48063391e-19,3.00000000e-09,9.39965915e-17,3.00000000e-09,1.40696504e-16,3.00000000e-09,-5.33847532e-20,3.00000000e-09,2.88884491e-09,3.00000000e-09,7.31691460e-01,3.00000000e-09,4.19600694e-02,3.00000000e-09,4.33212801e-01,3.00000000e-09,4.33212800e-01,3.00000000e-09,3.46159115e+08,3.00000000e-09,1.55035635e+08,3.00000000e-09,2.46746877e+07,3.00000000e-09,2.91060044e+01,1.0,.200,sky130
3.50000000e-09,1.01527122e-07,3.50000000e-09,3.50072686e-09,3.50000000e-09,5.67984669e-16,3.50000000e-09,-1.64692493e-16,3.50000000e-09,2.55209205e-19,3.50000000e-09,9.75079481e-17,3.50000000e-09,1.45956670e-16,3.50000000e-09,-5.59218287e-20,3.50000000e-09,3.34693274e-09,3.50000000e-09,7.31691143e-01,3.50000000e-09,4.19675559e-02,3.50000000e-09,4.38337627e-01,3.50000000e-09,4.38337626e-01,3.50000000e-09,2.98781027e+08,3.50000000e-09,1.78749758e+08,3.50000000e-09,2.84489076e+07,3.50000000e-09,2.90017264e+01,1.0,.200,sky130
4.00000000e-09,1.15632195e-07,4.00000000e-09,4.00033071e-09,4.00000000e-09,5.72008413e-16,4.00000000e-09,-1.70466378e-16,4.00000000e-09,2.61387652e-19,4.00000000e-09,1.00641007e-16,4.00000000e-09,1.50650219e-16,4.00000000e-09,-5.80523263e-20,4.00000000e-09,3.80267089e-09,4.00000000e-09,7.31690868e-01,4.00000000e-09,4.19750161e-02,4.00000000e-09,4.42798271e-01,4.00000000e-09,4.42798270e-01,4.00000000e-09,2.62973060e+08,4.00000000e-09,2.02151213e+08,4.00000000e-09,3.21733648e+07,4.00000000e-09,2.89056588e+01,1.0,.200,sky130
4.50000000e-09,1.29675388e-07,4.50000000e-09,4.50006494e-09,4.50000000e-09,5.75677067e-16,4.50000000e-09,-1.75704792e-16,4.50000000e-09,2.66816902e-19,4.50000000e-09,1.03474061e-16,4.50000000e-09,1.54894410e-16,4.50000000e-09,-5.98737787e-20,4.50000000e-09,4.25607066e-09,4.50000000e-09,7.31690624e-01,4.50000000e-09,4.19824484e-02,4.50000000e-09,4.46747170e-01,4.50000000e-09,4.46747169e-01,4.50000000e-09,2.34958505e+08,4.50000000e-09,2.25257172e+08,4.50000000e-09,3.58507924e+07,4.50000000e-09,2.88163371e+01,1.0,.200,sky130
5.00000000e-09,1.43660374e-07,5.00000000e-09,4.99990093e-09,5.00000000e-09,5.79055036e-16,5.00000000e-09,-1.80507892e-16,5.00000000e-09,2.71651279e-19,5.00000000e-09,1.06064040e-16,5.00000000e-09,1.58774509e-16,5.00000000e-09,-6.14538050e-20,5.00000000e-09,4.70738348e-09,5.00000000e-09,7.31690405e-01,5.00000000e-09,4.19898557e-02,5.00000000e-09,4.50291313e-01,5.00000000e-09,4.50291311e-01,5.00000000e-09,2.12432237e+08,5.00000000e-09,2.48094507e+08,5.00000000e-09,3.94854671e+07,5.00000000e-09,2.87326440e+01,1.0,.200,sky130
5.50000000e-09,1.57589824e-07,5.50000000e-09,5.49979925e-09,5.50000000e-09,5.82189941e-16,5.50000000e-09,-1.84949160e-16,5.50000000e-09,2.76001762e-19,5.50000000e-09,1.08452582e-16,5.50000000e-09,1.62352878e-16,5.50000000e-09,-6.28403735e-20,5.50000000e-09,5.15679448e-09,5.50000000e-09,7.31690207e-01,5.50000000e-09,4.19972397e-02,5.50000000e-09,4.53507103e-01,5.50000000e-09,4.53507101e-01,5.50000000e-09,1.93918917e+08,5.50000000e-09,2.70684553e+08,5.50000000e-09,4.30807847e+07,5.50000000e-09,2.86537411e+01,1.0,.200,sky130
6.00000000e-09,1.71466155e-07,6.00000000e-09,5.99973016e-09,6.00000000e-09,5.85118179e-16,6.00000000e-09,-1.89084366e-16,6.00000000e-09,2.79950993e-19,6.00000000e-09,1.10671197e-16,6.00000000e-09,1.65676711e-16,6.00000000e-09,-6.40687504e-20,6.00000000e-09,5.60445682e-09,6.00000000e-09,7.31690025e-01,6.00000000e-09,4.20046024e-02,6.00000000e-09,4.56451121e-01,6.00000000e-09,4.56451119e-01,6.00000000e-09,1.78429424e+08,6.00000000e-09,2.93045339e+08,6.00000000e-09,4.66396143e+07,6.00000000e-09,2.85789778e+01,1.0,.200,sky130
6.50000000e-09,1.85291887e-07,6.50000000e-09,6.49968268e-09,6.50000000e-09,5.87868315e-16,6.50000000e-09,-1.92957010e-16,6.50000000e-09,2.83562262e-19,6.50000000e-09,1.12744394e-16,6.50000000e-09,1.68782719e-16,6.50000000e-09,-6.51656167e-20,6.50000000e-09,6.05051001e-09,6.50000000e-09,7.31689857e-01,6.50000000e-09,4.20119451e-02,6.50000000e-09,4.59166504e-01,6.50000000e-09,4.59166502e-01,6.50000000e-09,1.65275324e+08,6.50000000e-09,3.15192845e+08,6.50000000e-09,5.01644993e+07,6.50000000e-09,2.85078358e+01,1.0,.200,sky130
7.00000000e-09,1.99069280e-07,7.00000000e-09,6.99964874e-09,7.00000000e-09,5.90463164e-16,7.00000000e-09,-1.96601650e-16,7.00000000e-09,2.86885046e-19,7.00000000e-09,1.14691597e-16,7.00000000e-09,1.71699995e-16,7.00000000e-09,-6.61516010e-20,7.00000000e-09,6.49507269e-09,7.00000000e-09,7.31689702e-01,7.00000000e-09,4.20192693e-02,7.00000000e-09,4.61686844e-01,7.00000000e-09,4.61686841e-01,7.00000000e-09,1.53962865e+08,7.00000000e-09,3.37140896e+08,7.00000000e-09,5.36576401e+07,7.00000000e-09,2.84398957e+01,1.0,.200,sky130
7.50000000e-09,2.12800390e-07,7.50000000e-09,7.49962278e-09,7.50000000e-09,5.92921264e-16,7.50000000e-09,-2.00046236e-16,7.50000000e-09,2.89958753e-19,7.50000000e-09,1.16528480e-16,7.50000000e-09,1.74452017e-16,7.50000000e-09,-6.70429671e-20,7.50000000e-09,6.93824739e-09,7.50000000e-09,7.31689557e-01,7.50000000e-09,4.20265761e-02,7.50000000e-09,4.64038814e-01,7.50000000e-09,4.64038812e-01,7.50000000e-09,1.44128617e+08,7.50000000e-09,3.58901599e+08,7.50000000e-09,5.71209635e+07,7.50000000e-09,2.83748124e+01,1.0,.200,sky130
8.00000000e-09,2.26487151e-07,8.00000000e-09,7.99960327e-09,8.00000000e-09,5.95257913e-16,8.00000000e-09,-2.03313729e-16,8.00000000e-09,2.92815298e-19,8.00000000e-09,1.18267894e-16,8.00000000e-09,1.77058033e-16,8.00000000e-09,-6.78527567e-20,8.00000000e-09,7.38012558e-09,8.00000000e-09,7.31689421e-01,8.00000000e-09,4.20338666e-02,8.00000000e-09,4.66243962e-01,8.00000000e-09,4.66243960e-01,8.00000000e-09,1.35499049e+08,8.00000000e-09,3.80485746e+08,8.00000000e-09,6.05561872e+07,8.00000000e-09,2.83122979e+01,1.0,.200,sky130
8.50000000e-09,2.40131301e-07,8.50000000e-09,8.49958850e-09,8.50000000e-09,5.97485879e-16,8.50000000e-09,-2.06423224e-16,8.50000000e-09,2.95480872e-19,8.50000000e-09,1.19920507e-16,8.50000000e-09,1.79534021e-16,8.50000000e-09,-6.85915739e-20,8.50000000e-09,7.82078669e-09,8.50000000e-09,7.31689292e-01,8.50000000e-09,4.20411417e-02,8.50000000e-09,4.68319928e-01,8.50000000e-09,4.68319925e-01,8.50000000e-09,1.27864375e+08,8.50000000e-09,4.01902888e+08,8.50000000e-09,6.39648313e+07,8.50000000e-09,2.82521090e+01,1.0,.200,sky130
9.00000000e-09,2.53734403e-07,9.00000000e-09,8.99957643e-09,9.00000000e-09,5.99615942e-16,9.00000000e-09,-2.09390781e-16,9.00000000e-09,2.97977228e-19,9.00000000e-09,1.21495271e-16,9.00000000e-09,1.81893393e-16,9.00000000e-09,-6.92681509e-20,9.00000000e-09,8.26030013e-09,9.00000000e-09,7.31689171e-01,9.00000000e-09,4.20484022e-02,9.00000000e-09,4.70281339e-01,9.00000000e-09,4.70281336e-01,9.00000000e-09,1.21060976e+08,9.00000000e-09,4.23161536e+08,9.00000000e-09,6.73482501e+07,9.00000000e-09,2.81940383e+01,1.0,.200,sky130
9.50000000e-09,2.67297931e-07,9.50000000e-09,9.49956689e-09,9.50000000e-09,6.01657298e-16,9.50000000e-09,-2.12230059e-16,9.50000000e-09,3.00322642e-19,9.50000000e-09,1.22999792e-16,9.50000000e-09,1.84147540e-16,9.50000000e-09,-6.98897619e-20,9.50000000e-09,8.69872887e-09,9.50000000e-09,7.31689057e-01,9.50000000e-09,4.20556489e-02,9.50000000e-09,4.72140466e-01,9.50000000e-09,4.72140463e-01,9.50000000e-09,1.14959325e+08,9.50000000e-09,4.44269407e+08,9.50000000e-09,7.07076723e+07,9.50000000e-09,2.81379071e+01,1.0,.200,sky130
1.00000000e-08,2.80822278e-07,1.00000000e-08,9.99952418e-09,1.00000000e-08,6.03617720e-16,1.00000000e-08,-2.14952583e-16,1.00000000e-08,3.02532456e-19,1.00000000e-08,1.24440479e-16,1.00000000e-08,1.86306061e-16,1.00000000e-08,-7.04624856e-20,1.00000000e-08,9.13609804e-09,1.00000000e-08,7.31688948e-01,1.00000000e-08,4.20628819e-02,1.00000000e-08,4.73907578e-01,1.00000000e-08,4.73907576e-01,1.00000000e-08,1.09455918e+08,1.00000000e-08,4.65231998e+08,1.00000000e-08,7.40439722e+07,1.00000000e-08,2.80835641e+01,1.0,.200,sky130
1.50000000e-08,4.15680441e-07,1.50000000e-08,1.50553788e-08,1.50000000e-08,6.20105793e-16,1.50000000e-08,-2.37703653e-16,1.50000000e-08,3.19543083e-19,1.50000000e-08,1.36407800e-16,1.50000000e-08,2.04236731e-16,1.50000000e-08,-7.43895530e-20,1.50000000e-08,1.35105235e-08,1.50000000e-08,7.31688069e-01,1.50000000e-08,4.21353951e-02,1.50000000e-08,4.88136741e-01,1.50000000e-08,4.88136736e-01,1.50000000e-08,7.40163771e+07,1.50000000e-08,6.70337942e+08,1.50000000e-08,1.06687597e+08,1.50000000e-08,2.76100952e+01,1.0,.200,sky130
2.00000000e-08,5.48027819e-07,2.00000000e-08,2.01269191e-08,2.00000000e-08,6.32737659e-16,2.00000000e-08,-2.54980378e-16,2.00000000e-08,3.30790709e-19,2.00000000e-08,1.45415068e-16,2.00000000e-08,2.17732940e-16,2.00000000e-08,-7.63993498e-20,2.00000000e-08,1.78294012e-08,2.00000000e-08,7.31687437e-01,2.00000000e-08,4.22072129e-02,2.00000000e-08,4.98390504e-01,2.00000000e-08,4.98390498e-01,2.00000000e-08,5.60871332e+07,2.00000000e-08,8.66121703e+08,2.00000000e-08,1.37847550e+08,2.00000000e-08,2.72285995e+01,1.0,.200,sky130
2.50000000e-08,6.74340294e-07,2.50000000e-08,2.50551138e-08,2.50000000e-08,6.42791622e-16,2.50000000e-08,-2.68651280e-16,2.50000000e-08,3.38713406e-19,2.50000000e-08,1.52496808e-16,2.50000000e-08,2.28344341e-16,2.50000000e-08,-7.74286892e-20,2.50000000e-08,2.19759541e-08,2.50000000e-08,7.31686953e-01,2.50000000e-08,4.22763113e-02,2.50000000e-08,5.06225358e-01,2.50000000e-08,5.06225350e-01,2.50000000e-08,4.55042814e+07,2.50000000e-08,1.04908071e+09,2.50000000e-08,1.66966381e+08,2.50000000e-08,2.69142779e+01,1.0,.200,sky130
3.00000000e-08,7.99592809e-07,3.00000000e-08,3.00178961e-08,3.00000000e-08,6.51431414e-16,3.00000000e-08,-2.80349344e-16,3.00000000e-08,3.44827703e-19,3.00000000e-08,1.58526328e-16,3.00000000e-08,2.37379305e-16,3.00000000e-08,-7.79313989e-20,3.00000000e-08,2.61108273e-08,3.00000000e-08,7.31686550e-01,3.00000000e-08,4.23453212e-02,3.00000000e-08,5.12761114e-01,3.00000000e-08,5.12761106e-01,3.00000000e-08,3.82982886e+07,3.00000000e-08,1.22743974e+09,3.00000000e-08,1.95353103e+08,3.00000000e-08,2.66372036e+01,1.0,.200,sky130
3.50000000e-08,9.23858455e-07,3.50000000e-08,3.50098849e-08,3.50000000e-08,6.59033336e-16,3.50000000e-08,-2.90607612e-16,3.50000000e-08,3.49695970e-19,3.50000000e-08,1.63791752e-16,3.50000000e-08,2.45269477e-16,3.50000000e-08,-7.80936294e-20,3.50000000e-08,3.02348883e-08,3.50000000e-08,7.31686204e-01,3.50000000e-08,4.24142328e-02,3.50000000e-08,5.18379617e-01,3.50000000e-08,5.18379607e-01,3.50000000e-08,3.30743738e+07,3.50000000e-08,1.40183873e+09,3.50000000e-08,2.23109563e+08,3.50000000e-08,2.63885031e+01,1.0,.200,sky130
4.00000000e-08,1.04669273e-06,4.00000000e-08,4.00062856e-08,4.00000000e-08,6.65810612e-16,4.00000000e-08,-2.99727978e-16,4.00000000e-08,3.53643838e-19,4.00000000e-08,1.68456470e-16,4.00000000e-08,2.52259626e-16,4.00000000e-08,-7.80242501e-20,4.00000000e-08,3.43316928e-08,4.00000000e-08,7.31685900e-01,4.00000000e-08,4.24827538e-02,4.00000000e-08,5.23295583e-01,4.00000000e-08,5.23295571e-01,4.00000000e-08,2.91276054e+07,4.00000000e-08,1.57205775e+09,4.00000000e-08,2.50200762e+08,4.00000000e-08,2.61632071e+01,1.0,.200,sky130
4.50000000e-08,1.16816684e-06,4.50000000e-08,4.50039458e-08,4.50000000e-08,6.71933708e-16,4.50000000e-08,-3.07949042e-16,4.50000000e-08,3.56900015e-19,4.50000000e-08,1.72648213e-16,4.50000000e-08,2.58541118e-16,4.50000000e-08,-7.77925988e-20,4.50000000e-08,3.84018928e-08,4.50000000e-08,7.31685631e-01,4.50000000e-08,4.25508819e-02,4.50000000e-08,5.27668908e-01,4.50000000e-08,5.27668895e-01,4.50000000e-08,2.60403831e+07,4.50000000e-08,1.73851502e+09,4.50000000e-08,2.76693259e+08,4.50000000e-08,2.59569872e+01,1.0,.200,sky130
5.00000000e-08,1.28839545e-06,5.00000000e-08,5.00025376e-08,5.00000000e-08,6.77526075e-16,5.00000000e-08,-3.15442750e-16,5.00000000e-08,3.59621286e-19,5.00000000e-08,1.76458620e-16,5.00000000e-08,2.64251246e-16,5.00000000e-08,-7.74438936e-20,5.00000000e-08,4.24477554e-08,5.00000000e-08,7.31685388e-01,5.00000000e-08,4.26186450e-02,5.00000000e-08,5.31611656e-01,5.00000000e-08,5.31611641e-01,5.00000000e-08,2.35583717e+07,5.00000000e-08,1.90161752e+09,5.00000000e-08,3.02651828e+08,5.00000000e-08,2.57666013e+01,1.0,.200,sky130
5.50000000e-08,1.40747144e-06,5.50000000e-08,5.50016610e-08,5.50000000e-08,6.82678199e-16,5.50000000e-08,-3.22334709e-16,5.50000000e-08,3.61918335e-19,5.50000000e-08,1.79954432e-16,5.50000000e-08,2.69490005e-16,5.50000000e-08,-7.70088786e-20,5.50000000e-08,4.64709843e-08,5.50000000e-08,7.31685166e-01,5.50000000e-08,4.26860641e-02,5.50000000e-08,5.35204063e-01,5.50000000e-08,5.35204047e-01,5.50000000e-08,2.15188040e+07,5.50000000e-08,2.06169091e+09,5.50000000e-08,3.28128300e+08,5.50000000e-08,2.55896170e+01,1.0,.200,sky130
6.00000000e-08,1.52547647e-06,6.00000000e-08,6.00010849e-08,6.00000000e-08,6.87458725e-16,6.00000000e-08,-3.28719921e-16,6.00000000e-08,3.63872117e-19,6.00000000e-08,1.83185986e-16,6.00000000e-08,2.74332811e-16,6.00000000e-08,-7.65091791e-20,6.00000000e-08,5.04730546e-08,6.00000000e-08,7.31684963e-01,6.00000000e-08,4.27531577e-02,6.00000000e-08,5.38505723e-01,6.00000000e-08,5.38505706e-01,6.00000000e-08,1.98125516e+07,6.00000000e-08,2.21900808e+09,6.00000000e-08,3.53166104e+08,6.00000000e-08,2.54241481e+01,1.0,.200,sky130
6.50000000e-08,1.64248289e-06,6.50000000e-08,6.50006922e-08,6.50000000e-08,6.91921043e-16,6.50000000e-08,-3.34672081e-16,6.50000000e-08,3.65543479e-19,6.50000000e-08,1.86192232e-16,6.50000000e-08,2.78838019e-16,6.50000000e-08,-7.59604290e-20,6.50000000e-08,5.44552595e-08,6.50000000e-08,7.31684774e-01,6.50000000e-08,4.28199425e-02,6.50000000e-08,5.41562129e-01,6.50000000e-08,5.41562110e-01,6.50000000e-08,1.83636991e+07,6.50000000e-08,2.37380104e+09,6.50000000e-08,3.77802169e+08,6.50000000e-08,2.52686985e+01,1.0,.200,sky130
7.00000000e-08,1.75855453e-06,7.00000000e-08,7.00004128e-08,7.00000000e-08,6.96107522e-16,7.00000000e-08,-3.40249537e-16,7.00000000e-08,3.66979207e-19,7.00000000e-08,1.89003935e-16,7.00000000e-08,2.83051727e-16,7.00000000e-08,-7.53741928e-20,7.00000000e-08,5.84187187e-08,7.00000000e-08,7.31684599e-01,7.00000000e-08,4.28864334e-02,7.00000000e-08,5.44408784e-01,7.00000000e-08,5.44408764e-01,7.00000000e-08,1.71178010e+07,7.00000000e-08,2.52626854e+09,7.00000000e-08,4.02068126e+08,7.00000000e-08,2.51220595e+01,1.0,.200,sky130
7.50000000e-08,1.87374817e-06,7.50000000e-08,7.50002106e-08,7.50000000e-08,7.00052389e-16,7.50000000e-08,-3.45499325e-16,7.50000000e-08,3.68215971e-19,7.50000000e-08,1.91645847e-16,7.50000000e-08,2.87011019e-16,7.50000000e-08,-7.47591892e-20,7.50000000e-08,6.23644134e-08,7.50000000e-08,7.31684435e-01,7.50000000e-08,4.29526434e-02,7.50000000e-08,5.47073943e-01,7.50000000e-08,5.47073922e-01,7.50000000e-08,1.60347856e+07,7.50000000e-08,2.67658278e+09,7.50000000e-08,4.25991379e+08,7.50000000e-08,2.49832387e+01,1.0,.200,sky130
8.00000000e-08,1.98811430e-06,8.00000000e-08,8.00000595e-08,8.00000000e-08,7.03783702e-16,8.00000000e-08,-3.50459932e-16,8.00000000e-08,3.69282998e-19,8.00000000e-08,1.94138179e-16,8.00000000e-08,2.90746178e-16,8.00000000e-08,-7.41220988e-20,8.00000000e-08,6.62932006e-08,8.00000000e-08,7.31684280e-01,8.00000000e-08,4.30185842e-02,8.00000000e-08,5.49580455e-01,8.00000000e-08,5.49580432e-01,8.00000000e-08,1.50845033e+07,8.00000000e-08,2.82489392e+09,8.00000000e-08,4.49595831e+08,8.00000000e-08,2.48514103e+01,1.0,.200,sky130
8.50000000e-08,2.10169831e-06,8.50000000e-08,8.49999456e-08,8.50000000e-08,7.07324775e-16,8.50000000e-08,-3.55163282e-16,8.50000000e-08,3.70203916e-19,8.50000000e-08,1.96497669e-16,8.50000000e-08,2.94282281e-16,8.50000000e-08,-7.34681112e-20,8.50000000e-08,7.02058396e-08,8.50000000e-08,7.31684135e-01,8.50000000e-08,4.30842660e-02,8.50000000e-08,5.51947069e-01,8.50000000e-08,5.51947044e-01,8.50000000e-08,1.42438294e+07,8.50000000e-08,2.97133422e+09,8.50000000e-08,4.72902529e+08,8.50000000e-08,2.47258783e+01,1.0,.200,sky130
9.00000000e-08,2.21454102e-06,9.00000000e-08,8.99998568e-08,9.00000000e-08,7.10695195e-16,9.00000000e-08,-3.59636155e-16,9.00000000e-08,3.70998071e-19,9.00000000e-08,1.98738331e-16,9.00000000e-08,2.97640329e-16,9.00000000e-08,-7.28013057e-20,9.00000000e-08,7.41030030e-08,9.00000000e-08,7.31683996e-01,9.00000000e-08,4.31496982e-02,9.00000000e-08,5.54189356e-01,9.00000000e-08,5.54189330e-01,9.00000000e-08,1.34947298e+07,9.00000000e-08,3.11602081e+09,9.00000000e-08,4.95930115e+08,9.00000000e-08,2.46060505e+01,1.0,.200,sky130
9.50000000e-08,2.32667947e-06,9.50000000e-08,9.49997865e-08,9.50000000e-08,7.13911594e-16,9.50000000e-08,-3.63901257e-16,9.50000000e-08,3.71681481e-19,9.50000000e-08,2.00872031e-16,9.50000000e-08,3.00838099e-16,9.50000000e-08,-7.21249206e-20,9.50000000e-08,7.79852944e-08,9.50000000e-08,7.31683865e-01,9.50000000e-08,4.32148892e-02,9.50000000e-08,5.56320401e-01,9.50000000e-08,5.56320373e-01,9.50000000e-08,1.28229304e+07,9.50000000e-08,3.25905825e+09,9.50000000e-08,5.18695230e+08,9.50000000e-08,2.44914179e+01,1.0,.200,sky130
1.00000000e-07,2.43814093e-06,1.00000000e-07,9.99994405e-08,1.00000000e-07,7.16988044e-16,1.00000000e-07,-3.67977781e-16,1.00000000e-07,3.72267508e-19,1.00000000e-07,2.02908788e-16,1.00000000e-07,3.03890604e-16,1.00000000e-07,-7.14415893e-20,1.00000000e-07,8.18530332e-08,1.00000000e-07,7.31683740e-01,1.00000000e-07,4.32798428e-02,1.00000000e-07,5.58351184e-01,1.00000000e-07,5.58351155e-01,1.00000000e-07,1.22170182e+07,1.00000000e-07,3.40053220e+09,1.00000000e-07,5.41211509e+08,1.00000000e-07,2.43815457e+01,1.0,.200,sky130
